(1763084500.796130) can0 000A0003#FF65FFC310290000
(1763084500.796373) can0 000A0004#FFFFFFE7FFEA8E02
(1763084500.802511) can0 189#48029C01B5010059
(1763084500.803496) can0 482#0000000008340001
(1763084500.803618) can0 701#05
(1763084500.803912) can0 382#0000000000000000
(1763084500.806098) can0 000A0003#FF65FFC010280000
(1763084500.806387) can0 000A0004#FFFFFFE8FFEB8E02
(1763084500.812471) can0 189#48029C01B5010059
(1763084500.816087) can0 000A0003#FF64FFBE10260000
(1763084500.816373) can0 000A0004#0000FFE7FFEB8E02
(1763084500.819968) can0 281#0000000000000000
(1763084500.822490) can0 186#00004C1D090F0000
(1763084500.822776) can0 189#48029C01B3010059
(1763084500.823643) can0 080#
(1763084500.824793) can0 286#0000900100000000
(1763084500.825442) can0 382#0000000000000000
(1763084500.825560) can0 701#05
(1763084500.825811) can0 482#0000000008340001
(1763084500.826100) can0 000A0003#FF63FFBC10240000
(1763084500.826390) can0 000A0004#FFFFFFE7FFEC8E02
(1763084500.827799) can0 4C4#05050533052D0551
(1763084500.828282) can0 19A#00007C605F7B897D
(1763084500.828811) can0 4C5#0544053A0530052B
(1763084500.829286) can0 29A#7E7B807C87840000
(1763084500.829823) can0 4C6#052F0530052D0532
(1763084500.830804) can0 181#910132247F000009
(1763084500.831044) can0 4C7#0555053F04FE0507
(1763084500.831290) can0 188#0C00433100000000
(1763084500.831525) can0 682#4046260432040000
(1763084500.831843) can0 288#7C29642A00140000
(1763084500.832093) can0 4C8#04C0000000000000
(1763084500.832471) can0 189#47029901A6010059
(1763084500.832853) can0 388#1E1F1E1B1F000000
(1763084500.833807) can0 191#999A9A9A9A99
(1763084500.834819) can0 192#999A99999999
(1763084500.835824) can0 193#99999A9A999A
(1763084500.836109) can0 000A0003#FF63FFBB10230000
(1763084500.836397) can0 000A0004#FFFFFFE7FFEC8E02
(1763084500.836806) can0 194#999A9A9A9A9A
(1763084500.837807) can0 195#999A9A9A9A9A
(1763084500.838833) can0 291#0E0F0F0F0F0F
(1763084500.839835) can0 292#0E0F1010100F
(1763084500.840824) can0 293#0F0F0F0F0F0F
(1763084500.841823) can0 294#0E0F1010100F
(1763084500.842469) can0 189#47029A01B2010059
(1763084500.842829) can0 295#0E0F0F0F0F0E
(1763084500.846098) can0 000A0003#FF63FFBA10230000
(1763084500.846385) can0 000A0004#FFFEFFE3FFEC8E02
(1763084500.847000) can0 701#05
(1763084500.847283) can0 482#0000000008340001
(1763084500.847537) can0 382#0000000000000000
(1763084500.850417) can0 1A3#C0000509000000
(1763084500.852467) can0 189#48029C01B3010059
(1763084500.856089) can0 000A0003#FF63FFBA10220000
(1763084500.856375) can0 000A0004#FFFEFFE3FFEB8E02
(1763084500.856614) can0 1A2#0000350C000000
(1763084500.856838) can0 2A1#191A1A1919181612
(1763084500.862465) can0 186#00004C1D09000000
(1763084500.862805) can0 189#49029A01B3010059
(1763084500.863660) can0 281#0000000000000000
(1763084500.866090) can0 000A0003#FF63FFBA10200000
(1763084500.866380) can0 000A0004#FFFEFFE4FFEB8E02
(1763084500.866629) can0 382#0000000000000000
(1763084500.866787) can0 701#05
(1763084500.867036) can0 482#0000000008340001
(1763084500.869094) can0 181#910132247F000009
(1763084500.870768) can0 1A5#0000BB0D000000
(1763084500.871853) can0 682#4046250432040000
(1763084500.872468) can0 189#47029C01B0010059
(1763084500.876091) can0 000A0003#FF63FFB7101F0000
(1763084500.876376) can0 000A0004#FFFDFFE4FFEB8E02
(1763084500.879031) can0 1A4#0000BF0B000000
(1763084500.879254) can0 2A3#1317171717161412
(1763084500.882466) can0 189#48029C01B1010059
(1763084500.885419) can0 1A0#000000000000
(1763084500.886097) can0 000A0003#FF60FFB4101F0000
(1763084500.886386) can0 000A0004#FFFEFFE4FFEC8E02
(1763084500.887102) can0 000A0000#0000000000000000
(1763084500.887402) can0 000A0001#0000000000000000
(1763084500.887702) can0 000A0002#0000000000000000
(1763084500.887947) can0 701#05
(1763084500.888233) can0 482#0000000008340001
(1763084500.888487) can0 382#0000000000000000
(1763084500.892466) can0 189#48029C01AF010059
(1763084500.892871) can0 4C4#05110538052D054C
(1763084500.893884) can0 4C5#0544053605300523
(1763084500.894899) can0 4C6#052B053005290536
(1763084500.895919) can0 4C7#0559054305020502
(1763084500.896204) can0 000A0003#FF5FFFB1101E0000
(1763084500.896492) can0 000A0004#FFFFFFE5FFEB8E02
(1763084500.896952) can0 4C8#04C0000000000000
(1763084500.902463) can0 186#00004C1D09010000
(1763084500.902812) can0 189#48029C01AF010059
(1763084500.906095) can0 000A0003#FF5FFFAE101C0000
(1763084500.906385) can0 000A0004#FFFFFFE5FFEC8E02
(1763084500.907245) can0 181#910132247F000009
(1763084500.907525) can0 281#0000000000000000
(1763084500.909947) can0 482#0000000008340001
(1763084500.910067) can0 701#05
(1763084500.910323) can0 382#0000000000000000
(1763084500.912463) can0 189#48029B01AF010059
(1763084500.915532) can0 682#4046260432040000
(1763084500.916101) can0 000A0003#FF5FFFAC101C0000
(1763084500.916393) can0 000A0004#FFFFFFE5FFEC8E02
(1763084500.922478) can0 189#48029D01AE010059
(1763084500.922641) can0 080#
(1763084500.923793) can0 286#0000900100000000
(1763084500.926105) can0 000A0003#FF61FFAC101D0000
(1763084500.926392) can0 000A0004#FFFFFFE4FFEC8E02
(1763084500.931050) can0 188#0C00D43100000000
(1763084500.931808) can0 382#0000000000000000
(1763084500.932048) can0 288#7C29642A00140000
(1763084500.932162) can0 701#05
(1763084500.932428) can0 482#0000000008340001
(1763084500.932663) can0 189#48029C01AE010059
(1763084500.932902) can0 388#1E1F1E1B1F000000
(1763084500.933814) can0 191#999A9A9A9A99
(1763084500.934826) can0 192#999A99999999
(1763084500.935798) can0 193#99999A9A999A
(1763084500.936092) can0 000A0003#FF62FFAB101E0000
(1763084500.936378) can0 000A0004#FFFFFFE4FFEC8E02
(1763084500.936810) can0 194#999A9A9A9A9A
(1763084500.937812) can0 195#999A9A9A9A9A
(1763084500.938842) can0 291#0E0F0F0F0F0F
(1763084500.939812) can0 292#0E0F1010100F
(1763084500.940829) can0 293#0F0F0F0F0F0F
(1763084500.941829) can0 294#0E0F1010100F
(1763084500.942460) can0 186#00004C1D09020000
(1763084500.942791) can0 189#46029A01AD010059
(1763084500.943001) can0 295#0E0F0F0F0F0E
(1763084500.945446) can0 181#910132247F000009
(1763084500.946100) can0 000A0003#FF62FFA810200000
(1763084500.946386) can0 000A0004#FFFEFFE5FFEC8E02
(1763084500.950987) can0 281#0000000000000000
(1763084500.951424) can0 1A3#C0000509000000
(1763084500.952461) can0 189#48029C01AE010059
(1763084500.953467) can0 701#05
(1763084500.953747) can0 482#0000000008340001
(1763084500.954042) can0 382#0000000000000000
(1763084500.956104) can0 000A0003#FF62FFA710210000
(1763084500.956394) can0 000A0004#FFFEFFE6FFEB8E02
(1763084500.956636) can0 682#4046250432040000
(1763084500.957933) can0 4C4#05110538052D054C
(1763084500.958946) can0 4C5#0544053605300523
(1763084500.959961) can0 4C6#052B053005290536
(1763084500.960980) can0 4C7#0559054305020502
(1763084500.962013) can0 4C8#04C0000000000000
(1763084500.962459) can0 189#47029C01AD010059
(1763084500.964088) can0 1A2#0000350C000000
(1763084500.964313) can0 2A1#191A1A1919181612
(1763084500.966102) can0 000A0003#FF61FFA810210000
(1763084500.966391) can0 000A0004#FFFFFFE6FFEB8E02
(1763084500.972457) can0 189#48029C01AF010059
(1763084500.972878) can0 1A5#0000BB0D000000
(1763084500.975456) can0 482#0000000008340001
(1763084500.975579) can0 701#05
(1763084500.975831) can0 382#0000000000000000
(1763084500.976118) can0 000A0003#FF61FFA910210000
(1763084500.976405) can0 000A0004#FFFFFFE7FFEB8E02
(1763084500.982454) can0 186#00004C1D09030000
(1763084500.982801) can0 189#48029C01AD010059
(1763084500.983844) can0 181#910132247F000009
(1763084500.985418) can0 1A0#000000000000
(1763084500.986030) can0 1A4#0000BF0B000000
(1763084500.986315) can0 000A0003#FF63FFAA101E0000
(1763084500.986602) can0 000A0004#0000FFE7FFEA8E02
(1763084500.986828) can0 2A3#1317171717161412
(1763084500.987130) can0 000A0000#0000000000000000
(1763084500.987429) can0 000A0001#0000000000000000
(1763084500.987727) can0 000A0002#0000000000000000
(1763084500.992457) can0 189#46029A01AC010059
(1763084500.994580) can0 281#0000000000000000
(1763084500.996106) can0 000A0003#FF64FFAB101C0000
(1763084500.996396) can0 000A0004#FFFFFFE6FFEB8E02
(1763084500.997313) can0 382#0000000000000000
(1763084500.997471) can0 701#05
(1763084500.997719) can0 482#0000000008340001
(1763084500.997964) can0 682#4046250432040000
(1763084501.002456) can0 189#47029C01AD010059
(1763084501.006108) can0 000A0003#FF64FFAC101C0000
(1763084501.006394) can0 000A0004#FFFFFFE6FFEB8E02
(1763084501.012458) can0 189#48029C01AD010059
(1763084501.016103) can0 000A0003#FF64FFAE101A0000
(1763084501.016393) can0 000A0004#FFFFFFE6FFEC8E02
(1763084501.017280) can0 19A#00007C615F7B7F7C
(1763084501.018281) can0 29A#836B807F898A0000
(1763084501.018978) can0 701#05
(1763084501.019262) can0 482#0000000008340001
(1763084501.019555) can0 382#0000000000000000
(1763084501.021933) can0 181#910132247F000009
(1763084501.022470) can0 186#00004C1D09040000
(1763084501.022796) can0 189#46029A01AB010059
(1763084501.023026) can0 4C4#05110538052D0551
(1763084501.023596) can0 080#
(1763084501.023892) can0 4C5#0548053A052C0527
(1763084501.024782) can0 286#0000900100000000
(1763084501.025009) can0 4C6#052B052C05290536
(1763084501.025925) can0 4C7#0555053F05070507
(1763084501.026215) can0 000A0003#FF63FFB110180000
(1763084501.026507) can0 000A0004#FFFFFFE6FFEC8E02
(1763084501.026957) can0 4C8#04C0000000000000
(1763084501.031095) can0 188#0C009E3100000000
(1763084501.031856) can0 288#7C29642A00140000
(1763084501.032454) can0 189#47029C01AB010059
(1763084501.032866) can0 388#1E1F1E1B1F000000
(1763084501.033805) can0 191#999A9A9A9A99
(1763084501.034785) can0 192#999A99999999
(1763084501.035807) can0 193#99999A9A999A
(1763084501.036103) can0 000A0003#FF62FFB410170000
(1763084501.036393) can0 000A0004#FFFFFFE6FFEB8E02
(1763084501.036819) can0 194#999A9A9A9A9A
(1763084501.037823) can0 195#999A9A9A9A9A
(1763084501.038277) can0 281#0000000000000000
(1763084501.038534) can0 682#4046260432040000
(1763084501.038818) can0 291#0E0F0F0F0F0F
(1763084501.039822) can0 292#0E0F1010100F
(1763084501.040838) can0 293#0F0F0F0F0F0F
(1763084501.041082) can0 482#0000000008340001
(1763084501.041203) can0 701#05
(1763084501.041459) can0 382#0000000000000000
(1763084501.041836) can0 294#0E0F1010100F
(1763084501.042452) can0 189#45029A01AA010059
(1763084501.042843) can0 295#0E0F0F0F0F0E
(1763084501.046109) can0 000A0003#FF62FFB610170000
(1763084501.046391) can0 000A0004#FFFFFFE7FFEB8E02
(1763084501.052412) can0 1A3#C0000509000000
(1763084501.052646) can0 189#47029C01AB010059
(1763084501.056112) can0 000A0003#FF61FFB610160000
(1763084501.056402) can0 000A0004#FFFFFFE6FFEB8E02
(1763084501.060091) can0 181#910132247F000009
(1763084501.062448) can0 186#00004C1D09050000
(1763084501.062791) can0 189#47029C01AB010059
(1763084501.063040) can0 382#0000000000000000
(1763084501.063162) can0 701#05
(1763084501.063410) can0 482#0000000008340001
(1763084501.066118) can0 000A0003#FF61FFB610150000
(1763084501.066404) can0 000A0004#0003FFE6FFEB8E02
(1763084501.071575) can0 1A2#0000350C000000
(1763084501.071800) can0 2A1#191A1A1919181612
(1763084501.072452) can0 189#46029A01AB010059
(1763084501.074994) can0 1A5#0000BB0D000000
(1763084501.076109) can0 000A0003#FF60FFB610140000
(1763084501.076400) can0 000A0004#0003FFE7FFEB8E02
(1763084501.079314) can0 682#4046260432040000
(1763084501.082017) can0 281#0000000000000000
(1763084501.082448) can0 189#48029C01AB010059
(1763084501.084484) can0 701#05
(1763084501.084768) can0 482#0000000008340001
(1763084501.085022) can0 382#0000000000000000
(1763084501.085420) can0 1A0#000000000000
(1763084501.086109) can0 000A0003#FF61FFB510120000
(1763084501.086401) can0 000A0004#0004FFE8FFEB8E02
(1763084501.087121) can0 000A0000#0000000000000000
(1763084501.087422) can0 000A0001#0000000000000000
(1763084501.087719) can0 000A0002#0000000000000000
(1763084501.087953) can0 4C4#05110538052D0551
(1763084501.088849) can0 4C5#0548053A052C0527
(1763084501.089865) can0 4C6#052B052C05290532
(1763084501.090880) can0 4C7#0559053F05030502
(1763084501.091912) can0 4C8#04C0000000000000
(1763084501.092446) can0 189#46029A01AA010059
(1763084501.093049) can0 1A4#0000BF0B000000
(1763084501.093273) can0 2A3#1317171717161412
(1763084501.096120) can0 000A0003#FF60FFB410120000
(1763084501.096406) can0 000A0004#0007FFE7FFEB8E02
(1763084501.098386) can0 181#910132247F000009
(1763084501.102445) can0 186#00004C1D09060000
(1763084501.102800) can0 189#49029C01AB010059
(1763084501.106118) can0 000A0003#FF5DFFB310130000
(1763084501.106407) can0 000A0004#0006FFE6FFEB8E02
(1763084501.106653) can0 482#0000000008340001
(1763084501.106775) can0 701#05
(1763084501.107028) can0 382#0000000000000000
(1763084501.112445) can0 189#48029C01AA010059
(1763084501.116120) can0 000A0003#FF5BFFB210140000
(1763084501.116409) can0 000A0004#0006FFE7FFEC8E02
(1763084501.120264) can0 682#4046250432040000
(1763084501.122461) can0 189#47029C01A9010059
(1763084501.122659) can0 080#
(1763084501.123783) can0 286#0000900100000000
(1763084501.125683) can0 281#0000000000000000
(1763084501.126115) can0 000A0003#FF5AFFB010140000
(1763084501.126403) can0 000A0004#0005FFE7FFEC8E02
(1763084501.128337) can0 382#0000000000000000
(1763084501.128494) can0 701#05
(1763084501.128745) can0 482#0000000008340001
(1763084501.131101) can0 188#0C00D73000000000
(1763084501.131865) can0 288#7C29642A00140000
(1763084501.132446) can0 189#46029C01A9010059
(1763084501.132873) can0 388#1E1F1E1B1F000000
(1763084501.133800) can0 191#999A9A9A9A99
(1763084501.134811) can0 192#999A99999999
(1763084501.135816) can0 193#999A9A9A999A
(1763084501.136111) can0 000A0003#FF58FFAF10130000
(1763084501.136401) can0 000A0004#0006FFE7FFEC8E02
(1763084501.136642) can0 181#910132247F000009
(1763084501.136832) can0 194#999A9A9A9A9A
(1763084501.137798) can0 195#99999A9A9A9A
(1763084501.138826) can0 291#0E0F0F0F0F0F
(1763084501.139828) can0 292#0E0F1010100F
(1763084501.140845) can0 293#0F0F0F0F0F0F
(1763084501.141842) can0 294#0E0F1010100F
(1763084501.142437) can0 186#00004C1D09070000
(1763084501.142808) can0 189#46029A01A7010059
(1763084501.143017) can0 295#0E0F0F0F0F0E
(1763084501.146114) can0 000A0003#FF55FFAE10110000
(1763084501.146401) can0 000A0004#0005FFE6FFED8E02
(1763084501.149999) can0 701#05
(1763084501.150283) can0 482#0000000008340001
(1763084501.150580) can0 382#0000000000000000
(1763084501.152444) can0 189#48029C01A7010059
(1763084501.152866) can0 4C4#05000538052D0555
(1763084501.153405) can0 1A3#C0000509000000
(1763084501.153875) can0 4C5#0544053205280527
(1763084501.154889) can0 4C6#052F053405290532
(1763084501.155909) can0 4C7#0559053B050304FD
(1763084501.156195) can0 000A0003#FF53FFAD10100000
(1763084501.156483) can0 000A0004#0004FFE6FFED8E02
(1763084501.156943) can0 4C8#04C0000000000000
(1763084501.161206) can0 682#4046260432040000
(1763084501.162443) can0 189#47029C01A7010059
(1763084501.166122) can0 000A0003#FF50FFAC100E0000
(1763084501.166410) can0 000A0004#0005FFEAFFED8E02
(1763084501.169260) can0 701#05
(1763084501.169513) can0 281#0000000000000000
(1763084501.171996) can0 482#0000000008340001
(1763084501.172250) can0 382#0000000000000000
(1763084501.172484) can0 189#47029C01A7010059
(1763084501.174736) can0 181#910132247F000009
(1763084501.176127) can0 000A0003#FF4DFFAD100C0000
(1763084501.176415) can0 000A0004#0005FFEAFFEC8E02
(1763084501.177107) can0 1A5#0000BB0D000000
(1763084501.179040) can0 1A2#0000350C000000
(1763084501.179268) can0 2A1#191A1A1919181612
(1763084501.182434) can0 186#00004C1D09080000
(1763084501.182819) can0 189#47029C01A7010059
(1763084501.185421) can0 1A0#000000000000
(1763084501.186121) can0 000A0003#FF4AFFAF100B0000
(1763084501.186408) can0 000A0004#0005FFE9FFEC8E02
(1763084501.187135) can0 000A0000#0000000000000000
(1763084501.187434) can0 000A0001#0000000000000000
(1763084501.187732) can0 000A0002#0000000000000000
(1763084501.190944) can0 701#05
(1763084501.192438) can0 189#48029C01A6010059
(1763084501.193849) can0 382#0000000000000000
(1763084501.194136) can0 482#0000000008340001
(1763084501.196120) can0 000A0003#FF47FFB210080000
(1763084501.196410) can0 000A0004#0005FFE9FFEC8E02
(1763084501.200075) can0 1A4#0000BF0B000000
(1763084501.200300) can0 2A3#1317171717161412
(1763084501.202150) can0 682#4046260432040000
(1763084501.202448) can0 189#47029C01A6010059
(1763084501.206130) can0 000A0003#FF47FFB110030000
(1763084501.206419) can0 000A0004#0004FFE9FFEB8E02
(1763084501.212441) can0 189#48029C01A5010059
(1763084501.212729) can0 701#05
(1763084501.213069) can0 181#910132247F000009
(1763084501.213364) can0 281#0000000000000000
(1763084501.215760) can0 482#0000000008340001
(1763084501.216017) can0 382#0000000000000000
(1763084501.216305) can0 000A0003#FF47FFAF0FFF0000
(1763084501.216595) can0 000A0004#0003FFE9FFEA8E02
(1763084501.217906) can0 4C4#050B0538052D0555
(1763084501.218924) can0 4C5#054C053A052C0523
(1763084501.219934) can0 4C6#052B053005290536
(1763084501.220953) can0 4C7#055D054805030502
(1763084501.221984) can0 4C8#04C0000000000000
(1763084501.222454) can0 186#00004C1D09090000
(1763084501.222780) can0 189#45029901A4010059
(1763084501.223274) can0 19A#00007E6A6B7C8D7F
(1763084501.223642) can0 080#
(1763084501.224282) can0 29A#7DA0817E86820000
(1763084501.224795) can0 286#0000900100000000
(1763084501.226129) can0 000A0003#FF46FFAE0FFE0000
(1763084501.226418) can0 000A0004#0004FFE9FFEA8E02
(1763084501.231104) can0 188#0C00E93000000000
(1763084501.231872) can0 288#7C29642A00140000
(1763084501.232434) can0 189#47029A01A3010059
(1763084501.232852) can0 388#1E1F1E1B1F000000
(1763084501.233790) can0 191#999A9A9A9A99
(1763084501.234570) can0 701#05
(1763084501.234800) can0 192#999A99999999
(1763084501.235805) can0 193#999A9A9A999A
(1763084501.236131) can0 000A0003#FF44FFAC0FFD0000
(1763084501.236420) can0 000A0004#0003FFE9FFEB8E02
(1763084501.236803) can0 194#999A9A9A9A9A
(1763084501.237516) can0 482#0000000008340001
(1763084501.237773) can0 382#0000000000000000
(1763084501.237964) can0 195#99999A9A9A9A
(1763084501.238831) can0 291#0E0F0F0F0F0F
(1763084501.239834) can0 292#0E0F1010100F
(1763084501.240855) can0 293#0F0F0F0F0F0F
(1763084501.241802) can0 294#0E0F1010100F
(1763084501.242434) can0 189#45029A01A1010059
(1763084501.242812) can0 295#0E0F0F0F0F0E
(1763084501.243164) can0 682#4046250432040000
(1763084501.246130) can0 000A0003#FF46FFAE0FFE0000
(1763084501.246418) can0 000A0004#0004FFE8FFEB8E02
(1763084501.251226) can0 181#910132247F000009
(1763084501.252434) can0 189#47029C01A3010059
(1763084501.254392) can0 1A3#C0000509000000
(1763084501.256135) can0 000A0003#FF49FFAE0FFF0000
(1763084501.256427) can0 000A0004#0004FFE8FFEA8E02
(1763084501.256545) can0 701#05
(1763084501.256812) can0 281#0000000000000000
(1763084501.259361) can0 382#0000000000000000
(1763084501.259649) can0 482#0000000008340001
(1763084501.262430) can0 186#00004C1D090A0000
(1763084501.262805) can0 189#46029C01A0010059
(1763084501.266133) can0 000A0003#FF49FFAE0FFF0000
(1763084501.266419) can0 000A0004#0004FFE9FFEA8E02
(1763084501.272438) can0 189#48029C0199010059
(1763084501.276129) can0 000A0003#FF49FFAD0FFF0000
(1763084501.276419) can0 000A0004#0003FFE8FFEA8E02
(1763084501.278231) can0 701#05
(1763084501.279202) can0 1A5#0000BB0D000000
(1763084501.281275) can0 482#0000000008340001
(1763084501.281528) can0 382#0000000000000000
(1763084501.282432) can0 189#47029B0189010059
(1763084501.282945) can0 4C4#050B0538052D0555
(1763084501.283960) can0 4C5#054C053A052C0523
(1763084501.284196) can0 682#4046260432040000
(1763084501.284973) can0 4C6#052B053005290536
(1763084501.285422) can0 1A0#000000000000
(1763084501.285989) can0 4C7#055D054805030502
(1763084501.286281) can0 000A0003#FF49FFAC0FFC0000
(1763084501.286571) can0 000A0004#0003FFE8FFEA8E02
(1763084501.286796) can0 1A2#0000350C000000
(1763084501.287021) can0 2A1#191A1A1919181612
(1763084501.287321) can0 000A0000#0000000000000000
(1763084501.287621) can0 000A0001#0000000000000000
(1763084501.287921) can0 000A0002#0000000000000000
(1763084501.288169) can0 4C8#04C0000000000000
(1763084501.289392) can0 181#910132247F000009
(1763084501.292432) can0 189#46029A017B010059
(1763084501.296133) can0 000A0003#FF49FFAB0FFA0000
(1763084501.296415) can0 000A0004#0003FFE7FFEA8E02
(1763084501.300077) can0 701#05
(1763084501.300389) can0 281#0000000000000000
(1763084501.302427) can0 186#00004C1D090B0000
(1763084501.302815) can0 189#47029C0177010059
(1763084501.303126) can0 482#0000000008340001
(1763084501.303380) can0 382#0000000000000000
(1763084501.306143) can0 000A0003#FF4AFFAE0FF80000
(1763084501.306428) can0 000A0004#0002FFE7FFEA8E02
(1763084501.307124) can0 1A4#0000BF0B000000
(1763084501.307350) can0 2A3#1317171717161412
(1763084501.312434) can0 189#46029C0174010059
(1763084501.316131) can0 000A0003#FF4BFFB00FF60000
(1763084501.316419) can0 000A0004#0002FFE7FFEA8E02
(1763084501.321969) can0 701#05
(1763084501.322447) can0 189#47029D0171010059
(1763084501.322643) can0 080#
(1763084501.323795) can0 286#0000900100000000
(1763084501.324979) can0 382#0000000000000000
(1763084501.325228) can0 482#0000000008340001
(1763084501.325493) can0 682#4046260432040000
(1763084501.326135) can0 000A0003#FF4EFFAF0FF60000
(1763084501.326423) can0 000A0004#0003FFE8FFE98E02
(1763084501.327681) can0 181#910132247F000009
(1763084501.331120) can0 188#0C00E23100000000
(1763084501.331849) can0 288#7C29642A00140000
(1763084501.332426) can0 189#45029C016D010059
(1763084501.332859) can0 388#1E1F1E1B1F000000
(1763084501.333813) can0 191#999A9A9A9A99
(1763084501.334825) can0 192#999A99999999
(1763084501.335829) can0 193#999A9A9A999A
(1763084501.336138) can0 000A0003#FF4FFFAF0FF50000
(1763084501.336425) can0 000A0004#0003FFE7FFE98E02
(1763084501.336808) can0 194#99999A9A9A9A
(1763084501.337811) can0 195#999A9A9A9A9A
(1763084501.338840) can0 291#0E0F0F0F0F0F
(1763084501.339841) can0 292#0E0F1010100F
(1763084501.340828) can0 293#0F0F0F0F0F0F
(1763084501.341832) can0 294#0E0F1010100F
(1763084501.342425) can0 186#00004C1D090C0000
(1763084501.342795) can0 189#45029A0169010059
(1763084501.343003) can0 295#0E0F0F0F0F0E
(1763084501.343839) can0 701#05
(1763084501.344189) can0 281#0000000000000000
(1763084501.346140) can0 000A0003#FF50FFB00FF70000
(1763084501.346426) can0 000A0004#0003FFE8FFE88E02
(1763084501.346790) can0 482#0000000008340001
(1763084501.347045) can0 382#0000000000000000
(1763084501.348058) can0 4C4#0510053C052C0550
(1763084501.349074) can0 4C5#05430535052F0522
(1763084501.350087) can0 4C6#052E052F05280535
(1763084501.351105) can0 4C7#0558054305020501
(1763084501.352137) can0 4C8#04BF000000000000
(1763084501.352438) can0 189#45029A0174010059
(1763084501.355401) can0 1A3#C0000509000000
(1763084501.356147) can0 000A0003#FF4FFFB10FF90000
(1763084501.356429) can0 000A0004#0003FFE9FFE88E02
(1763084501.362426) can0 189#47029E016B010059
(1763084501.365588) can0 701#05
(1763084501.365902) can0 181#910132247F000009
(1763084501.366184) can0 000A0003#FF50FFB30FFA0000
(1763084501.366473) can0 000A0004#0002FFE9FFE88E02
(1763084501.366713) can0 682#4046250432040000
(1763084501.366967) can0 382#0000000000000000
(1763084501.368535) can0 482#0000000008340001
(1763084501.372424) can0 189#47029C018E010059
(1763084501.376139) can0 000A0003#FF50FFB40FFA0000
(1763084501.376431) can0 000A0004#0003FFEAFFE88E02
(1763084501.381312) can0 1A5#0000BB0D000000
(1763084501.382421) can0 186#00004C1D090D0000
(1763084501.382802) can0 189#47029C019C010051
(1763084501.385427) can0 1A0#000000000000
(1763084501.386138) can0 000A0003#FF4FFFB70FFB0000
(1763084501.386429) can0 000A0004#0003FFEAFFE78E02
(1763084501.387153) can0 000A0000#0000000000000000
(1763084501.387453) can0 000A0001#0000000000000000
(1763084501.387751) can0 000A0002#0000000000000000
(1763084501.387867) can0 701#05
(1763084501.388124) can0 281#0000000000000000
(1763084501.388402) can0 482#0000000008340001
(1763084501.388658) can0 382#0000000000000000
(1763084501.392424) can0 189#45029C0191010051
(1763084501.393999) can0 1A2#0000350C000000
(1763084501.394223) can0 2A1#191A1A1919181612
(1763084501.396148) can0 000A0003#FF4EFFB90FFC0000
(1763084501.396437) can0 000A0004#0002FFE9FFE78E02
(1763084501.402425) can0 189#46029C017F010059
(1763084501.404028) can0 181#910132247F000009
(1763084501.406150) can0 000A0003#FF4FFFBC0FFE0000
(1763084501.406437) can0 000A0004#0002FFE9FFE88E02
(1763084501.409484) can0 482#0000000008340001
(1763084501.409602) can0 701#05
(1763084501.409843) can0 682#4046260432040000
(1763084501.410129) can0 382#0000000000000000
(1763084501.412423) can0 189#45029C017F010059
(1763084501.413172) can0 4C4#0510053C052C0550
(1763084501.414155) can0 1A4#0000BF0B000000
(1763084501.414381) can0 2A3#1317171717161412
(1763084501.414611) can0 4C5#05430535052F0522
(1763084501.415200) can0 4C6#052E052F05280535
(1763084501.416151) can0 000A0003#FF51FFBF10010000
(1763084501.416440) can0 000A0004#0003FFE9FFE88E02
(1763084501.416675) can0 4C7#0558054305020501
(1763084501.417248) can0 4C8#04BF000000000000
(1763084501.422442) can0 186#00004C1D090E0000
(1763084501.422798) can0 189#45029C0181010059
(1763084501.423664) can0 080#
(1763084501.424783) can0 286#0000900100000000
(1763084501.426150) can0 000A0003#FF53FFBF10020000
(1763084501.426438) can0 000A0004#0002FFE9FFE88E02
(1763084501.429274) can0 19A#0000816A68867C7F
(1763084501.430278) can0 29A#7D5F877F80800000
(1763084501.431339) can0 382#0000000000000000
(1763084501.431491) can0 701#05
(1763084501.431748) can0 281#0000000000000000
(1763084501.431998) can0 482#0000000008340001
(1763084501.432418) can0 189#45029A01A3010051
(1763084501.436156) can0 000A0003#FF55FFBE10040000
(1763084501.436440) can0 000A0004#0006FFE9FFE98E02
(1763084501.440135) can0 188#0C00653200000000
(1763084501.440846) can0 288#7C29641900140000
(1763084501.441850) can0 388#1E1F1E1B1F000000
(1763084501.442337) can0 181#910132247F000009
(1763084501.442571) can0 189#45029C0198010051
(1763084501.442825) can0 191#999A9A9A9A99
(1763084501.443807) can0 192#999A99999999
(1763084501.444812) can0 193#999A9A9A999A
(1763084501.445819) can0 194#99999A9A9A9A
(1763084501.446149) can0 000A0003#FF57FFBB10040000
(1763084501.446437) can0 000A0004#0006FFE9FFE98E02
(1763084501.446825) can0 195#999A9A9A9A9A
(1763084501.447851) can0 291#0E0F0F0F0F0F
(1763084501.448824) can0 292#0E0F1010100F
(1763084501.449839) can0 293#0F0F0F0F0F0F
(1763084501.450452) can0 682#4046260432040000
(1763084501.450838) can0 294#0E0F1010100F
(1763084501.451848) can0 295#0E0F0F0F0F0E
(1763084501.452418) can0 189#45029A01A3010051
(1763084501.453003) can0 701#05
(1763084501.453284) can0 482#0000000008340001
(1763084501.453577) can0 382#0000000000000000
(1763084501.456154) can0 000A0003#FF5AFFB610040000
(1763084501.456442) can0 000A0004#0005FFE5FFE88E02
(1763084501.456670) can0 1A3#C0000509000000
(1763084501.462410) can0 186#00004C1D090F0000
(1763084501.462824) can0 189#45029C01A1010051
(1763084501.466149) can0 000A0003#FF5CFFB410080000
(1763084501.466438) can0 000A0004#0004FFE4FFE98E02
(1763084501.472417) can0 189#47029C019D010051
(1763084501.474995) can0 482#0000000008340001
(1763084501.475115) can0 701#05
(1763084501.475369) can0 382#0000000000000000
(1763084501.475643) can0 281#0000000000000000
(1763084501.476147) can0 000A0003#FF5DFFB4100E0000
(1763084501.476437) can0 000A0004#0003FFE5FFE98E02
(1763084501.478271) can0 4C4#050B052E05310551
(1763084501.479284) can0 4C5#05480536052C0523
(1763084501.480298) can0 4C6#052B053705290532
(1763084501.480534) can0 181#910132247F000009
(1763084501.481321) can0 4C7#0559054804FE04FD
(1763084501.482349) can0 4C8#04C0000000000000
(1763084501.482579) can0 189#45029C0196010051
(1763084501.483417) can0 1A5#0000BB0D000000
(1763084501.485428) can0 1A0#000000000000
(1763084501.486149) can0 000A0003#FF5CFFB7100F0000
(1763084501.486439) can0 000A0004#0003FFE5FFE98E02
(1763084501.487165) can0 000A0000#0000000000000000
(1763084501.487465) can0 000A0001#0000000000000000
(1763084501.487763) can0 000A0002#0000000000000000
(1763084501.491390) can0 682#4046260432040000
(1763084501.492415) can0 189#46029C0193010051
(1763084501.496157) can0 000A0003#FF5BFFBA10120000
(1763084501.496445) can0 000A0004#0003FFE5FFE98E02
(1763084501.496847) can0 382#0000000000000000
(1763084501.497004) can0 701#05
(1763084501.497254) can0 482#0000000008340001
(1763084501.501485) can0 1A2#0000350C000000
(1763084501.501708) can0 2A1#191A1A1919181612
(1763084501.502410) can0 186#00004C1D09000000
(1763084501.502800) can0 189#46029C018E010051
(1763084501.506155) can0 000A0003#FF59FFBD10150000
(1763084501.506445) can0 000A0004#0003FFE5FFE98E02
(1763084501.512414) can0 189#46029D018C010051
(1763084501.516156) can0 000A0003#FF58FFBE10180000
(1763084501.516443) can0 000A0004#0002FFE5FFE98E02
(1763084501.518678) can0 181#910132247F000009
(1763084501.518798) can0 701#05
(1763084501.519092) can0 281#0000000000000000
(1763084501.519342) can0 482#0000000008340001
(1763084501.519598) can0 382#0000000000000000
(1763084501.521189) can0 1A4#0000BF0B000000
(1763084501.521413) can0 2A3#1317171717161412
(1763084501.522427) can0 189#45029C0186010051
(1763084501.522661) can0 080#
(1763084501.523814) can0 286#0000900100000000
(1763084501.526157) can0 000A0003#FF57FFBF101A0000
(1763084501.526443) can0 000A0004#0002FFE5FFE98E02
(1763084501.531100) can0 188#0C00C83200000000
(1763084501.531861) can0 288#7D29642A00140000
(1763084501.532392) can0 682#4046260432040000
(1763084501.532625) can0 189#46029C0183010051
(1763084501.532872) can0 388#1E1F1E1B1F000000
(1763084501.533830) can0 191#9A9A9A9A9A99
(1763084501.534810) can0 192#999A99999999
(1763084501.535814) can0 193#999A9A9A9A9A
(1763084501.536154) can0 000A0003#FF55FFC0101C0000
(1763084501.536446) can0 000A0004#0003FFE5FFEA8E02
(1763084501.536826) can0 194#999A9A9A9A9A
(1763084501.537829) can0 195#999A9A9A9A9A
(1763084501.538826) can0 291#0E0F0F0F0F0F
(1763084501.539826) can0 292#0E0F1010100F
(1763084501.540513) can0 482#0000000008340001
(1763084501.540633) can0 701#05
(1763084501.540846) can0 293#0F0F0F0F0F0F
(1763084501.541097) can0 382#0000000000000000
(1763084501.541841) can0 294#0E0F1010100F
(1763084501.542401) can0 186#00004C1D09010000
(1763084501.542809) can0 189#440299017D010051
(1763084501.543019) can0 295#0E0F0F0F0F0E
(1763084501.543317) can0 4C4#05050538052D0555
(1763084501.544329) can0 4C5#0544053A052C0527
(1763084501.545347) can0 4C6#052F05300529053A
(1763084501.546161) can0 000A0003#FF55FFC1101E0000
(1763084501.546454) can0 000A0004#0003FFE5FFEA8E02
(1763084501.546687) can0 4C7#0559054305070502
(1763084501.547399) can0 4C8#04C0000000000000
(1763084501.552410) can0 189#46029C017B010051
(1763084501.556168) can0 000A0003#FF56FFC1101F0000
(1763084501.556459) can0 000A0004#0003FFE5FFEA8E02
(1763084501.556976) can0 181#910132247F000009
(1763084501.557344) can0 1A3#C0000509000000
(1763084501.562359) can0 382#0000000000000000
(1763084501.562587) can0 189#47029C0178010051
(1763084501.562703) can0 701#05
(1763084501.562992) can0 281#0000000000000000
(1763084501.563242) can0 482#0000000008340001
(1763084501.566161) can0 000A0003#FF56FFC010200000
(1763084501.566449) can0 000A0004#0002FFE4FFEB8E02
(1763084501.572410) can0 189#47029C0174010051
(1763084501.573288) can0 682#4046260432040000
(1763084501.576162) can0 000A0003#FF54FFBD10200000
(1763084501.576450) can0 000A0004#0002FFE4FFEA8E02
(1763084501.582406) can0 186#00004C1D09020000
(1763084501.582823) can0 189#47029C0170010051
(1763084501.584055) can0 701#05
(1763084501.584379) can0 482#0000000008340001
(1763084501.584635) can0 382#0000000000000000
(1763084501.585424) can0 1A0#000000000000
(1763084501.585646) can0 1A5#0000BB0D000000
(1763084501.586170) can0 000A0003#FF55FFBC10200000
(1763084501.586458) can0 000A0004#0002FFE5FFEA8E02
(1763084501.587180) can0 000A0000#0000000000000000
(1763084501.587480) can0 000A0001#0000000000000000
(1763084501.587778) can0 000A0002#0000000000000000
(1763084501.592407) can0 189#46029C016D010051
(1763084501.595126) can0 181#910132247F000009
(1763084501.596160) can0 000A0003#FF56FFBC101F0000
(1763084501.596449) can0 000A0004#0001FFE5FFEA8E02
(1763084501.602406) can0 189#47029C016C010051
(1763084501.606019) can0 482#0000000008340001
(1763084501.606303) can0 000A0003#FF58FFBB101E0000
(1763084501.606592) can0 000A0004#0001FFE5FFEA8E02
(1763084501.606707) can0 701#05
(1763084501.606962) can0 382#0000000000000000
(1763084501.607236) can0 281#0000000000000000
(1763084501.608363) can0 4C4#05050538052D0555
(1763084501.608970) can0 1A2#0000350C000000
(1763084501.609194) can0 2A1#191A1A1919181612
(1763084501.609424) can0 4C5#0544053A052C0527
(1763084501.610388) can0 4C6#052F05300529053A
(1763084501.611407) can0 4C7#0559054305070502
(1763084501.612402) can0 189#45029A0169010051
(1763084501.612654) can0 4C8#04C0000000000000
(1763084501.614225) can0 682#4046260432040000
(1763084501.616163) can0 000A0003#FF59FFBA101D0000
(1763084501.616451) can0 000A0004#0001FFE4FFEA8E02
(1763084501.618302) can0 19A#00007D7B7A7E7C7C
(1763084501.619273) can0 29A#8061828181820000
(1763084501.622422) can0 186#00004C1D09030000
(1763084501.622814) can0 189#47029C0168010051
(1763084501.623647) can0 080#
(1763084501.624800) can0 286#0000900100000000
(1763084501.625084) can0 701#05
(1763084501.625380) can0 482#0000000008340001
(1763084501.625660) can0 382#0000000000000000
(1763084501.626167) can0 000A0003#FF5AFFB7101D0000
(1763084501.626455) can0 000A0004#0002FFE4FFEA8E02
(1763084501.628205) can0 1A4#0000BF0B000000
(1763084501.628431) can0 2A3#1317171717161412
(1763084501.631101) can0 188#0C009B3200000000
(1763084501.631851) can0 288#7D29642A00140000
(1763084501.632403) can0 189#46029A0166010051
(1763084501.632862) can0 388#1E1F1E1B1F000000
(1763084501.633340) can0 181#910132247F000009
(1763084501.633790) can0 191#9A9A9A9A9A99
(1763084501.634800) can0 192#999A99999999
(1763084501.635820) can0 193#999A9A9A9A9A
(1763084501.636165) can0 000A0003#FF5BFFB5101D0000
(1763084501.636454) can0 000A0004#0002FFE4FFEB8E02
(1763084501.636833) can0 194#999A9A9A9A9A
(1763084501.637804) can0 195#999A9A9A9A9A
(1763084501.638834) can0 291#0E0F0F0F0F0F
(1763084501.639836) can0 292#0E0F1010100F
(1763084501.640835) can0 293#0F0F0F0F0F0F
(1763084501.641832) can0 294#0E0F1010100F
(1763084501.642400) can0 189#45029C0164010051
(1763084501.642812) can0 295#0E0F0F0F0F0E
(1763084501.646169) can0 000A0003#FF5EFFB3101C0000
(1763084501.646456) can0 000A0004#0002FFE4FFEC8E02
(1763084501.646964) can0 482#0000000008340001
(1763084501.647085) can0 701#05
(1763084501.647341) can0 382#0000000000000000
(1763084501.647594) can0 281#0000000000000000
(1763084501.652402) can0 189#46029C0164010051
(1763084501.656169) can0 000A0003#FF64FFB1101B0000
(1763084501.656456) can0 000A0004#0002FFE4FFEB8E02
(1763084501.657994) can0 682#4046250432040000
(1763084501.658315) can0 1A3#C0000509000000
(1763084501.662395) can0 186#00004C1D09040000
(1763084501.662810) can0 189#47029C0164010051
(1763084501.666176) can0 000A0003#FF68FFB0101C0000
(1763084501.666464) can0 000A0004#0002FFE4FFEA8E02
(1763084501.668816) can0 382#0000000000000000
(1763084501.668973) can0 701#05
(1763084501.669223) can0 482#0000000008340001
(1763084501.672397) can0 189#46029C0164010051
(1763084501.673408) can0 4C4#0505053805280551
(1763084501.674277) can0 181#910132247F000009
(1763084501.674511) can0 4C5#05400532052C0520
(1763084501.675431) can0 4C6#052B052C05290536
(1763084501.676167) can0 000A0003#FF6EFFAF101E0000
(1763084501.676455) can0 000A0004#0004FFE3FFEB8E02
(1763084501.676690) can0 4C7#0559054304FE04FD
(1763084501.677481) can0 4C8#04C0000000000000
(1763084501.682402) can0 189#47029C0164010051
(1763084501.685430) can0 1A0#000000000000
(1763084501.686167) can0 000A0003#FF73FFAF101C0000
(1763084501.686455) can0 000A0004#0004FFE4FFEB8E02
(1763084501.687185) can0 000A0000#0000000000000000
(1763084501.687485) can0 000A0001#0000000000000000
(1763084501.687783) can0 000A0002#0000000000000000
(1763084501.688005) can0 1A5#0000BB0D000000
(1763084501.690476) can0 701#05
(1763084501.690728) can0 281#0000000000000000
(1763084501.690978) can0 482#0000000008340001
(1763084501.691233) can0 382#0000000000000000
(1763084501.692393) can0 189#46029A0161010051
(1763084501.696172) can0 000A0003#FF75FFAE10170000
(1763084501.696463) can0 000A0004#0004FFE4FFEC8E02
(1763084501.698937) can0 682#4046260432040000
(1763084501.702394) can0 186#00004C1D09050000
(1763084501.702819) can0 189#47029C0162010051
(1763084501.706173) can0 000A0003#FF77FFAE10150000
(1763084501.706459) can0 000A0004#0003FFE4FFEC8E02
(1763084501.712430) can0 189#48029C0162010051
(1763084501.712646) can0 482#0000000008340001
(1763084501.712769) can0 701#05
(1763084501.713017) can0 382#0000000000000000
(1763084501.713258) can0 181#910132247F000009
(1763084501.716175) can0 000A0003#FF7AFFAC10150000
(1763084501.716463) can0 000A0004#0002FFE4FFEC8E02
(1763084501.716688) can0 1A2#0000350C000000
(1763084501.716913) can0 2A1#191A1A1919181612
(1763084501.722411) can0 189#46029C0161010051
(1763084501.722648) can0 080#
(1763084501.723799) can0 286#0000900100000000
(1763084501.726179) can0 000A0003#FF7BFFAB10140000
(1763084501.726468) can0 000A0004#0001FFE4FFEC8E02
(1763084501.731116) can0 188#0C00ED3200000000
(1763084501.731430) can0 701#05
(1763084501.731710) can0 482#0000000008340001
(1763084501.731946) can0 288#7D29642A00140000
(1763084501.732197) can0 382#0000000000000000
(1763084501.732431) can0 189#47029D0160010051
(1763084501.732859) can0 388#1E1F1E1B1F000000
(1763084501.733815) can0 191#9A9A9A9A9A99
(1763084501.734349) can0 281#0000000000000000
(1763084501.734825) can0 192#999A99999999
(1763084501.735237) can0 1A4#0000BF0B000000
(1763084501.735463) can0 2A3#1317171717161412
(1763084501.735827) can0 193#999A9A9A9A9A
(1763084501.736177) can0 000A0003#FF7BFFAA10130000
(1763084501.736469) can0 000A0004#0001FFE5FFEC8E02
(1763084501.736810) can0 194#999A9A9A9A9A
(1763084501.737811) can0 195#999A9A9A9A9A
(1763084501.738450) can0 4C4#0505053805280551
(1763084501.738840) can0 291#0E0F0F0F0F0F
(1763084501.739460) can0 4C5#05400532052C0520
(1763084501.739842) can0 292#0E0F1010100F
(1763084501.740078) can0 682#4046260432040000
(1763084501.740470) can0 4C6#052B052C05290536
(1763084501.740859) can0 293#0F0F0F0F0F0F
(1763084501.741488) can0 4C7#0559054304FE04FD
(1763084501.741827) can0 294#0E0F1010100F
(1763084501.742386) can0 186#00004C1D09060000
(1763084501.742637) can0 4C8#04C0000000000000
(1763084501.742869) can0 189#450299015E010051
(1763084501.743079) can0 295#0E0F0F0F0F0E
(1763084501.746179) can0 000A0003#FF7BFFAA10130000
(1763084501.746468) can0 000A0004#0002FFE5FFEB8E02
(1763084501.750718) can0 181#910132247F000009
(1763084501.752391) can0 189#46029C0161010051
(1763084501.753431) can0 482#0000000008340001
(1763084501.753550) can0 701#05
(1763084501.753842) can0 382#0000000000000000
(1763084501.756179) can0 000A0003#FF7CFFAA10150000
(1763084501.756468) can0 000A0004#0003FFE4FFEB8E02
(1763084501.759278) can0 1A3#C0000509000000
(1763084501.762396) can0 189#47029C0160010051
(1763084501.766182) can0 000A0003#FF7CFFAA10150000
(1763084501.766468) can0 000A0004#0003FFE4FFEB8E02
(1763084501.772390) can0 189#47029C0161010051
(1763084501.775275) can0 382#0000000000000000
(1763084501.775432) can0 701#05
(1763084501.775683) can0 482#0000000008340001
(1763084501.775940) can0 281#0000000000000000
(1763084501.776225) can0 000A0003#FF7CFFAB10150000
(1763084501.776513) can0 000A0004#0002FFE4FFEB8E02
(1763084501.780829) can0 682#4046260432040000
(1763084501.782384) can0 186#00004C1D09070000
(1763084501.782807) can0 189#46029C015F010051
(1763084501.785433) can0 1A0#000000000000
(1763084501.786183) can0 000A0003#FF7BFFAC10160000
(1763084501.786473) can0 000A0004#0003FFE4FFEB8E02
(1763084501.787190) can0 000A0000#0000000000000000
(1763084501.787491) can0 000A0001#0000000000000000
(1763084501.787788) can0 000A0002#0000000000000000
(1763084501.788918) can0 181#910132247F000009
(1763084501.789803) can0 1A5#0000BB0D000000
(1763084501.792387) can0 189#46029C015F010051
(1763084501.796182) can0 000A0003#FF78FFB010180000
(1763084501.796470) can0 000A0004#0003FFE3FFEB8E02
(1763084501.796935) can0 701#05
(1763084501.797215) can0 482#0000000008340001
(1763084501.797469) can0 382#0000000000000000
(1763084501.802391) can0 189#46029C015F010051
(1763084501.803451) can0 4C4#050B053D05280551
(1763084501.804467) can0 4C5#05480532052C0523
(1763084501.805487) can0 4C6#052B053005290532
(1763084501.806186) can0 000A0003#FF76FFB2101B0000
(1763084501.806475) can0 000A0004#0003FFE4FFEB8E02
(1763084501.806712) can0 4C7#0559053F04F90502
(1763084501.807530) can0 4C8#04C0000000000000
(1763084501.812389) can0 189#47029C015F010051
(1763084501.816182) can0 000A0003#FF76FFB3101D0000
(1763084501.816468) can0 000A0004#0004FFE5FFEB8E02
(1763084501.818934) can0 482#0000000008340001
(1763084501.819050) can0 701#05
(1763084501.819304) can0 382#0000000000000000
(1763084501.819581) can0 281#0000000000000000
(1763084501.821773) can0 682#4046260432040000
(1763084501.822401) can0 186#00004C1D09080000
(1763084501.822801) can0 189#47029C015D010051
(1763084501.823663) can0 080#
(1763084501.823887) can0 1A2#0000350C000000
(1763084501.824113) can0 2A1#191A1A1919181612
(1763084501.824355) can0 19A#0000817D7D807C80
(1763084501.824817) can0 286#0000900100000000
(1763084501.825300) can0 29A#816E858281830000
(1763084501.826185) can0 000A0003#FF75FFB3101F0000
(1763084501.826473) can0 000A0004#0004FFE5FFEB8E02
(1763084501.827250) can0 181#910132247F000009
(1763084501.831099) can0 188#0C006E3200000000
(1763084501.832004) can0 288#7D29642A00140000
(1763084501.832386) can0 189#47029C015E010051
(1763084501.832867) can0 388#1E1F1E1B1F000000
(1763084501.833820) can0 191#9A9A9A9A9A99
(1763084501.834833) can0 192#999A99999999
(1763084501.835836) can0 193#999A9A9A9A9A
(1763084501.836187) can0 000A0003#FF74FFB4101F0000
(1763084501.836476) can0 000A0004#0004FFE6FFEB8E02
(1763084501.836800) can0 194#999A9A9A9A9A
(1763084501.837801) can0 195#999A9A9A9A9A
(1763084501.837917) can0 701#05
(1763084501.838163) can0 482#0000000008340001
(1763084501.838414) can0 382#0000000000000000
(1763084501.838829) can0 291#0E0F0F0F0F0F
(1763084501.839848) can0 292#0E0F1010100F
(1763084501.840837) can0 293#0F0F0F0F0F0F
(1763084501.841834) can0 294#0E0F1010100F
(1763084501.842255) can0 1A4#0000BF0B000000
(1763084501.842486) can0 189#46029A015C010051
(1763084501.842712) can0 2A3#1317171717161412
(1763084501.842922) can0 295#0E0F0F0F0F0E
(1763084501.846214) can0 000A0003#FF73FFB510200000
(1763084501.846479) can0 000A0004#0004FFE5FFEC8E02
(1763084501.852445) can0 189#48029C015D010051
(1763084501.856235) can0 000A0003#FF73FFB410210000
(1763084501.856485) can0 000A0004#0004FFE5FFED8E02
(1763084501.859881) can0 482#0000000008340001
(1763084501.860001) can0 701#05
(1763084501.860253) can0 382#0000000000000000
(1763084501.860478) can0 1A3#C0000509000000
(1763084501.862374) can0 186#00004C1D09090000
(1763084501.862626) can0 281#0000000000000000
(1763084501.862857) can0 189#46029A015D010051
(1763084501.863092) can0 682#4046260432040000
(1763084501.866192) can0 000A0003#FF72FFB310210000
(1763084501.866478) can0 000A0004#0004FFE9FFED8E02
(1763084501.868159) can0 181#910132247F000009
(1763084501.868463) can0 4C4#050B052905240555
(1763084501.869476) can0 4C5#0544053A052C0527
(1763084501.870491) can0 4C6#0527053005290536
(1763084501.871511) can0 4C7#0555054305030502
(1763084501.872379) can0 189#46029A015C010051
(1763084501.872634) can0 4C8#04C0000000000000
(1763084501.876185) can0 000A0003#FF70FFB4101D0000
(1763084501.876474) can0 000A0004#0005FFE9FFEC8E02
(1763084501.881728) can0 382#0000000000000000
(1763084501.881888) can0 701#05
(1763084501.882138) can0 482#0000000008340001
(1763084501.882389) can0 189#47029B015D010051
(1763084501.885431) can0 1A0#000000000000
(1763084501.886195) can0 000A0003#FF6EFFB4101A0000
(1763084501.886482) can0 000A0004#0004FFE9FFEC8E02
(1763084501.887199) can0 000A0000#0000000000000000
(1763084501.887498) can0 000A0001#0000000000000000
(1763084501.887797) can0 000A0002#0000000000000000
(1763084501.891933) can0 1A5#0000BB0D000000
(1763084501.892380) can0 189#48029C015D010051
(1763084501.896187) can0 000A0003#FF69FFB310150000
(1763084501.896478) can0 000A0004#0004FFE9FFEB8E02
(1763084501.902371) can0 186#00004C1D090A0000
(1763084501.902836) can0 189#47029C015C010051
(1763084501.903455) can0 701#05
(1763084501.903778) can0 482#0000000008340001
(1763084501.904022) can0 682#4046250432040000
(1763084501.904279) can0 382#0000000000000000
(1763084501.904545) can0 281#0000000000000000
(1763084501.906195) can0 000A0003#FF66FFB210130000
(1763084501.906482) can0 000A0004#0004FFEAFFEA8E02
(1763084501.909105) can0 181#910132247F000009
(1763084501.912378) can0 189#47029C015C010051
(1763084501.916196) can0 000A0003#FF64FFB110140000
(1763084501.916482) can0 000A0004#0004FFEAFFEA8E02
(1763084501.922395) can0 189#49029C015D010051
(1763084501.922662) can0 080#
(1763084501.923816) can0 286#0000900100000000
(1763084501.925469) can0 482#0000000008340001
(1763084501.925589) can0 701#05
(1763084501.925843) can0 382#0000000000000000
(1763084501.926191) can0 000A0003#FF63FFB110150000
(1763084501.926482) can0 000A0004#0004FFE9FFEB8E02
(1763084501.931109) can0 188#0C00D23200000000
(1763084501.931325) can0 1A2#0000350C000000
(1763084501.931552) can0 2A1#191A1A1919181612
(1763084501.931859) can0 288#7D29642A00140000
(1763084501.932380) can0 189#47029A015C010051
(1763084501.932870) can0 388#1E1F1E1B1F000000
(1763084501.933476) can0 4C4#050B052905240555
(1763084501.933827) can0 191#9A9A9A9A9A99
(1763084501.934489) can0 4C5#0544053A052C0527
(1763084501.934838) can0 192#999A99999999
(1763084501.935504) can0 4C6#0527053005290536
(1763084501.935811) can0 193#999A9A9A9A9A
(1763084501.936190) can0 000A0003#FF64FFB310180000
(1763084501.936480) can0 000A0004#0004FFE9FFEB8E02
(1763084501.936715) can0 4C7#0555054305030502
(1763084501.936908) can0 194#999A9A9A9A9A
(1763084501.937555) can0 4C8#04C0000000000000
(1763084501.937826) can0 195#999A9A9A9A9A
(1763084501.938854) can0 291#0E0F0F0F0F0F
(1763084501.939824) can0 292#0E0F1010100F
(1763084501.940843) can0 293#0F0F0F0F0F0F
(1763084501.941841) can0 294#0E0F1010100F
(1763084501.942369) can0 186#00004C1D090B0000
(1763084501.942813) can0 189#45029C015A010051
(1763084501.943024) can0 295#0E0F0F0F0F0E
(1763084501.944686) can0 682#4046260432040000
(1763084501.946189) can0 000A0003#FF65FFB310180000
(1763084501.946479) can0 000A0004#0003FFE9FFEB8E02
(1763084501.947240) can0 382#0000000000000000
(1763084501.947398) can0 701#05
(1763084501.947638) can0 181#910132247F000009
(1763084501.947895) can0 281#0000000000000000
(1763084501.948144) can0 482#0000000008340001
(1763084501.949288) can0 1A4#0000BF0B000000
(1763084501.949514) can0 2A3#1317171717161412
(1763084501.952379) can0 189#46029E015C010051
(1763084501.956194) can0 000A0003#FF62FFB110160000
(1763084501.956479) can0 000A0004#0003FFE9FFEA8E02
(1763084501.961202) can0 1A3#C0000509000000
(1763084501.962374) can0 189#47029F015C010051
(1763084501.966202) can0 000A0003#FF61FFAF10140000
(1763084501.966488) can0 000A0004#0003FFE9FFEA8E02
(1763084501.968903) can0 701#05
(1763084501.969184) can0 482#0000000008340001
(1763084501.969438) can0 382#0000000000000000
(1763084501.972373) can0 189#4602A0015C010051
(1763084501.976203) can0 000A0003#FF60FFB010130000
(1763084501.976492) can0 000A0004#0003FFE8FFEA8E02
(1763084501.982369) can0 186#00004C1D090C0000
(1763084501.982823) can0 189#4602A0015C010051
(1763084501.985458) can0 181#910132247F000009
(1763084501.985668) can0 1A0#000000000000
(1763084501.985904) can0 682#4046260432040000
(1763084501.986206) can0 000A0003#FF60FFAF10140000
(1763084501.986495) can0 000A0004#0004FFEBFFEA8E02
(1763084501.987212) can0 000A0000#0000000000000000
(1763084501.987513) can0 000A0001#0000000000000000
(1763084501.987810) can0 000A0002#0000000000000000
(1763084501.990903) can0 482#0000000008340001
(1763084501.991022) can0 701#05
(1763084501.991276) can0 382#0000000000000000
(1763084501.991553) can0 281#0000000000000000
(1763084501.992371) can0 189#4702A0015B010051
(1763084501.994067) can0 1A5#0000BB0D000000
(1763084501.996199) can0 000A0003#FF61FFAD10160000
(1763084501.996487) can0 000A0004#0004FFEAFFEA8E02
(1763084501.998529) can0 4C4#0505052E05280551
(1763084501.999544) can0 4C5#05400532052C0527
(1763084502.000569) can0 4C6#052B053405290536
(1763084502.001574) can0 4C7#0559054304FE0502
(1763084502.002368) can0 189#4902A20159010051
(1763084502.002618) can0 4C8#04C0000000000000
(1763084502.006205) can0 000A0003#FF63FFAA10190000
(1763084502.006490) can0 000A0004#0005FFEAFFE98E02
(1763084502.012369) can0 189#4902A3015C010051
(1763084502.012765) can0 382#0000000000000000
(1763084502.012917) can0 701#05
(1763084502.013166) can0 482#0000000008340001
(1763084502.016207) can0 000A0003#FF63FFAA10190000
(1763084502.016494) can0 000A0004#0005FFEAFFEA8E02
(1763084502.022382) can0 186#FAFF4C1D090D0000
(1763084502.022812) can0 189#4902A3015B010051
(1763084502.023794) can0 181#910132247F000009
(1763084502.023899) can0 080#
(1763084502.024801) can0 286#0000900100000000
(1763084502.026204) can0 000A0003#FF64FFA910190000
(1763084502.026496) can0 000A0004#0005FFE5FFEA8E02
(1763084502.026732) can0 682#4046260432040000
(1763084502.030295) can0 19A#00007F7F837F7D7D
(1763084502.031136) can0 188#0C00FF3200000000
(1763084502.031370) can0 29A#8469848383850000
(1763084502.031866) can0 288#7D29642A00140000
(1763084502.032366) can0 189#4902A30159010051
(1763084502.032880) can0 388#1E1F1E1B1F000000
(1763084502.033837) can0 191#9A9A9A9A9A99
(1763084502.034561) can0 701#05
(1763084502.034817) can0 281#0000000000000000
(1763084502.035012) can0 192#999A99999999
(1763084502.035258) can0 482#0000000028340001
(1763084502.035820) can0 193#999A9A9A9A9A
(1763084502.036202) can0 000A0003#FF64FFA910190000
(1763084502.036490) can0 000A0004#0006FFE6FFEA8E02
(1763084502.036831) can0 194#999A9A9A9A9A
(1763084502.037328) can0 382#0000000000000000
(1763084502.037830) can0 195#999A9A9A9A9A
(1763084502.038758) can0 1A2#0000350C000000
(1763084502.038970) can0 291#0E0F0F0F0F0F
(1763084502.039196) can0 2A1#191A1A1919181612
(1763084502.039830) can0 292#0E0F1010100F
(1763084502.040849) can0 293#0F0F0F0F0F0F
(1763084502.041849) can0 294#0E0F1010100F
(1763084502.042368) can0 189#4802A20159010051
(1763084502.042857) can0 295#0E0F0F0F0F0E
(1763084502.046214) can0 000A0003#FF63FFA810180000
(1763084502.046500) can0 000A0004#0005FFE5FFEA8E02
(1763084502.052368) can0 189#4902A4015B010051
(1763084502.056207) can0 000A0003#FF63FFA710190000
(1763084502.056497) can0 000A0004#0005FFE5FFEA8E02
(1763084502.056726) can0 1A4#0000BF0B000000
(1763084502.056951) can0 2A3#1317171717161412
(1763084502.057197) can0 482#0000000028340001
(1763084502.057318) can0 701#05
(1763084502.059274) can0 382#0000000000000000
(1763084502.061903) can0 181#910132247F00000D
(1763084502.062167) can0 1A3#C0000509000000
(1763084502.062401) can0 186#EFFF4C1D090E0000
(1763084502.062817) can0 189#4902A3015A010051
(1763084502.063576) can0 4C4#0505052E05280551
(1763084502.064592) can0 4C5#05400532052C0527
(1763084502.065605) can0 4C6#052B053405290536
(1763084502.066204) can0 000A0003#FF63FFA510190000
(1763084502.066492) can0 000A0004#0004FFE4FFEA8E02
(1763084502.066728) can0 4C7#0559054304FE0502
(1763084502.067451) can0 682#4046260432040000
(1763084502.067701) can0 4C8#04C0000000000000
(1763084502.072364) can0 189#4C02A4015B010051
(1763084502.076208) can0 000A0003#FF62FFA510170000
(1763084502.076494) can0 000A0004#0003FFE4FFEA8E02
(1763084502.078036) can0 701#05
(1763084502.078350) can0 281#0000000000000000
(1763084502.078600) can0 482#0000000028340001
(1763084502.081023) can0 382#0000000000000000
(1763084502.082361) can0 189#4C02A4015B010051
(1763084502.085434) can0 1A0#000000000000
(1763084502.086215) can0 000A0003#FF61FFA310140000
(1763084502.086505) can0 000A0004#0003FFE4FFEA8E02
(1763084502.087221) can0 000A0000#0000000000000000
(1763084502.087521) can0 000A0001#0000000000000000
(1763084502.087819) can0 000A0002#0000000000000000
(1763084502.092363) can0 189#4C02A4015B010051
(1763084502.096214) can0 000A0003#FF5FFFA210130000
(1763084502.096503) can0 000A0004#0003FFE4FFEA8E02
(1763084502.096725) can0 1A5#0000BB0D000000
(1763084502.100099) can0 181#910132247F00000D
(1763084502.100219) can0 701#05
(1763084502.100507) can0 482#0000000028340001
(1763084502.102350) can0 186#D7FF4C1D090F0000
(1763084502.102819) can0 189#4D02A4015A010051
(1763084502.103069) can0 382#0000000000000000
(1763084502.106213) can0 000A0003#FF5DFFA110120000
(1763084502.106501) can0 000A0004#0003FFE4FFEA8E02
(1763084502.108388) can0 682#4046260432040000
(1763084502.112361) can0 189#4F02A4015C010051
(1763084502.116210) can0 000A0003#FF5BFFA210130000
(1763084502.116496) can0 000A0004#0004FFE4FFEA8E02
(1763084502.121927) can0 482#0000000028340001
(1763084502.122045) can0 701#05
(1763084502.122301) can0 281#0000000000000000
(1763084502.122531) can0 189#4F02A4015C010051
(1763084502.122679) can0 080#
(1763084502.123802) can0 286#0000900100000000
(1763084502.124885) can0 382#0000000000000000
(1763084502.126215) can0 000A0003#FF5AFFA310130000
(1763084502.126503) can0 000A0004#0005FFE4FFEA8E02
(1763084502.128625) can0 4C4#050A053205270558
(1763084502.129634) can0 4C5#05430535052F0522
(1763084502.130650) can0 4C6#052A053305280531
(1763084502.131130) can0 188#0C00353300000000
(1763084502.131666) can0 4C7#0551054204FD04FC
(1763084502.131902) can0 288#7D29642A00140000
(1763084502.132356) can0 189#4F02A20159010051
(1763084502.132700) can0 4C8#04BF000000000000
(1763084502.132938) can0 388#1E1F1E1B1F000000
(1763084502.133813) can0 191#9A9A9A9A9A99
(1763084502.134825) can0 192#999A99999999
(1763084502.135826) can0 193#999A9A9A9A9A
(1763084502.136214) can0 000A0003#FF59FFA310110000
(1763084502.136506) can0 000A0004#0005FFE5FFEA8E02
(1763084502.136839) can0 194#999A9A9A9A9A
(1763084502.137810) can0 195#999A9A9A9A9A
(1763084502.138411) can0 181#910100207F00000D
(1763084502.138839) can0 291#0E0F0F0F0F0F
(1763084502.139839) can0 292#0E0F1010100F
(1763084502.140859) can0 293#0F0F0F0F0F0F
(1763084502.141009) can0 701#05
(1763084502.141348) can0 482#0000000028340001
(1763084502.141856) can0 294#0E0F1010100F
(1763084502.142348) can0 186#C6FF4C1D09000000
(1763084502.142832) can0 189#5102A30158010051
(1763084502.143042) can0 295#0E0F0F0F0F0E
(1763084502.146216) can0 000A0003#FF58FFA410100000
(1763084502.146502) can0 000A0004#0006FFE4FFE98E02
(1763084502.146726) can0 1A2#0000350C000000
(1763084502.146954) can0 2A1#191A1A1919181613
(1763084502.147205) can0 382#0000000000000000
(1763084502.149340) can0 682#4046260400000000
(1763084502.152359) can0 189#5502A5015A010051
(1763084502.156223) can0 000A0003#FF59FFA310140000
(1763084502.156511) can0 000A0004#0006FFE5FFE98E02
(1763084502.162357) can0 189#5902A7015C010051
(1763084502.162880) can0 482#0000000028340001
(1763084502.163000) can0 701#05
(1763084502.163226) can0 1A3#C0000509000000
(1763084502.163454) can0 1A4#0000BF0B000000
(1763084502.163680) can0 2A3#1317171717161412
(1763084502.165614) can0 281#0000000000000000
(1763084502.166218) can0 000A0003#FF5BFFA310140000
(1763084502.166506) can0 000A0004#0006FFE5FFEA8E02
(1763084502.168345) can0 382#0000000000000000
(1763084502.172358) can0 189#5D02AC015B010051
(1763084502.176218) can0 000A0003#FF5CFFA310120000
(1763084502.176508) can0 000A0004#0005FFE5FFEA8E02
(1763084502.176751) can0 181#910100207F00000D
(1763084502.182346) can0 186#2DFF4C1D09010000
(1763084502.182839) can0 189#6602B3015B010051
(1763084502.184574) can0 701#05
(1763084502.184921) can0 482#0000000028340001
(1763084502.185435) can0 1A0#000000000000
(1763084502.186224) can0 000A0003#FF5DFFA210100000
(1763084502.186515) can0 000A0004#0005FFE5FFEA8E02
(1763084502.187233) can0 000A0000#0000000000000000
(1763084502.187533) can0 000A0001#0000000000000000
(1763084502.187831) can0 000A0002#0000000000000000
(1763084502.190290) can0 682#4046260400000000
(1763084502.190543) can0 382#0000000000000000
(1763084502.192355) can0 189#6F02BB0159010051
(1763084502.193720) can0 4C4#0510053205230558
(1763084502.194735) can0 4C5#053F0535052B051F
(1763084502.195745) can0 4C6#0527053305280531
(1763084502.196221) can0 000A0003#FF5EFFA3100F0000
(1763084502.196509) can0 000A0004#0005FFE6FFEA8E02
(1763084502.196762) can0 4C7#05580543050604FC
(1763084502.197792) can0 4C8#04BF000000000000
(1763084502.198331) can0 1A5#0000BB0D000000
(1763084502.202359) can0 189#7D02C5015C010151
(1763084502.206223) can0 000A0003#FF5EFFA4100E0000
(1763084502.206509) can0 000A0004#0005FFE7FFEA8E02
(1763084502.206626) can0 701#05
(1763084502.206875) can0 482#0000000028340001
(1763084502.209305) can0 281#0000000000000000
(1763084502.212044) can0 382#0000000000000000
(1763084502.212380) can0 189#8D02D0015B010151
(1763084502.214753) can0 181#910100207F00000D
(1763084502.216220) can0 000A0003#FF5DFFA5100C0000
(1763084502.216507) can0 000A0004#0005FFE7FFEA8E02
(1763084502.219286) can0 19A#00007C65687B7F7C
(1763084502.220296) can0 29A#7D78807E82820000
(1763084502.222364) can0 186#99FD4C1D09020000
(1763084502.222803) can0 189#9F02DE015A010251
(1763084502.223664) can0 080#
(1763084502.224817) can0 286#0000900100000000
(1763084502.226222) can0 000A0003#FF5CFFA6100B0000
(1763084502.226509) can0 000A0004#0005FFE7FFEA8E02
(1763084502.228378) can0 482#0000000028340001
(1763084502.228498) can0 701#05
(1763084502.231228) can0 682#4046260400000000
(1763084502.232352) can0 189#AE02EA015A010251
(1763084502.233857) can0 382#0000000000000000
(1763084502.236225) can0 000A0003#FF59FFA610090000
(1763084502.236514) can0 000A0004#0003FFE8FFE98E02
(1763084502.242355) can0 189#C102F8015C010251
(1763084502.246227) can0 000A0003#FF56FFA510070000
(1763084502.246516) can0 000A0004#0003FFE9FFE98E02
(1763084502.250006) can0 701#05
(1763084502.250356) can0 482#0000000028340001
(1763084502.250647) can0 281#0000000000000000
(1763084502.252351) can0 189#D00202025B010351
(1763084502.253737) can0 1A2#0000350C000000
(1763084502.253963) can0 2A1#191A1A1919181613
(1763084502.255695) can0 181#910100207F00000D
(1763084502.255989) can0 382#0000000000000000
(1763084502.256278) can0 000A0003#FF53FFA510060000
(1763084502.256572) can0 000A0004#0004FFE9FFE98E02
(1763084502.258776) can0 4C4#050B053305280555
(1763084502.259792) can0 4C5#05400536052C0523
(1763084502.260808) can0 4C6#0527053405290536
(1763084502.261820) can0 4C7#05590543050704FD
(1763084502.262336) can0 186#F0FA4C1D09030000
(1763084502.262828) can0 189#E0020E025A010451
(1763084502.263078) can0 4C8#04C0000000000000
(1763084502.264088) can0 1A3#C0000509000000
(1763084502.266230) can0 000A0003#FF4EFFA410050000
(1763084502.266516) can0 000A0004#0004FFE9FFE98E02
(1763084502.270367) can0 1A4#0000BF0B000000
(1763084502.270591) can0 2A3#1317171717161412
(1763084502.271894) can0 701#05
(1763084502.272177) can0 482#0000000028340001
(1763084502.272409) can0 189#EF0219025A010551
(1763084502.272653) can0 682#4046260400000000
(1763084502.276231) can0 000A0003#FF4CFFA610010000
(1763084502.276521) can0 000A0004#0003FFE9FFE98E02
(1763084502.277557) can0 382#0000000000000000
(1763084502.282348) can0 189#FC0223025B010551
(1763084502.285147) can0 188#0C001A3300000000
(1763084502.285433) can0 1A0#000000000000
(1763084502.285850) can0 288#7D29641900140000
(1763084502.286227) can0 000A0003#FF4BFFA80FFC0000
(1763084502.286517) can0 000A0004#0003FFE9FFE98E02
(1763084502.286857) can0 388#1E1F1E1B1F000000
(1763084502.287244) can0 000A0000#0000000000000000
(1763084502.287543) can0 000A0001#0000000000000000
(1763084502.287841) can0 000A0002#0000000000000000
(1763084502.288031) can0 191#9A9A9A9A9A99
(1763084502.288799) can0 192#999A99999999
(1763084502.289819) can0 193#999A9A9A9A9A
(1763084502.290832) can0 194#999A9A9A9A9A
(1763084502.291834) can0 195#999A9A9A9A9A
(1763084502.292347) can0 189#06032B0259010651
(1763084502.292865) can0 291#0E0F0F0F0F0F
(1763084502.293833) can0 292#0E0F1010100F
(1763084502.294079) can0 482#0000000028340001
(1763084502.294200) can0 701#05
(1763084502.294446) can0 181#910100207F00000D
(1763084502.294702) can0 281#0000000000000000
(1763084502.294918) can0 293#0F0F0F0F0F0F
(1763084502.295849) can0 294#0E0F1010100F
(1763084502.296230) can0 000A0003#FF4BFFA90FF90000
(1763084502.296518) can0 000A0004#0003FFE8FFE98E02
(1763084502.296859) can0 295#0E0F0F0F0F0E
(1763084502.299370) can0 382#0000000000000000
(1763084502.300448) can0 1A5#0000BB0D000000
(1763084502.302336) can0 186#4DF84C1D09040000
(1763084502.302842) can0 189#0F0332025A010651
(1763084502.306237) can0 000A0003#FF4CFFAA0FF50000
(1763084502.306522) can0 000A0004#0002FFE9FFEA8E02
(1763084502.312345) can0 189#150337025C010651
(1763084502.313125) can0 682#4046260400000000
(1763084502.315512) can0 701#05
(1763084502.315868) can0 482#0000000028340001
(1763084502.316232) can0 000A0003#FF4DFFA90FF30000
(1763084502.316520) can0 000A0004#0002FFE9FFEB8E02
(1763084502.321324) can0 382#0000000000000000
(1763084502.322359) can0 189#1A0339025C010751
(1763084502.322665) can0 080#
(1763084502.323816) can0 286#0000900100000000
(1763084502.324053) can0 4C4#05040537052C054C
(1763084502.324842) can0 4C5#05430531052B0522
(1763084502.325857) can0 4C6#052A052F05280535
(1763084502.326237) can0 000A0003#FF4DFFA70FF30000
(1763084502.326525) can0 000A0004#0001FFE9FFEB8E02
(1763084502.326877) can0 4C7#0554053E04FD04F7
(1763084502.327905) can0 4C8#04BF000000000000
(1763084502.331131) can0 188#0C00A43200000000
(1763084502.331857) can0 288#7D29642A00140000
(1763084502.332201) can0 181#910100207F00000D
(1763084502.332433) can0 189#1B0339025B010751
(1763084502.332869) can0 388#1E1F1E1B1F000000
(1763084502.333826) can0 191#9A9A9A9A9A99
(1763084502.334838) can0 192#999A99999999
(1763084502.335840) can0 193#999A9A9A9A9A
(1763084502.336234) can0 000A0003#FF4DFFA40FF10000
(1763084502.336521) can0 000A0004#0002FFE9FFEB8E02
(1763084502.336823) can0 194#999A9A9A9A9A
(1763084502.337415) can0 701#05
(1763084502.337671) can0 281#0000000000000000
(1763084502.337861) can0 195#999A9A9A9A9A
(1763084502.338107) can0 482#0000000028340001
(1763084502.338852) can0 291#0E0F0F0F0F0F
(1763084502.339853) can0 292#0E0F1010100F
(1763084502.340842) can0 293#0F0F0F0F0F0F
(1763084502.341835) can0 294#0E0F10100F0F
(1763084502.342327) can0 186#ABF74C1D09050000
(1763084502.342820) can0 189#1A03390258010751
(1763084502.343030) can0 295#0E0F0F0F0F0E
(1763084502.343280) can0 382#0000000000000000
(1763084502.346238) can0 000A0003#FF4DFFA00FEF0000
(1763084502.346526) can0 000A0004#0002FFE5FFEB8E02
(1763084502.352344) can0 189#1C033B025C010751
(1763084502.354063) can0 682#4046260400000000
(1763084502.356238) can0 000A0003#FF4BFFA00FEF0000
(1763084502.356528) can0 000A0004#0003FFE6FFEC8E02
(1763084502.359408) can0 482#0000000028340001
(1763084502.359528) can0 701#05
(1763084502.361224) can0 1A2#0000350C000000
(1763084502.361448) can0 2A1#191A1A1919181613
(1763084502.362338) can0 189#1B033A025A010751
(1763084502.364882) can0 382#0000000000000000
(1763084502.365109) can0 1A3#C0000509000000
(1763084502.366240) can0 000A0003#FF49FFA00FEF0000
(1763084502.366527) can0 000A0004#0002FFE6FFEC8E02
(1763084502.370343) can0 181#910100207F00000D
(1763084502.372342) can0 189#1C033A025C010751
(1763084502.376245) can0 000A0003#FF47FFA20FEF0000
(1763084502.376532) can0 000A0004#0002FFE6FFEC8E02
(1763084502.377399) can0 1A4#0000BF0B000000
(1763084502.377625) can0 2A3#1317171717161412
(1763084502.381029) can0 701#05
(1763084502.381341) can0 281#0000000000000000
(1763084502.381591) can0 482#0000000028340001
(1763084502.382324) can0 186#A4F74C1D09060000
(1763084502.382828) can0 189#1B03390259010751
(1763084502.385438) can0 1A0#000000000000
(1763084502.386238) can0 000A0003#FF47FFA30FF00000
(1763084502.386530) can0 000A0004#0002FFE5FFEC8E02
(1763084502.386834) can0 382#0000000000000000
(1763084502.387252) can0 000A0000#0000000000000000
(1763084502.387553) can0 000A0001#0000000000000000
(1763084502.387850) can0 000A0002#0000000000000000
(1763084502.388895) can0 4C4#05040537052C054C
(1763084502.389903) can0 4C5#05430531052B0522
(1763084502.390920) can0 4C6#052A052F05280535
(1763084502.391942) can0 4C7#0554053E04FD04F7
(1763084502.392338) can0 189#1A033A025B010751
(1763084502.392971) can0 4C8#04BF000000000000
(1763084502.395009) can0 682#4046260400000000
(1763084502.396245) can0 000A0003#FF47FFA20FF20000
(1763084502.396533) can0 000A0004#0003FFE5FFEC8E02
(1763084502.402343) can0 189#1B033B025B010751
(1763084502.402562) can0 1A5#0000BB0D000000
(1763084502.402931) can0 701#05
(1763084502.403220) can0 482#0000000028340001
(1763084502.406242) can0 000A0003#FF47FFA00FF50000
(1763084502.406528) can0 000A0004#0004FFE6FFEC8E02
(1763084502.408594) can0 382#0000000000000000
(1763084502.408843) can0 181#910100207F00000D
(1763084502.412338) can0 189#1C033A025C010751
(1763084502.416240) can0 000A0003#FF47FF9E0FF70000
(1763084502.416526) can0 000A0004#0004FFE5FFEC8E02
(1763084502.422346) can0 186#96F74C1D09070000
(1763084502.422818) can0 189#1B033A025B010751
(1763084502.423680) can0 080#
(1763084502.424806) can0 286#0000900100000000
(1763084502.425050) can0 482#0000000028340001
(1763084502.425290) can0 19A#0000836967808383
(1763084502.425543) can0 281#0000000000000000
(1763084502.426241) can0 000A0003#FF49FF9B0FF80000
(1763084502.426529) can0 000A0004#0004FFE6FFEC8E02
(1763084502.426765) can0 29A#7D70877D81800000
(1763084502.430395) can0 382#0000000000000000
(1763084502.431108) can0 188#0C00A43200000000
(1763084502.431866) can0 288#7D29642A00140000
(1763084502.432334) can0 189#1C033A025B010751
(1763084502.432878) can0 388#1E1F1E1B1F000000
(1763084502.433815) can0 191#9A9A9A9A9A99
(1763084502.434827) can0 192#999A99999999
(1763084502.435799) can0 193#999A9A9A9A9A
(1763084502.436041) can0 682#4046260400000000
(1763084502.436331) can0 000A0003#FF49FF9A0FF90000
(1763084502.436624) can0 000A0004#0004FFE2FFEC8E02
(1763084502.436827) can0 194#999A9A9A9A9A
(1763084502.437832) can0 195#999A9A9A9A9A
(1763084502.438860) can0 291#0E0F0F0F0F0F
(1763084502.439830) can0 292#0E0F1010100F
(1763084502.440850) can0 293#0F0F0F0F0F0F
(1763084502.441826) can0 294#0E0F10100F0F
(1763084502.442334) can0 189#1E033C0259010751
(1763084502.442838) can0 295#0E0F0F0F0F0E
(1763084502.446244) can0 000A0003#FF4AFF980FFB0000
(1763084502.446530) can0 000A0004#0004FFE3FFEC8E02
(1763084502.446646) can0 701#05
(1763084502.446892) can0 181#910100207F00000D
(1763084502.447177) can0 482#0000000028340001
(1763084502.452338) can0 189#20033F025C010751
(1763084502.452598) can0 382#0000000000000000
(1763084502.453958) can0 4C4#0505053805240551
(1763084502.454965) can0 4C5#05440536052C0523
(1763084502.455982) can0 4C6#052B05300521052E
(1763084502.456271) can0 000A0003#FF4BFF960FFC0000
(1763084502.456571) can0 000A0004#0003FFE3FFEC8E02
(1763084502.456999) can0 4C7#0559054304F904FD
(1763084502.458029) can0 4C8#04C0000000000000
(1763084502.462321) can0 186#37F74C1D09080000
(1763084502.462847) can0 189#240340025B010751
(1763084502.465972) can0 1A3#C0000509000000
(1763084502.466258) can0 000A0003#FF4EFF960FFB0000
(1763084502.466546) can0 000A0004#0002FFE4FFEC8E02
(1763084502.468433) can0 701#05
(1763084502.468691) can0 281#0000000000000000
(1763084502.468913) can0 1A2#0000350C000000
(1763084502.469141) can0 2A1#191A1A1919181613
(1763084502.469387) can0 482#0000000028340001
(1763084502.472330) can0 189#260342025A010751
(1763084502.474093) can0 382#0000000000000000
(1763084502.476249) can0 000A0003#FF4EFF970FFC0000
(1763084502.476537) can0 000A0004#0002FFE4FFEB8E02
(1763084502.476898) can0 682#4046250400000000
(1763084502.482333) can0 189#2A0345025C010751
(1763084502.484448) can0 1A4#0000BF0B000000
(1763084502.484676) can0 2A3#1317171717161412
(1763084502.485004) can0 181#910100207F00000D
(1763084502.485438) can0 1A0#000000000000
(1763084502.486253) can0 000A0003#FF4BFF970FFE0000
(1763084502.486543) can0 000A0004#0001FFE4FFEC8E02
(1763084502.487261) can0 000A0000#0000000000000000
(1763084502.487561) can0 000A0001#0000000000000000
(1763084502.487859) can0 000A0002#0000000000000000
(1763084502.490434) can0 482#0000000028340001
(1763084502.490553) can0 701#05
(1763084502.492326) can0 189#2E0348025A010851
(1763084502.495907) can0 382#0000000000000000
(1763084502.496253) can0 000A0003#FF49FF970FFE0000
(1763084502.496543) can0 000A0004#0000FFE3FFEC8E02
(1763084502.502314) can0 186#65F64C1D09090000
(1763084502.502818) can0 189#32034A025A010851
(1763084502.504671) can0 1A5#0000BB0D000000
(1763084502.506250) can0 000A0003#FF4BFF970FFE0000
(1763084502.506539) can0 000A0004#0001FFE3FFEC8E02
(1763084502.512055) can0 701#05
(1763084502.512339) can0 189#37034D025C010851
(1763084502.512593) can0 281#0000000000000000
(1763084502.512842) can0 482#0000000028340001
(1763084502.516257) can0 000A0003#FF4DFF980FFE0000
(1763084502.516546) can0 000A0004#0002FFE3FFEC8E02
(1763084502.517845) can0 682#4046250400000000
(1763084502.518099) can0 382#0000000000000000
(1763084502.519021) can0 4C4#0505053805240551
(1763084502.520030) can0 4C5#05440532052C0523
(1763084502.521047) can0 4C6#052B053005250532
(1763084502.522065) can0 4C7#0559054304FE04F8
(1763084502.522356) can0 189#3B0351025C010851
(1763084502.522682) can0 080#
(1763084502.523096) can0 4C8#04C0000000000000
(1763084502.523338) can0 181#910100207F00000D
(1763084502.523832) can0 286#0000900100000000
(1763084502.526254) can0 000A0003#FF51FF990FFF0000
(1763084502.526543) can0 000A0004#0002FFE3FFEC8E02
(1763084502.531109) can0 188#0C003E3300000000
(1763084502.531872) can0 288#7D29642A00140000
(1763084502.532325) can0 189#3F0355025A010851
(1763084502.532885) can0 388#1E1F1E1B1F000000
(1763084502.533838) can0 191#9A9A9A9A9A99
(1763084502.533954) can0 701#05
(1763084502.534240) can0 482#0000000028340001
(1763084502.534818) can0 192#999A99999999
(1763084502.535822) can0 193#999A9A9A9A9A
(1763084502.536250) can0 000A0003#FF54FF9B10000000
(1763084502.536540) can0 000A0004#0002FFE3FFEC8E02
(1763084502.536835) can0 194#999A9A9A9A9A
(1763084502.537839) can0 195#999A9A9A9A9A
(1763084502.538837) can0 291#0E0F0F0F0F0F
(1763084502.539661) can0 382#0000000000000000
(1763084502.539868) can0 292#0E0F1010100F
(1763084502.540856) can0 293#0F0F0F0F0F0F
(1763084502.541854) can0 294#0E0F1010100F
(1763084502.542310) can0 186#68F54C1D090A0000
(1763084502.542830) can0 189#4503570259010951
(1763084502.543040) can0 295#0E0F0F0F0F0E
(1763084502.546261) can0 000A0003#FF55FF9D10000000
(1763084502.546546) can0 000A0004#0002FFE4FFEC8E02
(1763084502.552324) can0 189#4A035C025C010951
(1763084502.555984) can0 482#0000000028340001
(1763084502.556050) can0 701#05
(1763084502.556354) can0 000A0003#FF56FF9F10000000
(1763084502.556645) can0 000A0004#0002FFE4FFEC8E02
(1763084502.556893) can0 281#0000000000000000
(1763084502.558790) can0 682#4046260400000000
(1763084502.561418) can0 382#0000000000000000
(1763084502.561705) can0 181#910100207F00000D
(1763084502.562321) can0 189#4E035F025B010951
(1763084502.566258) can0 000A0003#FF58FFA40FFE0000
(1763084502.566547) can0 000A0004#0002FFE3FFEC8E02
(1763084502.566934) can0 1A3#C0000509000000
(1763084502.572319) can0 189#550364025C010951
(1763084502.576195) can0 1A2#0000350C000000
(1763084502.576480) can0 000A0003#FF58FFA70FFE0000
(1763084502.576771) can0 000A0004#0002FFE4FFED8E02
(1763084502.576998) can0 2A1#191A1A1919181613
(1763084502.577569) can0 701#05
(1763084502.577925) can0 482#0000000028340001
(1763084502.582312) can0 186#2DF44C1D090B0000
(1763084502.582837) can0 189#5B0369025B010A51
(1763084502.583478) can0 382#0000000000000000
(1763084502.584056) can0 4C4#0505053805280555
(1763084502.585071) can0 4C5#0544053605300527
(1763084502.585437) can0 1A0#000000000000
(1763084502.586085) can0 4C6#052B053005290532
(1763084502.586371) can0 000A0003#FF58FFA710000000
(1763084502.586662) can0 000A0004#0002FFE4FFED8E02
(1763084502.587097) can0 4C7#05590543050304FD
(1763084502.587398) can0 000A0000#0000000000000000
(1763084502.587697) can0 000A0001#0000000000000000
(1763084502.587995) can0 000A0002#0000000000000000
(1763084502.588245) can0 4C8#04C0000000000000
(1763084502.591460) can0 1A4#0000BF0B000000
(1763084502.591685) can0 2A3#1317171717161412
(1763084502.592315) can0 189#61036C025A010A51
(1763084502.596261) can0 000A0003#FF57FFA810020000
(1763084502.596547) can0 000A0004#0002FFE5FFED8E02
(1763084502.599635) can0 181#910100207F00000D
(1763084502.599797) can0 701#05
(1763084502.600052) can0 281#0000000000000000
(1763084502.600302) can0 482#0000000028340001
(1763084502.600549) can0 682#4046260400000000
(1763084502.602318) can0 189#670371025B010A51
(1763084502.605120) can0 382#0000000000000000
(1763084502.606262) can0 000A0003#FF55FFA910040000
(1763084502.606550) can0 000A0004#0002FFE5FFED8E02
(1763084502.606786) can0 1A5#0000BB0D000000
(1763084502.612316) can0 189#6C0376025C010A51
(1763084502.616268) can0 000A0003#FF54FFA910040000
(1763084502.616554) can0 000A0004#0002FFE6FFEE8E02
(1763084502.621458) can0 482#0000000028340001
(1763084502.621576) can0 701#05
(1763084502.622327) can0 186#08F34C1D090C0000
(1763084502.622832) can0 189#700379025B010B51
(1763084502.623666) can0 080#
(1763084502.624819) can0 286#0000900100000000
(1763084502.626269) can0 000A0003#FF53FFA910030000
(1763084502.626556) can0 000A0004#0002FFE6FFEE8E02
(1763084502.627015) can0 382#0000000000000000
(1763084502.631095) can0 188#0C00853200000000
(1763084502.631331) can0 19A#00007C75817B7F7D
(1763084502.631861) can0 288#7D29642A00140000
(1763084502.632275) can0 29A#877E808487890000
(1763084502.632505) can0 189#74037C025C010B51
(1763084502.632873) can0 388#1E1F1E1B1F000000
(1763084502.633818) can0 191#9A9A9A9A9A99
(1763084502.634829) can0 192#999A99999999
(1763084502.635831) can0 193#999A9A9A9A9A
(1763084502.636265) can0 000A0003#FF53FFA810010000
(1763084502.636553) can0 000A0004#0003FFE6FFEE8E02
(1763084502.636844) can0 194#999A9A9A9A9A
(1763084502.637816) can0 195#999A9A9A9A9A
(1763084502.638058) can0 181#910100207F00000D
(1763084502.638844) can0 291#0E0F0F0F0F0F
(1763084502.639846) can0 292#0E0F1010100F
(1763084502.640691) can0 682#4046260400000000
(1763084502.640905) can0 293#0F0F0F0F0F0F
(1763084502.641861) can0 294#0E0F1010100F
(1763084502.642313) can0 189#7A03800259010B51
(1763084502.642841) can0 295#0E0F0F0F0F0E
(1763084502.643140) can0 701#05
(1763084502.643412) can0 281#0000000000000000
(1763084502.643662) can0 482#0000000028340001
(1763084502.646267) can0 000A0003#FF56FFA710000000
(1763084502.646552) can0 000A0004#0004FFE6FFEE8E02
(1763084502.648884) can0 382#0000000000000000
(1763084502.649123) can0 4C4#050B0538052D0551
(1763084502.650137) can0 4C5#0548053A052C0523
(1763084502.651152) can0 4C6#0524053005250532
(1763084502.652170) can0 4C7#0555054305030502
(1763084502.652400) can0 189#810386025B010B51
(1763084502.653204) can0 4C8#04C0000000000000
(1763084502.656266) can0 000A0003#FF57FFA610000000
(1763084502.656570) can0 000A0004#0003FFE5FFEE8E02
(1763084502.662300) can0 186#93F14C1D090D0000
(1763084502.662824) can0 189#89038C025C010C51
(1763084502.665006) can0 701#05
(1763084502.665329) can0 482#0000000028340001
(1763084502.666266) can0 000A0003#FF57FFA710010000
(1763084502.666553) can0 000A0004#0002FFE5FFEE8E02
(1763084502.667892) can0 1A3#C0000509000000
(1763084502.670632) can0 382#0000000000000000
(1763084502.672311) can0 189#910392025C010C51
(1763084502.676083) can0 181#910100207F00000D
(1763084502.676369) can0 000A0003#FF57FFA710010000
(1763084502.676658) can0 000A0004#0002FFE1FFED8E02
(1763084502.681625) can0 682#4046260400000000
(1763084502.682307) can0 189#9A0398025C010D51
(1763084502.683694) can0 1A2#0000350C000000
(1763084502.683920) can0 2A1#191A1A1919181612
(1763084502.685443) can0 1A0#000000000000
(1763084502.686264) can0 000A0003#FF56FFA710010000
(1763084502.686554) can0 000A0004#0003FFE1FFED8E02
(1763084502.686968) can0 482#0000000028340001
(1763084502.687089) can0 701#05
(1763084502.687389) can0 000A0000#0000000000000000
(1763084502.687689) can0 000A0001#0000000000000000
(1763084502.687987) can0 000A0002#0000000000000000
(1763084502.688239) can0 281#0000000000000000
(1763084502.692311) can0 189#A403A0025C010D51
(1763084502.692570) can0 382#0000000000000000
(1763084502.696270) can0 000A0003#FF56FFA610000000
(1763084502.696571) can0 000A0004#0003FFE2FFED8E02
(1763084502.698470) can0 1A4#0000BF0B000000
(1763084502.698696) can0 2A3#1317171717161412
(1763084502.702297) can0 186#A3EF4C1D090E0000
(1763084502.702838) can0 189#AE03A7025C010D51
(1763084502.706276) can0 000A0003#FF56FFA710010000
(1763084502.706562) can0 000A0004#0004FFE3FFEC8E02
(1763084502.708610) can0 701#05
(1763084502.708910) can0 1A5#0000BB0D000000
(1763084502.709155) can0 482#0000000028340001
(1763084502.712305) can0 189#B503AC025B010E51
(1763084502.714208) can0 4C4#050B0538052D0551
(1763084502.714445) can0 181#910100207F00000D
(1763084502.714699) can0 382#0000000000000000
(1763084502.715217) can0 4C5#0548053A052C0523
(1763084502.716271) can0 000A0003#FF57FFA710020000
(1763084502.716574) can0 000A0004#0003FFE6FFED8E02
(1763084502.716792) can0 4C6#0524053005250532
(1763084502.717252) can0 4C7#0555054305030502
(1763084502.718285) can0 4C8#04C0000000000000
(1763084502.722324) can0 189#BE03B2025C010E51
(1763084502.722569) can0 682#4046260400000000
(1763084502.722675) can0 080#
(1763084502.723821) can0 286#0000900100000000
(1763084502.726272) can0 000A0003#FF5AFFA610020000
(1763084502.726559) can0 000A0004#0004FFE6FFED8E02
(1763084502.730484) can0 701#05
(1763084502.730738) can0 281#0000000000000000
(1763084502.730989) can0 482#0000000028340001
(1763084502.731234) can0 188#0C003E3300000000
(1763084502.731885) can0 288#7D29642A00140000
(1763084502.732302) can0 189#C403B6025B010F51
(1763084502.732870) can0 388#1E1F1E1B1F000000
(1763084502.733807) can0 191#9A9A9A9A9A99
(1763084502.734819) can0 192#999A99999999
(1763084502.735839) can0 193#999A9A9A9A9A
(1763084502.736193) can0 382#0000000000000000
(1763084502.736479) can0 000A0003#FF5CFFA510020000
(1763084502.736769) can0 000A0004#0004FFE5FFED8E02
(1763084502.736961) can0 194#999A9A9A9A9A
(1763084502.737823) can0 195#999A9A9A9A9A
(1763084502.738851) can0 291#0E0F0F0F0F0F
(1763084502.739853) can0 292#0E0F1010100F
(1763084502.740872) can0 293#0F0F0F0F0F0F
(1763084502.741837) can0 294#0E0F1010100F
(1763084502.742293) can0 186#16EE4C1D090F0000
(1763084502.742843) can0 189#CA03BB025A010F51
(1763084502.743055) can0 295#0E0F0F0F0F0E
(1763084502.746285) can0 000A0003#FF5CFFA410010000
(1763084502.746571) can0 000A0004#0005FFE6FFEE8E02
(1763084502.752305) can0 189#CF03C0025C010F51
(1763084502.752550) can0 482#0000000028340001
(1763084502.752669) can0 701#05
(1763084502.752916) can0 181#910100207F00000D
(1763084502.756275) can0 000A0003#FF5DFFA310010000
(1763084502.756574) can0 000A0004#0005FFE6FFEE8E02
(1763084502.757956) can0 382#0000000000000000
(1763084502.762305) can0 189#D303C1025C010F51
(1763084502.763529) can0 682#4046260400000000
(1763084502.766277) can0 000A0003#FF5EFFA310010000
(1763084502.766563) can0 000A0004#0005FFE6FFEE8E02
(1763084502.768865) can0 1A3#C0000509000000
(1763084502.772305) can0 189#D303C1025C010F51
(1763084502.774102) can0 701#05
(1763084502.774413) can0 281#0000000000000000
(1763084502.774663) can0 482#0000000028340001
(1763084502.776278) can0 000A0003#FF60FFA210000000
(1763084502.776580) can0 000A0004#0005FFE6FFEE8E02
(1763084502.779217) can0 4C4#0504053205270550
(1763084502.779916) can0 382#0000000000000000
(1763084502.780226) can0 4C5#053F0531052F0526
(1763084502.781238) can0 4C6#052A052B0528052D
(1763084502.782257) can0 4C7#0554053E04FD04FC
(1763084502.782494) can0 186#86ED4C1D09000000
(1763084502.782832) can0 189#D303C1025B010F51
(1763084502.783283) can0 4C8#04BF000000000000
(1763084502.785443) can0 1A0#000000000000
(1763084502.786282) can0 000A0003#FF61FFA510020000
(1763084502.786570) can0 000A0004#0006FFE5FFEE8E02
(1763084502.787293) can0 000A0000#0000000000000000
(1763084502.787593) can0 000A0001#0000000000000000
(1763084502.787891) can0 000A0002#0000000000000000
(1763084502.790730) can0 181#910100207F00000D
(1763084502.791177) can0 1A2#0000350C000000
(1763084502.791402) can0 2A1#191A1A1919181612
(1763084502.792301) can0 189#D303C1025A010F51
(1763084502.795993) can0 701#05
(1763084502.796283) can0 000A0003#FF63FFA710030000
(1763084502.796589) can0 000A0004#0006FFE4FFEF8E02
(1763084502.796821) can0 482#0000000028340001
(1763084502.801657) can0 382#0000000000000000
(1763084502.802300) can0 189#D403C3025C010F51
(1763084502.804460) can0 682#4046250400000000
(1763084502.805490) can0 1A4#0000BF0B000000
(1763084502.805714) can0 2A3#1317171717161412
(1763084502.806282) can0 000A0003#FF62FFA810050000
(1763084502.806572) can0 000A0004#0005FFE4FFF08E02
(1763084502.811044) can0 1A5#0000BB0D000000
(1763084502.812299) can0 189#D403C3025C010F51
(1763084502.816284) can0 000A0003#FF62FFA910070000
(1763084502.816585) can0 000A0004#0005FFE4FFF08E02
(1763084502.817995) can0 482#0000000028340001
(1763084502.818115) can0 701#05
(1763084502.818372) can0 281#0000000000000000
(1763084502.820301) can0 19A#00007C7B8D7B7E7C
(1763084502.821301) can0 29A#8974808787890000
(1763084502.822309) can0 186#8DED4C1D09010000
(1763084502.822817) can0 189#D403C1025A010F51
(1763084502.823574) can0 382#0000000000000000
(1763084502.823688) can0 080#
(1763084502.824834) can0 286#0000900100000000
(1763084502.826282) can0 000A0003#FF63FFA810080000
(1763084502.826574) can0 000A0004#0006FFE4FFEF8E02
(1763084502.828929) can0 181#910100207F00000D
(1763084502.831136) can0 188#0C00313300000000
(1763084502.831861) can0 288#7D29642A00140000
(1763084502.832293) can0 189#D403C2025C010F51
(1763084502.832875) can0 388#1E1F1E1B1F000000
(1763084502.833831) can0 191#9A9A9A9A9A99
(1763084502.834844) can0 192#999A99999999
(1763084502.835846) can0 193#999A9A9A9A9A
(1763084502.836280) can0 000A0003#FF64FFA710090000
(1763084502.836585) can0 000A0004#0005FFE4FFEF8E02
(1763084502.836826) can0 194#999A9A9A9A9A
(1763084502.837830) can0 195#999A9A9A9A9A
(1763084502.838858) can0 291#0E0F0F0F0F0F
(1763084502.839617) can0 701#05
(1763084502.839859) can0 292#0E0F1010100F
(1763084502.840105) can0 482#0000000028340001
(1763084502.840847) can0 293#0F0F0F0F0F0F
(1763084502.841839) can0 294#0E0F10100F0F
(1763084502.842294) can0 189#D603C1025B010F51
(1763084502.842850) can0 295#0E0F0F0F0F0E
(1763084502.844209) can0 4C4#0504053205270550
(1763084502.845220) can0 4C5#053F0531052F0526
(1763084502.845462) can0 682#4046250400000000
(1763084502.845716) can0 382#0000000000000000
(1763084502.846288) can0 000A0003#FF64FFA8100B0000
(1763084502.846575) can0 000A0004#0005FFE4FFEE8E02
(1763084502.846804) can0 4C6#052A052B0528052D
(1763084502.847254) can0 4C7#0554053E04FD04FC
(1763084502.848281) can0 4C8#04BF000000000000
(1763084502.852294) can0 189#D703C5025C010F51
(1763084502.856287) can0 000A0003#FF65FFA9100E0000
(1763084502.856591) can0 000A0004#0005FFE4FFEE8E02
(1763084502.861507) can0 701#05
(1763084502.861764) can0 281#0000000000000000
(1763084502.862013) can0 482#0000000028340001
(1763084502.862302) can0 186#23ED4C1D09020000
(1763084502.862841) can0 189#DB03C7025B011051
(1763084502.866288) can0 000A0003#FF65FFA9100F0000
(1763084502.866579) can0 000A0004#0005FFE4FFED8E02
(1763084502.867166) can0 382#0000000000000000
(1763084502.867428) can0 181#910100207F00000D
(1763084502.869831) can0 1A3#C0000509000000
(1763084502.872295) can0 189#DE03C9025C011051
(1763084502.876289) can0 000A0003#FF65FFA910100000
(1763084502.876602) can0 000A0004#0006FFE4FFED8E02
(1763084502.882296) can0 189#E203CD025B011051
(1763084502.883515) can0 482#0000000028340001
(1763084502.883636) can0 701#05
(1763084502.885446) can0 1A0#000000000000
(1763084502.886283) can0 000A0003#FF64FFA910110000
(1763084502.886573) can0 000A0004#0006FFE4FFED8E02
(1763084502.886816) can0 682#4046260400000000
(1763084502.887296) can0 000A0000#0000000000000000
(1763084502.887595) can0 000A0001#0000000000000000
(1763084502.887893) can0 000A0002#0000000000000000
(1763084502.888983) can0 382#0000000000000000
(1763084502.892291) can0 189#E403CF025A011051
(1763084502.896291) can0 000A0003#FF64FFA910120000
(1763084502.896592) can0 000A0004#0006FFE5FFEC8E02
(1763084502.898666) can0 1A2#0000350C000000
(1763084502.898891) can0 2A1#191A1A1919181612
(1763084502.902278) can0 186#6CEC4C1D09030000
(1763084502.902851) can0 189#E803D2025C011051
(1763084502.905128) can0 701#05
(1763084502.905444) can0 181#910100207F00000D
(1763084502.905701) can0 281#0000000000000000
(1763084502.905992) can0 482#0000000028340001
(1763084502.906289) can0 000A0003#FF63FFA910120000
(1763084502.906577) can0 000A0004#0006FFE5FFED8E02
(1763084502.909279) can0 4C4#05110538052D0555
(1763084502.910291) can0 4C5#0544053A05300520
(1763084502.910940) can0 382#0000000000000000
(1763084502.911319) can0 4C6#052B0530052D0532
(1763084502.912293) can0 189#E803D1025B011051
(1763084502.912521) can0 1A4#0000BF0B000000
(1763084502.912748) can0 2A3#1317171717161412
(1763084502.912981) can0 4C7#05550543050304FD
(1763084502.913203) can0 1A5#0000BB0D000000
(1763084502.913453) can0 4C8#04C0000000000000
(1763084502.916287) can0 000A0003#FF62FFA910110000
(1763084502.916590) can0 000A0004#0005FFE5FFED8E02
(1763084502.922307) can0 189#E803D2025B011051
(1763084502.922681) can0 080#
(1763084502.923837) can0 286#0000900100000000
(1763084502.926290) can0 000A0003#FF63FFAA10150000
(1763084502.926578) can0 000A0004#0005FFE5FFEC8E02
(1763084502.927018) can0 701#05
(1763084502.927300) can0 482#0000000028340001
(1763084502.927546) can0 682#4046260400000000
(1763084502.931115) can0 188#0C00BF3200000000
(1763084502.931870) can0 288#7D29642A00140000
(1763084502.932286) can0 189#E803D1025A011051
(1763084502.932739) can0 382#0000000000000000
(1763084502.932977) can0 388#1E1F1E1B1F000000
(1763084502.933821) can0 191#9A9A9A9A9A99
(1763084502.934833) can0 192#999A99999999
(1763084502.935805) can0 193#999A9A9A9A9A
(1763084502.936290) can0 000A0003#FF65FFAB10160000
(1763084502.936594) can0 000A0004#0005FFE5FFEC8E02
(1763084502.936831) can0 194#999A9A9A9A9A
(1763084502.937835) can0 195#999A9A9A9A9A
(1763084502.938863) can0 291#0E0F0F0F0F0F
(1763084502.939833) can0 292#0E0F1010100F
(1763084502.940854) can0 293#0F0F0F0F0F0F
(1763084502.941832) can0 294#0E0F10100F0F
(1763084502.942281) can0 186#7BEC4C1D09040000
(1763084502.942833) can0 189#E603CE025A011051
(1763084502.943043) can0 295#0E0F0F0F0F0E
(1763084502.943670) can0 181#910100207F00000D
(1763084502.946073) can0 701#05
(1763084502.946360) can0 000A0003#FF66FFAC101A0000
(1763084502.946648) can0 000A0004#0005FFE6FFED8E02
(1763084502.946894) can0 482#0000000028340001
(1763084502.949115) can0 281#0000000000000000
(1763084502.952286) can0 189#E603CE025B011051
(1763084502.954495) can0 382#0000000000000000
(1763084502.956289) can0 000A0003#FF66FFAD101C0000
(1763084502.956593) can0 000A0004#0005FFE5FFEC8E02
(1763084502.962286) can0 189#E403CC025C011051
(1763084502.966298) can0 000A0003#FF65FFB0101F0000
(1763084502.966587) can0 000A0004#0005FFE6FFEC8E02
(1763084502.967963) can0 701#05
(1763084502.968245) can0 482#0000000028340001
(1763084502.968491) can0 682#4046260400000000
(1763084502.970802) can0 1A3#C0000509000000
(1763084502.972283) can0 189#E003C9025B011051
(1763084502.974347) can0 4C4#050B053D05240555
(1763084502.975363) can0 4C5#0548052E052C0520
(1763084502.976290) can0 000A0003#FF64FFB310210000
(1763084502.976587) can0 000A0004#0004FFE5FFED8E02
(1763084502.976829) can0 382#0000000000000000
(1763084502.977059) can0 4C6#052B053405290532
(1763084502.977411) can0 4C7#0552054305070502
(1763084502.978443) can0 4C8#04C0000000000000
(1763084502.981875) can0 181#910100207F00000D
(1763084502.982275) can0 186#3FED4C1D09050000
(1763084502.982837) can0 189#D803C5025B010F51
(1763084502.985445) can0 1A0#000000000000
(1763084502.986295) can0 000A0003#FF64FFB510220000
(1763084502.986584) can0 000A0004#0004FFE6FFEC8E02
(1763084502.987310) can0 000A0000#0000000000000000
(1763084502.987610) can0 000A0001#0000000000000000
(1763084502.987908) can0 000A0002#0000000000000000
(1763084502.989966) can0 482#0000000028340001
(1763084502.990085) can0 701#05
(1763084502.992283) can0 189#D303C1025B010F51
(1763084502.992715) can0 281#0000000000000000
(1763084502.996299) can0 000A0003#FF64FFB610230000
(1763084502.996590) can0 000A0004#0003FFE5FFEC8E02
(1763084502.998191) can0 382#0000000000000000
(1763084503.002287) can0 189#CA03BB025C010F51
(1763084503.006164) can0 1A2#0000350C000000
(1763084503.006447) can0 000A0003#FF65FFB910230000
(1763084503.006735) can0 000A0004#0003FFE5FFEC8E02
(1763084503.006961) can0 2A1#191A1A1919181612
(1763084503.009187) can0 682#4046260400000000
(1763084503.011595) can0 701#05
(1763084503.011937) can0 482#0000000028340001
(1763084503.012278) can0 189#BA03B10259010E51
(1763084503.015287) can0 1A5#0000BB0D000000
(1763084503.016298) can0 000A0003#FF66FFBB10230000
(1763084503.016599) can0 000A0004#0003FFE5FFEC8E02
(1763084503.019538) can0 1A4#0000BF0B000000
(1763084503.019765) can0 2A3#1317171717161412
(1763084503.020016) can0 382#0000000000000000
(1763084503.020295) can0 181#910100207F00000D
(1763084503.022331) can0 186#19F04C1D09060000
(1763084503.022835) can0 189#A3039E025A010D51
(1763084503.023636) can0 080#
(1763084503.024819) can0 286#0000900100000000
(1763084503.026291) can0 000A0003#FF66FFBA10230000
(1763084503.026582) can0 000A0004#0003FFE6FFEC8E02
(1763084503.026817) can0 19A#00007C62677B807C
(1763084503.027293) can0 29A#866C80828B8B0000
(1763084503.031119) can0 188#0C00503300000000
(1763084503.031874) can0 288#7D29642A00140000
(1763084503.032275) can0 189#88038A025A010C51
(1763084503.032886) can0 388#1E1F1E1B1F000000
(1763084503.033480) can0 701#05
(1763084503.033762) can0 482#0000000028340001
(1763084503.033952) can0 191#9A9A9A9A9A99
(1763084503.034824) can0 192#999A99999999
(1763084503.035828) can0 193#999A9A9A9A9A
(1763084503.036292) can0 000A0003#FF66FFBA10220000
(1763084503.036598) can0 000A0004#0003FFE5FFED8E02
(1763084503.036833) can0 281#0000000000000000
(1763084503.037027) can0 194#999A9A9A9A9A
(1763084503.037841) can0 195#999A9A9A9A9A
(1763084503.038839) can0 291#0E0F0F0F0F0F
(1763084503.039434) can0 4C4#050B053D05240555
(1763084503.039841) can0 292#0E0F1010100F
(1763084503.040451) can0 4C5#0548052E052C0520
(1763084503.040857) can0 293#0F0F0F0F0F0F
(1763084503.041465) can0 4C6#052B053405290532
(1763084503.041853) can0 294#0E0F10100F0F
(1763084503.042103) can0 382#0000000000000000
(1763084503.042333) can0 189#6703710259010A51
(1763084503.042568) can0 4C7#0552054305070502
(1763084503.042865) can0 295#0E0F0F0F0F0E
(1763084503.043514) can0 4C8#04C0000000000000
(1763084503.046301) can0 000A0003#FF67FFB910220000
(1763084503.046591) can0 000A0004#0003FFE6FFEC8E02
(1763084503.050168) can0 682#4046250400000000
(1763084503.052299) can0 189#420355025B010851
(1763084503.055483) can0 482#0000000028340001
(1763084503.055604) can0 701#05
(1763084503.056308) can0 000A0003#FF69FFB810230000
(1763084503.056596) can0 000A0004#0002FFE6FFEC8E02
(1763084503.058222) can0 181#910100207F00000D
(1763084503.062270) can0 186#C9F74C1D09070000
(1763084503.062831) can0 189#170334025B010651
(1763084503.063786) can0 382#0000000000000000
(1763084503.066309) can0 000A0003#FF6BFFB910220000
(1763084503.066602) can0 000A0004#0002FFE5FFEC8E02
(1763084503.071786) can0 1A3#C0000509000000
(1763084503.072277) can0 189#EF0217025B010551
(1763084503.076307) can0 000A0003#FF70FFBA10200000
(1763084503.076594) can0 000A0004#0002FFE5FFED8E02
(1763084503.077093) can0 701#05
(1763084503.077445) can0 482#0000000028340001
(1763084503.080135) can0 281#0000000000000000
(1763084503.082279) can0 189#C802FA015A010351
(1763084503.085450) can0 1A0#000000000000
(1763084503.085698) can0 382#0000000000000000
(1763084503.086302) can0 000A0003#FF74FFBB101F0000
(1763084503.086589) can0 000A0004#0003FFE5FFEC8E02
(1763084503.087316) can0 000A0000#0000000000000000
(1763084503.087616) can0 000A0001#0000000000000000
(1763084503.087914) can0 000A0002#0000000000000000
(1763084503.091080) can0 682#4046260400000000
(1763084503.092280) can0 189#A202DF015A010251
(1763084503.096308) can0 000A0003#FF75FFBB101E0000
(1763084503.096595) can0 000A0004#0003FFE4FFEC8E02
(1763084503.096834) can0 181#910100207F00000D
(1763084503.098986) can0 701#05
(1763084503.099269) can0 482#0000000028340001
(1763084503.102268) can0 186#60FE4C1D09080000
(1763084503.102840) can0 189#8002C4015A010151
(1763084503.104492) can0 4C4#050B05330528054C
(1763084503.105509) can0 4C5#05400532052C0527
(1763084503.106308) can0 000A0003#FF76FFBB101D0000
(1763084503.106598) can0 000A0004#0002FFE3FFEC8E02
(1763084503.106828) can0 4C6#0527053005290532
(1763084503.107469) can0 382#0000000000000000
(1763084503.107705) can0 4C7#0559053F04FE0502
(1763084503.108589) can0 4C8#04C0000000000000
(1763084503.112286) can0 189#6602AF015B010051
(1763084503.113643) can0 1A2#0000350C000000
(1763084503.113869) can0 2A1#191A1A1919181613
(1763084503.116312) can0 000A0003#FF75FFBB101C0000
(1763084503.116601) can0 000A0004#0003FFE7FFEC8E02
(1763084503.117409) can0 1A5#0000BB0D000000
(1763084503.120989) can0 482#0000000028340001
(1763084503.121108) can0 701#05
(1763084503.122288) can0 189#5202A5015B010051
(1763084503.122698) can0 080#
(1763084503.123739) can0 281#0000000000000000
(1763084503.123983) can0 286#0000900100000000
(1763084503.126320) can0 000A0003#FF72FFBC101B0000
(1763084503.126607) can0 000A0004#0004FFE8FFEC8E02
(1763084503.126836) can0 1A4#0000BF0B000000
(1763084503.127062) can0 2A3#1317171717161412
(1763084503.127312) can0 382#0000000000000000
(1763084503.132021) can0 682#4046260400000000
(1763084503.132290) can0 189#4902A3015B010051
(1763084503.134671) can0 181#910100207F00000D
(1763084503.136313) can0 000A0003#FF6FFFBD101B0000
(1763084503.136602) can0 000A0004#0005FFE8FFEC8E02
(1763084503.140073) can0 188#0C001A3300000000
(1763084503.140874) can0 288#7D29641900140000
(1763084503.141880) can0 388#1E1F1E1B1F000000
(1763084503.142258) can0 186#FAFF4C1D09090000
(1763084503.142715) can0 701#05
(1763084503.142945) can0 189#4902A3015A010051
(1763084503.143135) can0 191#9A9A9A9A9A99
(1763084503.143382) can0 482#0000000028340001
(1763084503.143835) can0 192#999A99999999
(1763084503.144841) can0 193#999A9A9A9A9A
(1763084503.145849) can0 194#999A9A9A9A9A
(1763084503.146314) can0 000A0003#FF6CFFBE101C0000
(1763084503.146602) can0 000A0004#0005FFE7FFEC8E02
(1763084503.146824) can0 195#999A9A9A9A9A
(1763084503.147852) can0 291#0E0F0F0F0F0F
(1763084503.148422) can0 382#0000000000000000
(1763084503.148855) can0 292#0E0F1010100F
(1763084503.149871) can0 293#0F0F0F0F0F0F
(1763084503.150835) can0 294#0E0F10100F0F
(1763084503.151847) can0 295#0E0F0F0F0F0E
(1763084503.152271) can0 189#4902A30159010051
(1763084503.156308) can0 000A0003#FF68FFBD101D0000
(1763084503.156596) can0 000A0004#0005FFEBFFED8E02
(1763084503.162269) can0 189#4902A3015C010051
(1763084503.164500) can0 701#05
(1763084503.164782) can0 482#0000000028340001
(1763084503.166316) can0 000A0003#FF66FFBE101E0000
(1763084503.166604) can0 000A0004#0005FFEBFFED8E02
(1763084503.167423) can0 281#0000000000000000
(1763084503.169524) can0 4C4#050B05330528054C
(1763084503.170212) can0 382#0000000000000000
(1763084503.170540) can0 4C5#05400532052C0527
(1763084503.171551) can0 4C6#0527053005290532
(1763084503.172268) can0 189#4802A2015A010051
(1763084503.172585) can0 4C7#0559053F04FE0502
(1763084503.172797) can0 1A3#C0000509000000
(1763084503.173039) can0 181#910100207F00000D
(1763084503.173286) can0 682#4046260400000000
(1763084503.173602) can0 4C8#04C0000000000000
(1763084503.176316) can0 000A0003#FF64FFBE101E0000
(1763084503.176606) can0 000A0004#0005FFEBFFED8E02
(1763084503.182259) can0 186#00004C1D090A0000
(1763084503.182856) can0 189#4702A3015A010051
(1763084503.185450) can0 1A0#000000000000
(1763084503.186316) can0 000A0003#FF62FFC010210000
(1763084503.186604) can0 000A0004#0006FFEBFFED8E02
(1763084503.186850) can0 482#0000000028340001
(1763084503.186971) can0 701#05
(1763084503.187335) can0 000A0000#0000000000000000
(1763084503.187634) can0 000A0001#0000000000000000
(1763084503.187933) can0 000A0002#0000000000000000
(1763084503.189362) can0 382#0000000000000000
(1763084503.192264) can0 189#4702A2015A010051
(1763084503.196324) can0 000A0003#FF60FFC210240000
(1763084503.196611) can0 000A0004#0005FFEBFFED8E02
(1763084503.202266) can0 189#4802A3015B010051
(1763084503.206324) can0 000A0003#FF5FFFC410280000
(1763084503.206610) can0 000A0004#0005FFEBFFED8E02
(1763084503.208126) can0 701#05
(1763084503.208475) can0 482#0000000008340001
(1763084503.211108) can0 382#0000000000000000
(1763084503.211373) can0 181#910100207F000009
(1763084503.211630) can0 281#0000000000000000
(1763084503.212265) can0 189#4602A2015A010051
(1763084503.213915) can0 682#4046260400000000
(1763084503.215291) can0 19A#00007C63667B837D
(1763084503.216316) can0 000A0003#FF5FFFC5102A0000
(1763084503.216606) can0 000A0004#0006FFEBFFED8E02
(1763084503.216838) can0 29A#7D8A817E85820000
(1763084503.219526) can0 1A5#0000BB0D000000
(1763084503.221125) can0 1A2#0000350C000000
(1763084503.221351) can0 2A1#191A1A1919181613
(1763084503.222281) can0 186#00004C1D090B0000
(1763084503.222817) can0 189#4602A10159010051
(1763084503.223685) can0 080#
(1763084503.224837) can0 286#0000900100000000
(1763084503.226319) can0 000A0003#FF60FFC6102D0000
(1763084503.226607) can0 000A0004#0006FFEBFFED8E02
(1763084503.230015) can0 701#05
(1763084503.230300) can0 482#0000000008340001
(1763084503.231136) can0 188#0C00083300000000
(1763084503.231892) can0 288#7D29642A00140000
(1763084503.232262) can0 189#4702A3015A010051
(1763084503.232873) can0 388#1E1F1E1B1F000000
(1763084503.233120) can0 382#0000000000000000
(1763084503.233520) can0 1A4#0000BF0B000000
(1763084503.233746) can0 2A3#1317171717161412
(1763084503.233935) can0 191#9A9A9A9A9A99
(1763084503.234601) can0 4C4#051105330528054C
(1763084503.234838) can0 192#999A99999999
(1763084503.235615) can0 4C5#0544053605300520
(1763084503.235842) can0 193#999A9A9A9A9A
(1763084503.236315) can0 000A0003#FF61FFC4102F0000
(1763084503.236606) can0 000A0004#0006FFEBFFEE8E02
(1763084503.236839) can0 4C6#052B053005290536
(1763084503.237033) can0 194#999A9A9A9A9A
(1763084503.237652) can0 4C7#0552054304F904FD
(1763084503.237844) can0 195#999A9A9A9A9A
(1763084503.238683) can0 4C8#04C0000000000000
(1763084503.238895) can0 291#0E0F0F0F0F0F
(1763084503.239857) can0 292#0E0F1010100F
(1763084503.240877) can0 293#0F0F0F0F0F0F
(1763084503.241839) can0 294#0E0F10100F0F
(1763084503.242265) can0 189#4502A00158010051
(1763084503.242851) can0 295#0E0F0F0F0F0E
(1763084503.246323) can0 000A0003#FF61FFC3102F0000
(1763084503.246612) can0 000A0004#0006FFEAFFEF8E02
(1763084503.249318) can0 181#910100207F000009
(1763084503.252012) can0 482#0000000008340001
(1763084503.252132) can0 701#05
(1763084503.252362) can0 189#4702A2015B010051
(1763084503.254754) can0 281#0000000000000000
(1763084503.255000) can0 682#4046260400000000
(1763084503.255280) can0 382#0000000000000000
(1763084503.256331) can0 000A0003#FF5FFFC510300000
(1763084503.256624) can0 000A0004#0006FFEBFFEF8E02
(1763084503.262258) can0 186#00004C1D090C0000
(1763084503.262844) can0 189#4702A3015B010051
(1763084503.266325) can0 000A0003#FF5EFFC6102F0000
(1763084503.266613) can0 000A0004#0005FFEAFFEF8E02
(1763084503.272259) can0 189#4702A4015B010051
(1763084503.273729) can0 1A3#C0000509000000
(1763084503.273846) can0 701#05
(1763084503.274094) can0 482#0000000008340001
(1763084503.276325) can0 000A0003#FF5DFFC9102E0000
(1763084503.276616) can0 000A0004#0005FFEAFFEF8E02
(1763084503.276862) can0 382#0000000000000000
(1763084503.282254) can0 189#4702A2015C010051
(1763084503.285449) can0 1A0#000000000000
(1763084503.286327) can0 000A0003#FF5CFFC8102D0000
(1763084503.286618) can0 000A0004#0005FFE9FFEE8E02
(1763084503.287337) can0 000A0000#0000000000000000
(1763084503.287637) can0 000A0001#0000000000000000
(1763084503.287934) can0 000A0002#0000000000000000
(1763084503.288179) can0 181#910100207F000009
(1763084503.292260) can0 189#4602A2015B010051
(1763084503.295527) can0 701#05
(1763084503.295809) can0 482#0000000008340001
(1763084503.296054) can0 682#4046260400000000
(1763084503.296341) can0 000A0003#FF5CFFC6102C0000
(1763084503.296632) can0 000A0004#0005FFE9FFEE8E02
(1763084503.298433) can0 382#0000000000000000
(1763084503.298728) can0 281#0000000000000000
(1763084503.299651) can0 4C4#05050533052D0551
(1763084503.300654) can0 4C5#0544053A052C0523
(1763084503.301666) can0 4C6#0527053005290532
(1763084503.302248) can0 186#00004C1D090D0000
(1763084503.302682) can0 4C7#0555054305030502
