(1763087353.637218) can0 193#7C7D7D7D7D7D
(1763087353.635805) can0 000A0003#FD8D003110930000
(1763087353.636065) can0 000A0004#000CFFB5FFE48E02
(1763087353.636245) can0 194#7C7D7D7D7D7D
(1763087353.636461) can0 1A3#001C7A09000000
(1763087353.636685) can0 1A2#C0180E0E000000
(1763087353.636916) can0 2A1#2928252728231F20
(1763087353.637122) can0 195#7C7D7D7E7D7D
(1763087353.638026) can0 291#181B1B1A1B1B
(1763087353.639036) can0 292#191B1C1A1C1A
(1763087353.640018) can0 293#191B1B1A1B1A
(1763087353.641021) can0 294#191C1C1B1C1B
(1763087353.642030) can0 295#191C1C1B1C1B
(1763087353.643833) can0 482#DB060C0008360001
(1763087353.644018) can0 701#05
(1763087353.645745) can0 000A0003#FD3C0029100B0000
(1763087353.646030) can0 000A0004#FFFCFFB2FFE48E02
(1763087353.652113) can0 682#4850CE0300000C02
(1763087353.654765) can0 1A5#4018AF0C000000
(1763087353.655006) can0 382#3B0689FFB7050000
(1763087353.655745) can0 000A0003#FCEA001C0FAD0000
(1763087353.656029) can0 000A0004#FFF2FFB7FFE28E02
(1763087353.657482) can0 181#D10300207F000009
(1763087353.657850) can0 4C4#08A508BE07CD0896
(1763087353.658868) can0 4C5#08BF088C085707E9
(1763087353.659884) can0 4C6#082D085A0878089F
(1763087353.660629) can0 186#96134C1D09000000
(1763087353.660891) can0 4C7#08F608B30841084F
(1763087353.661925) can0 4C8#057E000000000000
(1763087353.665546) can0 701#05
(1763087353.665838) can0 000A0003#FCB0000C0F7C0000
(1763087353.666126) can0 000A0004#FFF2FFBEFFDF8E02
(1763087353.668390) can0 482#C4060F0008360001
(1763087353.668748) can0 281#C406000014000000
(1763087353.673847) can0 382#65079E0097070000
(1763087353.675750) can0 000A0003#FC8BFFE20F330000
(1763087353.676036) can0 000A0004#FFF5FFC2FFDE8E02
(1763087353.685055) can0 1A0#000000000000
(1763087353.685744) can0 000A0003#FCC6FF930EE60000
(1763087353.686032) can0 000A0004#0000FFC8FFDC8E02
(1763087353.686758) can0 000A0000#0000000000000000
(1763087353.687058) can0 000A0001#0000000000000000
(1763087353.687357) can0 000A0002#0000000000000000
(1763087353.687472) can0 701#05
(1763087353.690340) can0 482#D4060F0008360001
(1763087353.693066) can0 682#4950CA0300003602
(1763087353.695744) can0 000A0003#FCF6FF550EAA0000
(1763087353.696032) can0 000A0004#0010FFD1FFD68E02
(1763087353.696275) can0 181#D10300207F000009
(1763087353.698412) can0 382#9207A9FF97070000
(1763087353.700629) can0 186#52144C1D09010000
(1763087353.705755) can0 000A0003#FD0BFF410E940000
(1763087353.706040) can0 000A0004#0018FFDDFFD58E02
(1763087353.709001) can0 701#05
(1763087353.711984) can0 281#D506000014000000
(1763087353.712300) can0 482#D506100008360001
(1763087353.715752) can0 000A0003#FD2EFF2A0EB50000
(1763087353.716037) can0 000A0004#001CFFEBFFD38E02
(1763087353.720391) can0 382#56086AFFE0070000
(1763087353.720694) can0 189#F303E00257011151
(1763087353.720839) can0 080#
(1763087353.721991) can0 286#0000580200000000
(1763087353.722829) can0 4C4#08AA08C207CA0890
(1763087353.723841) can0 4C5#08C20892085B07EF
(1763087353.724854) can0 4C6#08310860087E08A1
(1763087353.725750) can0 000A0003#FD56FF220F520000
(1763087353.726038) can0 000A0004#001AFFFAFFD38E02
(1763087353.726267) can0 4C7#08F908B308430851
(1763087353.726896) can0 4C8#057E000000000000
(1763087353.728208) can0 701#05
(1763087353.730275) can0 188#0C007A3100000000
(1763087353.731039) can0 288#1A26E46600290000
(1763087353.732052) can0 388#28292C2626000000
(1763087353.733037) can0 191#7C7C7D7D7D7B
(1763087353.733941) can0 482#C406100008360001
(1763087353.734147) can0 192#7C7C7D7D7C7C
(1763087353.734381) can0 682#4850C70300006B02
(1763087353.735023) can0 193#7C7D7D7D7D7D
(1763087353.735251) can0 1A4#0017D709000000
(1763087353.735476) can0 2A3#1D222323211E1B1A
(1763087353.735762) can0 000A0003#FD70FF1E0FB60000
(1763087353.736048) can0 000A0004#00120006FFD28E02
(1763087353.736252) can0 194#7C7D7D7D7D7D
(1763087353.736666) can0 181#D10300207F000009
(1763087353.736886) can0 1A3#001CB509000000
(1763087353.737088) can0 195#7C7D7D7E7D7D
(1763087353.738032) can0 291#181B1B1A1B1B
(1763087353.739017) can0 292#191B1C1A1C1A
(1763087353.740020) can0 293#191B1B1A1B1A
(1763087353.740623) can0 186#75134C1D09020000
(1763087353.741029) can0 294#191C1C1B1C1B
(1763087353.742039) can0 295#191C1C1B1C1B
(1763087353.742437) can0 382#D807C9FFE0070000
(1763087353.743995) can0 1A2#00165C0E000000
(1763087353.744227) can0 2A1#2928252728231F20
(1763087353.745757) can0 000A0003#FD7EFF03105A0000
(1763087353.746045) can0 000A0004#00030018FFD08E02
(1763087353.750052) can0 701#05
(1763087353.755764) can0 000A0003#FD97FEE510FA0000
(1763087353.756051) can0 000A0004#00030025FFD08E02
(1763087353.756297) can0 281#DC06000013000000
(1763087353.756544) can0 482#DC060F0008360001
(1763087353.756812) can0 1A5#001CC20C000000
(1763087353.765756) can0 000A0003#FDC6FEBE119C0000
(1763087353.766042) can0 000A0004#00080035FFCC8E02
(1763087353.766783) can0 382#420795008A070000
(1763087353.771797) can0 701#05
(1763087353.774963) can0 682#4850C70300008902
(1763087353.775334) can0 181#D10300207F000009
(1763087353.775671) can0 482#E5060F0008360001
(1763087353.775955) can0 000A0003#FDE5FEA612040000
(1763087353.776243) can0 000A0004#00070037FFC88E02
(1763087353.780626) can0 186#BE0F4C1D09030000
(1763087353.785054) can0 1A0#000000000000
(1763087353.785751) can0 000A0003#FDA5FEA7126A0000
(1763087353.786041) can0 000A0004#00080032FFC08E02
(1763087353.786770) can0 000A0000#0000000000000000
(1763087353.787069) can0 000A0001#0000000000000000
(1763087353.787368) can0 000A0002#0000000000000000
(1763087353.787793) can0 4C4#08AA08C207CA0890
(1763087353.788514) can0 382#C50673FF30060000
(1763087353.788803) can0 4C5#08C20892085B07EF
(1763087353.789821) can0 4C6#08310860087E08A1
(1763087353.790828) can0 4C7#08F908B308430851
(1763087353.791865) can0 4C8#057E000000000000
(1763087353.793641) can0 701#05
(1763087353.795757) can0 000A0003#FD6CFEA7128D0000
(1763087353.796047) can0 000A0004#FFF9002BFFBE8E02
(1763087353.799442) can0 482#CC060C0008360001
(1763087353.799797) can0 281#CC06000010000000
(1763087353.805760) can0 000A0003#FD40FEA512370000
(1763087353.806045) can0 000A0004#FFF00032FFB58E02
(1763087353.810491) can0 382#06063C001A060000
(1763087353.813418) can0 181#D10300207F000009
(1763087353.813537) can0 701#05
(1763087353.815768) can0 000A0003#FD24FEA412000000
(1763087353.816051) can0 000A0004#FFEF0038FFB18E02
(1763087353.818661) can0 682#4850CC0300007402
(1763087353.820454) can0 19A#00007F6F707F827F
(1763087353.820686) can0 186#19114C1D09040000
(1763087353.820990) can0 189#D603C10255010F51
(1763087353.821454) can0 29A#7F73838082840000
(1763087353.821697) can0 482#C5060C0008360001
(1763087353.821804) can0 080#
(1763087353.822975) can0 286#0000580200000000
(1763087353.825758) can0 000A0003#FD20FE7212290000
(1763087353.826041) can0 000A0004#FFF90042FFAA8E02
(1763087353.829460) can0 382#60060D00A0060000
(1763087353.830310) can0 188#0C00B93100000000
(1763087353.831065) can0 288#E325FC5E00290000
(1763087353.832078) can0 388#28292C2626000000
(1763087353.833016) can0 191#7A7A7B7B7B7A
(1763087353.833996) can0 192#7A7B7B7B7A7A
(1763087353.834687) can0 701#05
(1763087353.835017) can0 193#7A7B7B7B7B7B
(1763087353.835758) can0 000A0003#FD1DFE46123B0000
(1763087353.836044) can0 000A0004#000D0046FFA58E02
(1763087353.836240) can0 194#7B7B7B7C7B7B
(1763087353.837038) can0 195#7A7B7C7C7C7B
(1763087353.837734) can0 1A3#001E8909000000
(1763087353.838014) can0 291#181B1C1A1B1B
(1763087353.839027) can0 292#181B1C1A1C1B
(1763087353.840027) can0 293#191B1B1A1B1A
(1763087353.841038) can0 294#191C1B1B1C1B
(1763087353.841938) can0 1A4#C0190D0A000000
(1763087353.842139) can0 295#191C1C1B1C1B
(1763087353.842363) can0 2A3#1D222323211E1B1A
(1763087353.843119) can0 281#F006000011000000
(1763087353.843362) can0 482#F0060D0008360001
(1763087353.845758) can0 000A0003#FD16FE2F122B0000
(1763087353.846042) can0 000A0004#0012004EFFA78E02
(1763087353.851377) can0 1A2#001F300E000000
(1763087353.851607) can0 2A1#2928252728231F20
(1763087353.852754) can0 4C4#089D08B907CA0892
(1763087353.853767) can0 4C5#08BB0886084E07E7
(1763087353.854038) can0 382#E706FAFFA0060000
(1763087353.854379) can0 181#D10300207F000009
(1763087353.854777) can0 4C6#082908550875089C
(1763087353.855768) can0 000A0003#FD0CFE0E12130000
(1763087353.856049) can0 000A0004#00190056FFA28E02
(1763087353.856281) can0 4C7#08EF08A7083A0848
(1763087353.856541) can0 701#05
(1763087353.856828) can0 4C8#057E000000000000
(1763087353.858854) can0 1A5#C019C20C000000
(1763087353.859623) can0 682#4850CA0300007102
(1763087353.860614) can0 186#89154C1D09050000
(1763087353.864962) can0 482#F306100008360001
(1763087353.865766) can0 000A0003#FD0DFDED11B60000
(1763087353.866052) can0 000A0004#00100055FF9B8E02
(1763087353.875769) can0 000A0003#FD0EFDC8114C0000
(1763087353.876048) can0 000A0004#FFFF0050FF978E02
(1763087353.876291) can0 382#1E08880059080000
(1763087353.878273) can0 701#05
(1763087353.885057) can0 1A0#000000000000
(1763087353.885763) can0 000A0003#FD0CFDA910F10000
(1763087353.886046) can0 000A0004#FFFC004BFF948E02
(1763087353.886780) can0 000A0000#0000000000000000
(1763087353.887080) can0 000A0001#0000000000000000
(1763087353.887382) can0 000A0002#0000000000000000
(1763087353.887628) can0 281#ED06000016000000
(1763087353.887919) can0 482#ED06110008360001
(1763087353.892258) can0 181#D10300207F000009
(1763087353.895775) can0 000A0003#FD07FD7C106F0000
(1763087353.896060) can0 000A0004#FFFB003EFF8D8E02
(1763087353.897480) can0 701#05
(1763087353.897927) can0 382#6108E4FF59080000
(1763087353.900568) can0 682#4850C60300009E02
(1763087353.900803) can0 186#82154C1D09060000
(1763087353.905771) can0 000A0003#FCE6FD83105D0000
(1763087353.906057) can0 000A0004#FFFE002CFF888E02
(1763087353.908661) can0 482#F106110008360001
(1763087353.915764) can0 000A0003#FCC6FD8C10940000
(1763087353.916050) can0 000A0004#0005001CFF838E02
(1763087353.917725) can0 4C4#089D08BB07CD0894
(1763087353.918743) can0 4C5#08BB0886084C07E5
(1763087353.919570) can0 382#3808480056080000
(1763087353.919794) can0 4C6#0825085508730898
(1763087353.919911) can0 701#05
(1763087353.920654) can0 189#0F04E70256011251
(1763087353.920881) can0 4C7#08ED08A308370843
(1763087353.920986) can0 080#
(1763087353.921803) can0 4C8#057E000000000000
(1763087353.922047) can0 286#0000580200000000
(1763087353.925772) can0 000A0003#FCA5FD9511180000
(1763087353.926057) can0 000A0004#00040010FF7F8E02
(1763087353.930307) can0 188#0C00D43100000000
(1763087353.931073) can0 288#F325F46E00290000
(1763087353.932083) can0 388#28292C2626000000
(1763087353.933016) can0 191#7B7B7C7B7C7A
(1763087353.933258) can0 181#D10300207F000009
(1763087353.933544) can0 281#F206000016000000
(1763087353.933786) can0 482#F206110008360001
(1763087353.934022) can0 192#7B7B7B7B7B7B
(1763087353.935030) can0 193#7B7B7C7C7B7B
(1763087353.935767) can0 000A0003#FC76FDA211D60000
(1763087353.936055) can0 000A0004#00050002FF7C8E02
(1763087353.936259) can0 194#7B7C7C7C7C7C
(1763087353.937015) can0 195#7B7B7C7C7C7B
(1763087353.938017) can0 291#181B1B1A1B1B
(1763087353.938653) can0 1A3#001C7A09000000
(1763087353.939029) can0 292#191B1C1A1C1B
(1763087353.940033) can0 293#191B1C1A1B1A
(1763087353.940611) can0 186#7C154C1D09070000
(1763087353.941043) can0 294#191B1C1B1C1B
(1763087353.941292) can0 701#05
(1763087353.941839) can0 682#4850C5030000C502
(1763087353.942038) can0 295#191C1C1B1C1B
(1763087353.942274) can0 382#4B08290056080000
(1763087353.945772) can0 000A0003#FC88FDA012A40000
(1763087353.946059) can0 000A0004#00060001FF788E02
(1763087353.948708) can0 1A4#001C3E0A000000
(1763087353.948931) can0 2A3#1D222323211E1B1A
(1763087353.955053) can0 482#F506110008360001
(1763087353.955776) can0 000A0003#FC94FD9F13290000
(1763087353.956066) can0 000A0004#00020002FF778E02
(1763087353.958750) can0 1A2#001EAA0E000000
(1763087353.958980) can0 2A1#2928252727221F20
(1763087353.960890) can0 1A5#001EAF0C000000
(1763087353.962999) can0 701#05
(1763087353.963378) can0 382#7C0864FF53080000
(1763087353.965773) can0 000A0003#FCBDFD8B13310000
(1763087353.966061) can0 000A0004#00060006FF708E02
(1763087353.974160) can0 181#D10300207F000009
(1763087353.975779) can0 000A0003#FCF1FD7813390000
(1763087353.976064) can0 000A0004#0006000EFF6D8E02
(1763087353.976898) can0 281#0107000015000000
(1763087353.977144) can0 482#0107110008360001
(1763087353.980602) can0 186#A1154C1D09080000
(1763087353.982718) can0 4C4#08A208BB07CD0892
(1763087353.983734) can0 4C5#08BB0884084E07E3
(1763087353.984744) can0 4C6#0825085308710896
(1763087353.985057) can0 1A0#000000000000
(1763087353.985303) can0 382#5F083C0062080000
(1763087353.985423) can0 701#05
(1763087353.985663) can0 682#4850C4030000E002
(1763087353.985946) can0 000A0003#FCF2FD5B12CD0000
(1763087353.986231) can0 000A0004#00040015FF6B8E02
(1763087353.986459) can0 4C7#08ED08A308350840
(1763087353.986787) can0 000A0000#0000000000000000
(1763087353.987087) can0 000A0001#0000000000000000
(1763087353.987387) can0 000A0002#0000000000000000
(1763087353.987632) can0 4C8#057E000000000000
(1763087353.995775) can0 000A0003#FCF2FD4812880000
(1763087353.996060) can0 000A0004#0005001AFF6B8E02
(1763087353.998753) can0 482#0407110008360001
(1763087354.005780) can0 000A0003#FCF0FD3412700000
(1763087354.006065) can0 000A0004#00060020FF698E02
(1763087354.006921) can0 701#05
(1763087354.009640) can0 382#7308250062080000
(1763087354.012528) can0 181#D10300207F000009
(1763087354.015773) can0 000A0003#FCEDFD2512580000
(1763087354.016058) can0 000A0004#0003001DFF648E02
(1763087354.020579) can0 482#F306110008360001
(1763087354.020813) can0 186#02154C1D09090000
(1763087354.021049) can0 189#0004E50258011151
(1763087354.021294) can0 281#F306000016000000
(1763087354.021840) can0 080#
(1763087354.022992) can0 286#0000580200000000
(1763087354.025781) can0 000A0003#FD04FD2912780000
(1763087354.026068) can0 000A0004#FFF70022FF608E02
(1763087354.026304) can0 682#4850C4030000F302
(1763087354.026540) can0 19A#0000816D757C7E80
(1763087354.027451) can0 29A#816C828284830000
(1763087354.030323) can0 188#0C00433100000000
(1763087354.031082) can0 288#F325F46800290000
(1763087354.031254) can0 701#05
(1763087354.031740) can0 382#1D08ABFF24080000
(1763087354.032059) can0 388#28292C2626000000
(1763087354.033006) can0 191#7B7B7C7B7C7A
(1763087354.034011) can0 192#7B7B7B7B7B7B
(1763087354.035021) can0 193#7B7B7C7C7B7B
(1763087354.035785) can0 000A0003#FD13FD2C128C0000
(1763087354.036069) can0 000A0004#FFF8001FFF618E02
(1763087354.036273) can0 194#7B7C7C7C7C7C
(1763087354.037021) can0 195#7B7B7C7C7C7B
(1763087354.038026) can0 291#181B1B1A1B1B
(1763087354.039036) can0 292#191B1C1A1C1B
(1763087354.039581) can0 1A3#001E7F09000000
(1763087354.040040) can0 293#191B1C1A1B1A
(1763087354.041002) can0 294#191B1C1B1C1B
(1763087354.042014) can0 295#191C1C1B1C1B
(1763087354.042553) can0 482#F506100008360001
(1763087354.045780) can0 000A0003#FD2EFD3812A20000
(1763087354.046064) can0 000A0004#FFF6001EFF5F8E02
(1763087354.047734) can0 4C4#089E08B507BE0884
(1763087354.048745) can0 4C5#08B60883084C07E2
(1763087354.049759) can0 4C6#0822085208700895
(1763087354.050711) can0 181#D10300207F000009
(1763087354.050947) can0 4C7#08E8089E0836083E
(1763087354.051810) can0 4C8#057F000000000000
(1763087354.053103) can0 701#05
(1763087354.053560) can0 382#0208DB0024080000
(1763087354.055477) can0 1A4#C019120A000000
(1763087354.055700) can0 2A3#1D222323211E1B1A
(1763087354.055984) can0 000A0003#FD4BFD4912B60000
(1763087354.056268) can0 000A0004#FFF3001CFF5C8E02
(1763087354.060599) can0 186#A4144C1D090A0000
(1763087354.062944) can0 1A5#C019D10C000000
(1763087354.064167) can0 281#0A07000015000000
(1763087354.064492) can0 482#0A07100008360001
(1763087354.065784) can0 000A0003#FD3EFD6B12630000
(1763087354.066071) can0 000A0004#FFF20028FF5A8E02
(1763087354.066296) can0 1A2#001CF40E000000
(1763087354.066526) can0 2A1#2928252727221F20
(1763087354.067220) can0 682#4850C4030000F302
(1763087354.075783) can0 000A0003#FD2CFD9D11EB0000
(1763087354.076068) can0 000A0004#FFF40031FF578E02
(1763087354.077568) can0 701#05
(1763087354.078045) can0 382#0108B2FF00080000
(1763087354.085058) can0 1A0#000000000000
(1763087354.085781) can0 000A0003#FD2AFDE511A10000
(1763087354.086066) can0 000A0004#FFEE0037FF558E02
(1763087354.086309) can0 482#0F07100008360001
(1763087354.086797) can0 000A0000#0000000000000000
(1763087354.087097) can0 000A0001#0000000000000000
(1763087354.087395) can0 000A0002#0000000000000000
(1763087354.091576) can0 181#D10300207F000009
(1763087354.095791) can0 000A0003#FD30FE35115A0000
(1763087354.096076) can0 000A0004#FFE5003CFF4F8E02
(1763087354.096685) can0 701#05
(1763087354.099745) can0 382#F007790000080000
(1763087354.100591) can0 186#73144C1D090B0000
(1763087354.105790) can0 000A0003#FD4CFE3711A60000
(1763087354.106076) can0 000A0004#FFE20041FF4C8E02
(1763087354.107949) can0 281#1007000014000000
(1763087354.108195) can0 482#1007100008360001
(1763087354.108524) can0 682#4850C5030000F602
(1763087354.112730) can0 4C4#089E08B507BE0884
(1763087354.113740) can0 4C5#08B60883084C07E2
(1763087354.114756) can0 4C6#0822085208700895
(1763087354.115783) can0 000A0003#FD74FE3A12130000
(1763087354.116068) can0 000A0004#FFDF0042FF4A8E02
(1763087354.116304) can0 4C7#08E8089E0836083E
(1763087354.116805) can0 4C8#057F000000000000
(1763087354.118617) can0 701#05
(1763087354.120643) can0 189#FD03E20256011151
(1763087354.120841) can0 080#
(1763087354.121803) can0 382#D0072000ED070000
(1763087354.122047) can0 286#0000580200000000
(1763087354.125793) can0 000A0003#FD71FE5411F20000
(1763087354.126075) can0 000A0004#FFDC0042FF438E02
(1763087354.129772) can0 181#D10300207F000009
(1763087354.130034) can0 482#1207100008360001
(1763087354.130330) can0 188#0C00B03100000000
(1763087354.131054) can0 288#BD250B6900290000
(1763087354.132068) can0 388#28292C2626000000
(1763087354.133027) can0 191#79797A797A78
(1763087354.134039) can0 192#79797A797979
(1763087354.135041) can0 193#797A7A7A797A
(1763087354.135791) can0 000A0003#FD5AFE7811D40000
(1763087354.136081) can0 000A0004#FFD6003EFF3E8E02
(1763087354.136273) can0 194#797A7A7B7A7A
(1763087354.137027) can0 195#797A7B7B7A7A
(1763087354.138037) can0 291#181B1C1A1B1B
(1763087354.139043) can0 292#191B1C1A1C1B
(1763087354.140019) can0 293#191B1B1A1B1A
(1763087354.140516) can0 1A3#0018D908000000
(1763087354.140746) can0 186#DE154C1D090C0000
(1763087354.140983) can0 382#EB076100ED070000
(1763087354.141178) can0 294#191B1B1B1C1B
(1763087354.141295) can0 701#05
(1763087354.142035) can0 295#191C1C1B1C1B
(1763087354.145796) can0 000A0003#FD4AFE7211EA0000
(1763087354.146078) can0 000A0004#FFD3003AFF3A8E02
(1763087354.149103) can0 682#4850C4030000F902
(1763087354.151628) can0 482#1007110008360001
(1763087354.151980) can0 281#1007000016000000
(1763087354.155793) can0 000A0003#FD32FE69120A0000
(1763087354.156076) can0 000A0004#FFD10033FF338E02
(1763087354.162226) can0 1A4#001C120A000000
(1763087354.162450) can0 2A3#1E222323211E1B1B
(1763087354.162566) can0 701#05
(1763087354.162865) can0 382#68083C0079080000
(1763087354.165000) can0 1A5#0018F80C000000
(1763087354.165787) can0 000A0003#FD0EFE5D12180000
(1763087354.166071) can0 000A0004#FFD20029FF2D8E02
(1763087354.168142) can0 181#D10300207F000009
(1763087354.173504) can0 1A2#0018AF0E000000
(1763087354.173734) can0 2A1#2928252826222020
(1763087354.173975) can0 482#1D07110008360001
(1763087354.175790) can0 000A0003#FCF2FE55121B0000
(1763087354.176073) can0 000A0004#FFDB0021FF2A8E02
(1763087354.177717) can0 4C4#089E08B307C10888
(1763087354.178729) can0 4C5#08B4087F084907E2
(1763087354.179746) can0 4C6#08200850086E0891
(1763087354.180587) can0 186#5B114C1D090D0000
(1763087354.180819) can0 4C7#08E808A0082F083C
(1763087354.181557) can0 701#05
(1763087354.181807) can0 4C8#057F000000000000
(1763087354.182125) can0 382#66086E0079080000
(1763087354.185148) can0 1A0#000000000000
(1763087354.185791) can0 000A0003#FCEAFE4A11D20000
(1763087354.186078) can0 000A0004#FFE40019FF248E02
(1763087354.186805) can0 000A0000#0000000000000000
(1763087354.187105) can0 000A0001#0000000000000000
(1763087354.187403) can0 000A0002#0000000000000000
(1763087354.189977) can0 682#4850C40300000303
(1763087354.195201) can0 281#2007000011000000
(1763087354.195514) can0 482#20070E0008360001
(1763087354.195799) can0 000A0003#FCF2FE4011670000
(1763087354.196089) can0 000A0004#FFE8000CFF1E8E02
(1763087354.203166) can0 701#05
(1763087354.203720) can0 382#61067A00BA060000
(1763087354.205800) can0 000A0003#FCD6FE4410FD0000
(1763087354.206086) can0 000A0004#FFE40002FF1C8E02
(1763087354.209091) can0 181#D10300207F000009
(1763087354.215794) can0 000A0003#FCB8FE4B10B70000
(1763087354.216078) can0 000A0004#FFD6FFF7FF1C8E02
(1763087354.217148) can0 482#1C070E0008360001
(1763087354.220619) can0 186#690F4C1D090E0000
(1763087354.220995) can0 189#F803DE0254011151
(1763087354.221856) can0 080#
(1763087354.222978) can0 286#0000580200000000
(1763087354.225204) can0 701#05
(1763087354.225585) can0 382#AE063800BA060000
(1763087354.225871) can0 000A0003#FC96FE0D10BA0000
(1763087354.226157) can0 000A0004#FFD1FFFDFF1B8E02
(1763087354.231009) can0 682#4950C9030000D902
(1763087354.232442) can0 19A#00007E67717D7F80
(1763087354.233444) can0 29A#816E838085830000
(1763087354.235803) can0 000A0003#FC7CFDAE10EF0000
(1763087354.236083) can0 000A0004#FFD60004FF168E02
(1763087354.236332) can0 281#290700000F000000
(1763087354.239103) can0 482#2A070C0008360001
(1763087354.239351) can0 188#0C00713100000000
(1763087354.240051) can0 288#BD25183C00290000
(1763087354.241058) can0 388#28292C2626000000
(1763087354.241472) can0 1A3#C01F3109000000
(1763087354.242037) can0 191#79797A797A78
(1763087354.242713) can0 4C4#089E08B307C10888
(1763087354.243019) can0 192#79797A797979
(1763087354.243725) can0 4C5#08B4087F084907E2
(1763087354.244019) can0 193#797A7A7A797A
(1763087354.244739) can0 4C6#08200850086E0891
(1763087354.245029) can0 194#797A7A7B7A7A
(1763087354.245803) can0 000A0003#FC7DFD82109E0000
(1763087354.246087) can0 000A0004#FFE60005FF148E02
(1763087354.246281) can0 195#797A7B7B7A7A
(1763087354.246517) can0 4C7#08E808A0082F083C
(1763087354.246805) can0 4C8#057F000000000000
(1763087354.247046) can0 291#181B1C1A1B1B
(1763087354.247306) can0 382#F805A400F9050000
(1763087354.247409) can0 701#05
(1763087354.247655) can0 181#D10300207F000009
(1763087354.248023) can0 292#191B1C1A1C1B
(1763087354.249029) can0 293#191B1B1A1B1A
(1763087354.250037) can0 294#191B1B1B1C1B
(1763087354.251049) can0 295#191C1C1B1C1B
(1763087354.255807) can0 000A0003#FC86FD74103F0000
(1763087354.256093) can0 000A0004#FFF0000FFF148E02
(1763087354.260585) can0 186#A4134C1D090F0000
(1763087354.260933) can0 482#16070C0008360001
(1763087354.265807) can0 000A0003#FC9AFD80101C0000
(1763087354.266093) can0 000A0004#FFF70018FF118E02
(1763087354.267047) can0 1A5#C019350C000000
(1763087354.268973) can0 1A4#001C120A000000
(1763087354.269199) can0 2A3#1E222323201F1B1B
(1763087354.269316) can0 701#05
(1763087354.271736) can0 382#5B0716009D070000
(1763087354.272204) can0 682#4950C9030000AF02
(1763087354.275815) can0 000A0003#FCAFFD9A102C0000
(1763087354.276098) can0 000A0004#FFEC0025FF0B8E02
(1763087354.279939) can0 281#1D07000014000000
(1763087354.280883) can0 1A2#4018F40E000000
(1763087354.281113) can0 2A1#2928252826222021
(1763087354.282679) can0 482#25070F0008360001
(1763087354.285154) can0 1A0#000000000000
(1763087354.285394) can0 181#D10300207F000009
(1763087354.285820) can0 000A0003#FCC5FDA310380000
(1763087354.286104) can0 000A0004#FFD7002EFF0A8E02
(1763087354.286818) can0 000A0000#0000000000000000
(1763087354.287118) can0 000A0001#0000000000000000
(1763087354.287417) can0 000A0002#0000000000000000
(1763087354.290615) can0 701#05
(1763087354.291316) can0 382#D1071B009D070000
(1763087354.295805) can0 000A0003#FCD4FDA3103F0000
(1763087354.296096) can0 000A0004#FFCF003CFF078E02
(1763087354.300577) can0 186#B7144C1D09000000
(1763087354.304635) can0 482#3A07100008360001
(1763087354.305807) can0 000A0003#FCDAFDA410350000
(1763087354.306095) can0 000A0004#FFCF0043FF038E02
(1763087354.307714) can0 4C4#08A308B307CB088F
(1763087354.308728) can0 4C5#08B40881084907E2
(1763087354.309742) can0 4C6#08220852086E0895
(1763087354.310758) can0 4C7#08E808A20833083C
(1763087354.311792) can0 4C8#057F000000000000
(1763087354.312705) can0 382#F007A30007080000
(1763087354.312898) can0 701#05
(1763087354.313268) can0 682#4950C5030000C502
(1763087354.315809) can0 000A0003#FCDAFDA610220000
(1763087354.316094) can0 000A0004#FFDC0048FEFC8E02
(1763087354.320622) can0 189#FE03DB0257011151
(1763087354.320858) can0 080#
(1763087354.322010) can0 286#0000580200000000
(1763087354.323960) can0 181#D10300207F000009
(1763087354.324207) can0 281#3107000015000000
(1763087354.325807) can0 000A0003#FCBCFDA710560000
(1763087354.326096) can0 000A0004#FFE4004FFEF78E02
(1763087354.326372) can0 482#3007100008360001
(1763087354.330319) can0 188#0C00B93100000000
(1763087354.331074) can0 288#FC252A6D00290000
(1763087354.332083) can0 388#28292C2626000000
(1763087354.333048) can0 191#7B7B7C7C7C7A
(1763087354.334022) can0 192#7B7B7C7B7B7B
(1763087354.334300) can0 701#05
(1763087354.334785) can0 382#BA07B60007080000
(1763087354.335037) can0 193#7B7C7C7C7C7C
(1763087354.335803) can0 000A0003#FC67FDA910FF0000
(1763087354.336087) can0 000A0004#FFE8004AFEEB8E02
(1763087354.336289) can0 194#7B7C7C7D7C7C
(1763087354.337049) can0 195#7B7C7C7D7C7C
(1763087354.338017) can0 291#181B1B1A1B1B
(1763087354.339027) can0 292#191B1C1A1C1B
(1763087354.340032) can0 293#191B1C1A1B1A
(1763087354.340573) can0 186#23144C1D09010000
(1763087354.341041) can0 294#191B1C1B1C1B
(1763087354.342053) can0 295#191C1C1B1C1B
(1763087354.342381) can0 1A3#001ED908000000
(1763087354.345808) can0 000A0003#FC2BFD9311040000
(1763087354.346086) can0 000A0004#FFE10045FEE18E02
(1763087354.348190) can0 482#3407100008360001
(1763087354.353783) can0 682#4950C5030000D802
(1763087354.355807) can0 000A0003#FC1CFD7110BD0000
(1763087354.356092) can0 000A0004#FFCD003AFED98E02
(1763087354.356271) can0 701#05
(1763087354.356827) can0 382#EB071000CE070000
(1763087354.361860) can0 181#D10300207F000009
(1763087354.365814) can0 000A0003#FC08FD4A10BF0000
(1763087354.366093) can0 000A0004#FFC80035FED68E02
(1763087354.367203) can0 281#3607000014000000
(1763087354.367775) can0 482#3607100008360001
(1763087354.369081) can0 1A5#001E350C000000
(1763087354.372714) can0 4C4#08A808BC07CB088D
(1763087354.373729) can0 4C5#08B80881084B07E2
(1763087354.374740) can0 4C6#08240852086E0895
(1763087354.375722) can0 1A4#C01F3E0A000000
(1763087354.376004) can0 000A0003#FBDDFCF6110A0000
(1763087354.376290) can0 000A0004#FFD2002EFECF8E02
(1763087354.376522) can0 2A3#1E222323201F1C1B
(1763087354.376758) can0 4C7#08E808A20836083C
(1763087354.377008) can0 4C8#057F000000000000
(1763087354.378224) can0 382#B7077500CE070000
(1763087354.378344) can0 701#05
(1763087354.380569) can0 186#750D4C1D09020000
(1763087354.385154) can0 1A0#000000000100
(1763087354.385808) can0 000A0003#FBC2FCD710A40000
(1763087354.386092) can0 000A0004#FFEA002CFECA8E02
(1763087354.386824) can0 000A0000#0000000000000000
(1763087354.387124) can0 000A0001#0000000000000000
(1763087354.387423) can0 000A0002#0000000000000000
(1763087354.388247) can0 1A2#001CAA0E000000
(1763087354.388475) can0 2A1#2928272925222021
(1763087354.389164) can0 482#33070B0008360001
(1763087354.394817) can0 682#4950C8030000D302
(1763087354.395812) can0 000A0003#FBC7FCD10FEE0000
(1763087354.396097) can0 000A0004#00010024FEC38E02
(1763087354.400056) can0 181#D10300207F000009
(1763087354.400175) can0 701#05
(1763087354.400527) can0 382#F2042E0037050000
(1763087354.405822) can0 000A0003#FBC2FCDA0F900000
(1763087354.406107) can0 000A0004#00050021FEC38E02
(1763087354.410989) can0 281#150700000D000000
(1763087354.411232) can0 482#15070B0008360001
(1763087354.415822) can0 000A0003#FBAFFCFA0F2A0000
(1763087354.416111) can0 000A0004#0004001FFEBE8E02
(1763087354.420607) can0 186#E5104C1D09030000
(1763087354.421007) can0 189#0904E50254011251
(1763087354.421471) can0 19A#00007F6D6C7F7F80
(1763087354.421843) can0 080#
(1763087354.421959) can0 701#05
(1763087354.422269) can0 382#2005B8FF37050000
(1763087354.422510) can0 29A#8071828085840000
(1763087354.422994) can0 286#0000580200000000
(1763087354.425823) can0 000A0003#FBABFD120EFA0000
(1763087354.426108) can0 000A0004#FFF60014FEB68E02
(1763087354.430303) can0 188#0C00D73000000000
(1763087354.431061) can0 288#FC252A5B00290000
(1763087354.432071) can0 388#28292C2626000000
(1763087354.432933) can0 482#43070D0008360001
(1763087354.433131) can0 191#7B7B7C7C7C7A
(1763087354.434011) can0 192#7B7B7C7B7B7B
(1763087354.435043) can0 193#7B7C7C7C7C7C
(1763087354.435815) can0 000A0003#FBBCFD230EEB0000
(1763087354.436098) can0 000A0004#FFEE000DFEB68E02
(1763087354.436301) can0 194#7B7C7C7D7C7C
(1763087354.436537) can0 682#4950CB0300009202
(1763087354.437026) can0 195#7B7C7C7D7C7C
(1763087354.437716) can0 4C4#08A808BC07CB088D
(1763087354.438023) can0 291#181B1B1A1B1B
(1763087354.438731) can0 4C5#08B80881084B07E2
(1763087354.439036) can0 292#191B1C1A1C1B
(1763087354.439745) can0 4C6#08240852086E0895
(1763087354.440020) can0 293#191B1C1A1B1A
(1763087354.440762) can0 4C7#08E808A20836083C
(1763087354.441031) can0 294#191B1C1B1C1B
(1763087354.441273) can0 181#D10300207F000009
(1763087354.441793) can0 4C8#057F000000000000
(1763087354.442011) can0 295#191C1C1B1C1B
(1763087354.443301) can0 1A3#00180509000000
(1763087354.443638) can0 701#05
(1763087354.444092) can0 382#AB060C008C060000
(1763087354.445822) can0 000A0003#FBE2FD2A0ECB0000
(1763087354.446110) can0 000A0004#FFED0003FEB08E02
(1763087354.454667) can0 482#6D070D0008360001
(1763087354.455106) can0 281#6D07000011000000
(1763087354.455817) can0 000A0003#FC24FD0F0E970000
(1763087354.456100) can0 000A0004#FFF1FFF4FEAA8E02
(1763087354.460565) can0 186#1A0C4C1D09040000
(1763087354.465256) can0 701#05
(1763087354.465819) can0 000A0003#FC54FCF30E920000
(1763087354.466105) can0 000A0004#0000FFF1FEA48E02
(1763087354.466347) can0 382#DB06680031050000
(1763087354.471122) can0 1A5#C01F300C000000
(1763087354.475825) can0 000A0003#FC5FFCDD0E9F0000
(1763087354.476109) can0 000A0004#0008FFEBFEA18E02
(1763087354.476624) can0 482#2007090008360001
(1763087354.476951) can0 682#4950CB0300008702
(1763087354.481957) can0 181#D10300207F000009
(1763087354.482476) can0 1A4#001C870A000000
(1763087354.482705) can0 2A3#1E232422201F1C1B
(1763087354.485155) can0 1A0#000000000000
(1763087354.485820) can0 000A0003#FC64FCD60EDB0000
(1763087354.486108) can0 000A0004#0009FFDFFE9B8E02
(1763087354.486836) can0 000A0000#0000000000000000
(1763087354.487136) can0 000A0001#0000000000000000
(1763087354.487434) can0 000A0002#0000000000000000
(1763087354.487550) can0 701#05
(1763087354.487862) can0 382#C504DFFFB0040000
(1763087354.495596) can0 1A2#00185C0E000000
(1763087354.495883) can0 000A0003#FC51FCFF0F680000
(1763087354.496171) can0 000A0004#000CFFD5FE938E02
(1763087354.496399) can0 2A1#2928272925222222
(1763087354.498340) can0 281#0F0700000C000000
(1763087354.498586) can0 482#0F07090008360001
(1763087354.500562) can0 186#E20A4C1D09050000
(1763087354.502694) can0 4C4#08A308B707CB088B
(1763087354.503711) can0 4C5#08B6087F084B07E2
(1763087354.504728) can0 4C6#0822084E086C0893
(1763087354.505739) can0 4C7#08E508A208310839
(1763087354.506025) can0 000A0003#FC49FD230FCF0000
(1763087354.506309) can0 000A0004#0011FFD2FE898E02
(1763087354.506775) can0 4C8#057F000000000000
(1763087354.509255) can0 382#0A04230038040000
(1763087354.509373) can0 701#05
(1763087354.515828) can0 000A0003#FC52FD3710070000
(1763087354.516113) can0 000A0004#001BFFD0FE848E02
(1763087354.517667) can0 682#4950D00300003F02
(1763087354.520196) can0 482#5C07090008360001
(1763087354.520603) can0 189#3304010356011451
(1763087354.520845) can0 181#D10300207F000009
(1763087354.520951) can0 080#
(1763087354.521996) can0 286#0000580200000000
(1763087354.525829) can0 000A0003#FC67FD49103D0000
(1763087354.526115) can0 000A0004#0029FFCDFE7C8E02
(1763087354.530325) can0 188#0C00F83100000000
(1763087354.531085) can0 288#1726F14C00290000
(1763087354.531322) can0 382#A80498FF38040000
(1763087354.531441) can0 701#05
(1763087354.532066) can0 388#28292C2626000000
(1763087354.533034) can0 191#7C7C7D7D7D7B
(1763087354.534048) can0 192#7C7C7C7D7C7C
(1763087354.535052) can0 193#7C7D7D7D7D7D
(1763087354.535830) can0 000A0003#FC8BFD44103D0000
(1763087354.536112) can0 000A0004#0026FFC8FE748E02
(1763087354.536316) can0 194#7C7D7D7D7D7D
(1763087354.537034) can0 195#7C7D7D7E7D7D
(1763087354.538036) can0 291#181B1C1A1B1B
(1763087354.539042) can0 292#191B1C1A1C1B
(1763087354.539408) can0 482#5D07090008360001
(1763087354.540045) can0 293#191B1C1A1B1A
(1763087354.540559) can0 186#2E0C4C1D09060000
(1763087354.541027) can0 294#191C1B1B1C1B
(1763087354.542037) can0 295#191C1C1B1C1B
(1763087354.542283) can0 281#580700000B000000
(1763087354.544240) can0 1A3#C01FD908000000
(1763087354.545835) can0 000A0003#FCA2FD4210610000
(1763087354.546121) can0 000A0004#0019FFC0FE708E02
(1763087354.552701) can0 701#05
(1763087354.553082) can0 382#F6043B00B8040000
(1763087354.555830) can0 000A0003#FC9EFD3410C90000
(1763087354.556117) can0 000A0004#0007FFBEFE6C8E02
(1763087354.558429) can0 181#D10300207F000009
(1763087354.558853) can0 682#4950CF0300001602
(1763087354.563972) can0 482#31070A0008360001
(1763087354.565828) can0 000A0003#FCA5FD1C112C0000
(1763087354.566112) can0 000A0004#0002FFB9FE6C8E02
(1763087354.567679) can0 4C4#08A308B707CB088B
(1763087354.568695) can0 4C5#08B6087F084B07E2
(1763087354.569711) can0 4C6#0822084E086C0893
(1763087354.570721) can0 4C7#08E508A208310839
(1763087354.571762) can0 4C8#057F000000000000
(1763087354.573154) can0 1A5#801FAC0B000000
(1763087354.574462) can0 701#05
(1763087354.574808) can0 382#5A047A00B8040000
(1763087354.575836) can0 000A0003#FCBDFCF011870000
(1763087354.576120) can0 000A0004#0011FFB4FE6B8E02
(1763087354.580555) can0 186#FC114C1D09070000
(1763087354.585064) can0 1A0#000000000000
(1763087354.585724) can0 482#3E070C0008360001
(1763087354.586015) can0 000A0003#FCCDFCD311C10000
(1763087354.586296) can0 000A0004#001CFFB4FE698E02
(1763087354.586544) can0 281#3E07000010000000
(1763087354.586850) can0 000A0000#0000000000000000
(1763087354.587151) can0 000A0001#0000000000000000
(1763087354.587449) can0 000A0002#0000000000000000
(1763087354.589229) can0 1A4#0018B30A000000
(1763087354.589457) can0 2A3#1E23242220201D1B
(1763087354.595833) can0 000A0003#FCE3FCCA11D80000
(1763087354.596122) can0 000A0004#0020FFB3FE678E02
(1763087354.596628) can0 181#D10300207F000009
(1763087354.596748) can0 701#05
(1763087354.597095) can0 382#AA064600F8060000
(1763087354.599570) can0 682#4950CC0300001602
(1763087354.602948) can0 1A2#00185C0E000000
(1763087354.603178) can0 2A1#29282A2824222222
(1763087354.605836) can0 000A0003#FD08FCC911A40000
(1763087354.606119) can0 000A0004#001BFFB9FE698E02
(1763087354.607667) can0 482#5D070E0008360001
(1763087354.615842) can0 000A0003#FD4BFCD810E00000
(1763087354.616123) can0 000A0004#0015FFC2FE688E02
(1763087354.618374) can0 701#05
(1763087354.618914) can0 382#27071500F8060000
(1763087354.620583) can0 186#87154C1D09080000
(1763087354.620992) can0 189#0904EB0256011251
(1763087354.621857) can0 080#
(1763087354.623008) can0 286#0000580200000000
(1763087354.625844) can0 000A0003#FD76FCE110630000
(1763087354.626129) can0 000A0004#0021FFC4FE6A8E02
(1763087354.626665) can0 482#4D07110008360001
(1763087354.627463) can0 19A#00007F74747C7F80
(1763087354.628467) can0 29A#8176817F83820000
(1763087354.629385) can0 281#4D07000016000000
(1763087354.630305) can0 188#0C00EF3100000000
(1763087354.631212) can0 288#1726F16D00290000
(1763087354.632071) can0 388#28292C2626000000
(1763087354.632651) can0 4C4#08A008B907CB088F
(1763087354.633042) can0 191#7C7C7D7D7D7B
(1763087354.633663) can0 4C5#08B8087F084B07E2
(1763087354.634055) can0 192#7C7C7C7D7C7C
(1763087354.634679) can0 4C6#0822084E086C0895
(1763087354.635098) can0 181#D10300207F000009
(1763087354.635300) can0 193#7C7D7D7D7D7D
(1763087354.635693) can0 4C7#08E508A208310839
(1763087354.635981) can0 000A0003#FD93FCD410440000
(1763087354.636269) can0 000A0004#0031FFD9FE6F8E02
(1763087354.636473) can0 194#7C7D7D7D7D7D
(1763087354.636729) can0 4C8#057F000000000000
(1763087354.637025) can0 195#7C7D7D7E7D7D
(1763087354.638025) can0 291#181B1C1A1B1B
(1763087354.639049) can0 292#191B1C1A1C1B
(1763087354.640023) can0 293#191B1C1A1B1A
(1763087354.640313) can0 382#5F084F0057080000
(1763087354.640433) can0 701#05
(1763087354.640892) can0 682#4950C50300005F02
(1763087354.641090) can0 294#191C1B1B1C1B
(1763087354.642044) can0 295#191C1C1B1C1B
(1763087354.645164) can0 1A3#C0214E09000000
(1763087354.645834) can0 000A0003#FD92FCCD10570000
(1763087354.646119) can0 000A0004#003DFFE8FE6E8E02
(1763087354.651236) can0 482#5107110008360001
(1763087354.655842) can0 000A0003#FD6DFCCF10A50000
(1763087354.656129) can0 000A0004#0040FFF2FE6E8E02
(1763087354.660546) can0 186#E4134C1D09090000
(1763087354.661919) can0 701#05
(1763087354.662496) can0 382#9C084FFF57080000
(1763087354.665840) can0 000A0003#FD37FCD211150000
(1763087354.666125) can0 000A0004#00430005FE6C8E02
(1763087354.673096) can0 181#D10300207F000009
(1763087354.673398) can0 281#5507000014000000
(1763087354.673646) can0 482#5507100008360001
(1763087354.675171) can0 1A5#001C4A0B000000
(1763087354.675845) can0 000A0003#FD58FCCA107C0000
(1763087354.676136) can0 000A0004#0041000FFE6C8E02
(1763087354.683751) can0 701#05
(1763087354.684122) can0 682#4950C4030000A002
(1763087354.684445) can0 382#89077900B5070000
(1763087354.685065) can0 1A0#000000000100
(1763087354.685841) can0 000A0003#FD61FCBB10160000
(1763087354.686129) can0 000A0004#00400010FE698E02
(1763087354.686859) can0 000A0000#0000000000000000
(1763087354.687159) can0 000A0001#0000000000000000
(1763087354.687458) can0 000A0002#0000000000000000
(1763087354.694939) can0 482#4607100008360001
(1763087354.695842) can0 000A0003#FD47FCA7100E0000
(1763087354.696125) can0 000A0004#004A0012FE698E02
(1763087354.696351) can0 1A4#801FDA0A000000
(1763087354.696579) can0 2A3#1E24242120201D1B
(1763087354.697628) can0 4C4#08A008B707CB0888
(1763087354.698647) can0 4C5#08B6087D084707E0
(1763087354.699662) can0 4C6#08220850086E0891
(1763087354.700537) can0 186#5A134C1D090A0000
(1763087354.700777) can0 4C7#08E608A20836083E
(1763087354.701734) can0 4C8#057F000000000000
(1763087354.705893) can0 000A0003#FD23FC8B10010000
(1763087354.706142) can0 000A0004#00580011FE678E02
(1763087354.706257) can0 701#05
(1763087354.706510) can0 382#7B07510080070000
(1763087354.710333) can0 1A2#001C720D000000
(1763087354.710525) can0 2A1#29282A2824232522
(1763087354.711341) can0 181#D10300207F000009
(1763087354.714144) can0 482#4C070F0008360001
(1763087354.715844) can0 000A0003#FD29FCA7100B0000
(1763087354.716124) can0 000A0004#00650008FE658E02
(1763087354.716879) can0 281#4907000013000000
(1763087354.720589) can0 189#2B04FD0257011351
(1763087354.720859) can0 080#
(1763087354.722010) can0 286#0000580200000000
(1763087354.725047) can0 682#4950C5030000B702
(1763087354.725856) can0 000A0003#FD2FFCBE101A0000
(1763087354.726145) can0 000A0004#0067FFFDFE608E02
(1763087354.727345) can0 701#05
(1763087354.727904) can0 382#5E07070080070000
(1763087354.730313) can0 188#0C00E23100000000
(1763087354.731071) can0 288#E025096700290000
(1763087354.732079) can0 388#28292C2626000000
(1763087354.733040) can0 191#7A7A7B7B7B79
(1763087354.734047) can0 192#7A7B7B7B7A7A
(1763087354.735024) can0 193#7A7B7B7B7B7B
(1763087354.735846) can0 000A0003#FD4CFCC8102A0000
(1763087354.736130) can0 000A0004#0060FFF2FE5E8E02
(1763087354.736326) can0 194#7A7B7B7C7B7B
(1763087354.736565) can0 482#5D070F0008360001
(1763087354.737036) can0 195#7A7B7B7C7B7B
(1763087354.738046) can0 291#181B1C1A1B1B
(1763087354.739024) can0 292#191B1C1A1C1B
(1763087354.740029) can0 293#191B1C1A1B1A
(1763087354.740537) can0 186#12174C1D090B0000
(1763087354.741042) can0 294#191C1B1B1C1B
(1763087354.742051) can0 295#191C1C1B1C1B
(1763087354.745846) can0 000A0003#FD76FCD610410000
(1763087354.746131) can0 000A0004#005FFFDEFE5D8E02
(1763087354.746349) can0 1A3#40183B09000000
(1763087354.749176) can0 701#05
(1763087354.749650) can0 382#FA081400F1080000
(1763087354.752239) can0 181#D10300207F000009
(1763087354.755843) can0 000A0003#FDC9FCE90FD80000
(1763087354.756127) can0 000A0004#005EFFCEFE5C8E02
(1763087354.757710) can0 482#7107120008360001
(1763087354.760333) can0 281#7607000017000000
(1763087354.762611) can0 4C4#08A008B707CB0888
(1763087354.763629) can0 4C5#08B6087D084707E0
(1763087354.764645) can0 4C6#08220850086E0891
(1763087354.765662) can0 4C7#08E608A20836083E
(1763087354.765949) can0 000A0003#FDFEFCF40F940000
(1763087354.766233) can0 000A0004#0061FFCAFE5D8E02
(1763087354.766470) can0 682#4950C1030000E302
(1763087354.766720) can0 4C8#057F000000000000
(1763087354.771345) can0 382#37090100F1080000
(1763087354.771463) can0 701#05
(1763087354.775858) can0 000A0003#FE39FCDE0F500000
(1763087354.776143) can0 000A0004#0061FFC2FE608E02
(1763087354.777207) can0 1A5#C0214A0B000000
(1763087354.779665) can0 482#7B07120008360001
(1763087354.780538) can0 186#280A4C1D090C0000
(1763087354.785157) can0 1A0#000000000000
(1763087354.785856) can0 000A0003#FE69FCC90F0F0000
(1763087354.786143) can0 000A0004#0060FFB9FE628E02
(1763087354.786866) can0 000A0000#0000000000000000
(1763087354.787166) can0 000A0001#0000000000000000
(1763087354.787465) can0 000A0002#0000000000000000
(1763087354.790605) can0 181#D10300207F000009
(1763087354.792870) can0 701#05
(1763087354.793430) can0 382#0F052F00F0030000
(1763087354.795859) can0 000A0003#FE56FCAA0F040000
(1763087354.796142) can0 000A0004#0065FFB4FE668E02
(1763087354.801305) can0 281#3E0700000A000000
(1763087354.801620) can0 482#3E07080008360001
(1763087354.802770) can0 1A4#0018FC0A000000
(1763087354.803000) can0 2A3#1E24242120211C1B
(1763087354.805857) can0 000A0003#FE4AFC960EFE0000
(1763087354.806138) can0 000A0004#006EFFB5FE698E02
(1763087354.806945) can0 682#4950C9030000D102
(1763087354.815857) can0 000A0003#FE57FC590FB50000
(1763087354.816141) can0 000A0004#0089FFB5FE6D8E02
(1763087354.817439) can0 701#05
(1763087354.817663) can0 1A2#001C720D000000
(1763087354.817887) can0 2A1#2A2A2A2624232522
(1763087354.818127) can0 382#9403CCFFF0030000
(1763087354.820568) can0 186#690D4C1D090D0000
(1763087354.821012) can0 189#E003C90255011051
(1763087354.821874) can0 080#
(1763087354.822996) can0 286#0000580200000000
(1763087354.823445) can0 482#1907080008360001
(1763087354.825854) can0 000A0003#FE73FC1D10640000
(1763087354.826139) can0 000A0004#009FFFB8FE6E8E02
(1763087354.827598) can0 4C4#08A308B307CC088D
(1763087354.828613) can0 4C5#08B60882084707DE
(1763087354.828855) can0 181#D10300207F000009
(1763087354.829627) can0 4C6#0820084E086C0892
(1763087354.830346) can0 188#0C002F3200000000
(1763087354.830642) can0 4C7#08E5089E0832083C
(1763087354.831078) can0 288#8B25304E00290000
(1763087354.831673) can0 4C8#0580000000000000
(1763087354.832086) can0 388#28292C2626000000
(1763087354.833047) can0 191#787778787876
(1763087354.833464) can0 19A#00007C72727E7F7F
(1763087354.834026) can0 192#777878787777
(1763087354.834462) can0 29A#7E71838186840000
(1763087354.835032) can0 193#777878797878
(1763087354.835857) can0 000A0003#FE75FC0F10940000
(1763087354.836140) can0 000A0004#00A9FFB8FE6C8E02
(1763087354.836333) can0 194#787878797878
(1763087354.837047) can0 195#777879797978
(1763087354.838027) can0 291#181B1C1A1B1B
(1763087354.839035) can0 292#191B1C1A1C1A
(1763087354.839385) can0 701#05
(1763087354.839837) can0 382#3C05E0FF32050000
(1763087354.840033) can0 293#191B1C1A1B1A
(1763087354.841047) can0 294#191C1C1B1C1B
(1763087354.842056) can0 295#191C1C1B1C1B
(1763087354.845078) can0 281#6D0700000D000000
(1763087354.845323) can0 482#6D070A0008360001
(1763087354.845860) can0 000A0003#FE76FC0610B40000
(1763087354.846145) can0 000A0004#00A9FFBBFE6D8E02
(1763087354.846999) can0 1A3#001F2C09000000
(1763087354.850649) can0 682#4950CE0300006E02
(1763087354.855866) can0 000A0003#FE7EFC11104B0000
(1763087354.856148) can0 000A0004#00A3FFBCFE6B8E02
(1763087354.860526) can0 186#9A174C1D090E0000
(1763087354.861343) can0 701#05
(1763087354.861899) can0 382#5005B20032050000
(1763087354.865861) can0 000A0003#FE88FC270FE70000
(1763087354.866146) can0 000A0004#0099FFC2FE6C8E02
(1763087354.866901) can0 181#D10300207F000009
(1763087354.867165) can0 482#A907100008360001
(1763087354.875864) can0 000A0003#FE84FC300F760000
(1763087354.876144) can0 000A0004#0093FFC8FE678E02
(1763087354.879230) can0 1A5#C01F4A0B000000
(1763087354.882962) can0 701#05
(1763087354.883521) can0 382#4709120025090000
(1763087354.885159) can0 1A0#000000000000
(1763087354.885863) can0 000A0003#FE82FC360F2E0000
(1763087354.886147) can0 000A0004#0096FFCDFE678E02
(1763087354.886877) can0 000A0000#0000000000000000
(1763087354.887177) can0 000A0001#0000000000000000
(1763087354.887476) can0 000A0002#0000000000000000
(1763087354.888755) can0 482#7807120008360001
(1763087354.889111) can0 281#7807000018000000
(1763087354.891833) can0 682#4950C2030000AA02
(1763087354.892571) can0 4C4#08A308B307CC088D
(1763087354.893589) can0 4C5#08B60882084707DE
(1763087354.894604) can0 4C6#0820084E086C0892
(1763087354.895620) can0 4C7#08E5089E0832083C
(1763087354.895908) can0 000A0003#FE6EFC460F4D0000
(1763087354.896193) can0 000A0004#009EFFD2FE6C8E02
(1763087354.896648) can0 4C8#0580000000000000
(1763087354.900528) can0 186#0A164C1D090F0000
(1763087354.902760) can0 382#43092A0025090000
(1763087354.902940) can0 701#05
(1763087354.905862) can0 000A0003#FE53FC590F6B0000
(1763087354.906146) can0 000A0004#00A5FFD6FE6E8E02
(1763087354.907861) can0 181#D10300207F000009
(1763087354.909518) can0 1A4#C019FC0A000000
(1763087354.909747) can0 2A3#1E24232120211C1B
(1763087354.913332) can0 482#5307110008360001
(1763087354.915874) can0 000A0003#FE0CFC7B0FF00000
(1763087354.916155) can0 000A0004#00A1FFD4FE728E02
(1763087354.920571) can0 189#EB03D30257011051
(1763087354.920877) can0 080#
(1763087354.921997) can0 286#0000580200000000
(1763087354.925027) can0 1A2#4018BB0D000000
(1763087354.925249) can0 2A1#2A2A2A2624262521
(1763087354.925864) can0 000A0003#FDA5FCAB10AF0000
(1763087354.926148) can0 000A0004#0096FFCEFE748E02
(1763087354.926983) can0 382#60083D008A080000
(1763087354.927173) can0 701#05
(1763087354.930343) can0 188#0C007A3100000000
(1763087354.931087) can0 288#8B25307000290000
(1763087354.932096) can0 388#28292C2626000000
(1763087354.932427) can0 281#7007000016000000
(1763087354.932774) can0 682#4950C0030000E202
(1763087354.933024) can0 191#787778787876
(1763087354.934034) can0 192#777878787777
(1763087354.935040) can0 193#777878797878
(1763087354.935299) can0 482#7607110008360001
(1763087354.935864) can0 000A0003#FD9CFCBD10B40000
(1763087354.936150) can0 000A0004#0095FFCEFE7A8E02
(1763087354.936342) can0 194#787878797878
(1763087354.937024) can0 195#777879797978
(1763087354.938034) can0 291#181B1C1A1B1B
(1763087354.939042) can0 292#191B1C1A1C1A
(1763087354.940046) can0 293#191B1C1A1B1A
(1763087354.940522) can0 186#CD104C1D09000000
(1763087354.941057) can0 294#191C1C1B1C1B
(1763087354.942036) can0 295#191C1C1B1C1B
(1763087354.945871) can0 000A0003#FDBFFCC110B90000
(1763087354.946157) can0 000A0004#009CFFD2FE7D8E02
(1763087354.946399) can0 181#D10300207F000009
(1763087354.947926) can0 1A3#C01F4E09000000
(1763087354.948560) can0 701#05
(1763087354.949051) can0 382#D2060A0083060000
(1763087354.955869) can0 000A0003#FDDEFCBD109B0000
(1763087354.956153) can0 000A0004#00A6FFDEFE7E8E02
(1763087354.957024) can0 482#70070D0008360001
(1763087354.957551) can0 4C4#08A608B807C9088B
(1763087354.958564) can0 4C5#08B40880084707DE
(1763087354.959578) can0 4C6#081E0850086C0890
(1763087354.960591) can0 4C7#08E3089E0834083A
(1763087354.961625) can0 4C8#0580000000000000
(1763087354.965876) can0 000A0003#FE0AFCB810700000
(1763087354.966163) can0 000A0004#00B2FFECFE818E02
(1763087354.970406) can0 701#05
(1763087354.970792) can0 382#87060C0083060000
(1763087354.975869) can0 000A0003#FE26FCAA10C20000
(1763087354.976156) can0 000A0004#00AEFFF6FE838E02
(1763087354.976400) can0 281#5907000011000000
(1763087354.976665) can0 682#4950C6030000D802
(1763087354.979090) can0 482#5D070D0008360001
(1763087354.980517) can0 186#52124C1D09010000
(1763087354.981250) can0 1A5#001EFC0A000000
(1763087354.984328) can0 181#D10300207F000009
(1763087354.985160) can0 1A0#000000000100
(1763087354.985872) can0 000A0003#FE39FC98110D0000
(1763087354.986164) can0 000A0004#00A10007FE828E02
(1763087354.986890) can0 000A0000#0000000000000000
(1763087354.987191) can0 000A0001#0000000000000000
(1763087354.987489) can0 000A0002#0000000000000000
(1763087354.992138) can0 701#05
(1763087354.992504) can0 382#340773FF19070000
(1763087354.995872) can0 000A0003#FE3CFCBB11490000
(1763087354.996157) can0 000A0004#0096000DFE818E02
(1763087355.000805) can0 482#7F070E0008360001
(1763087355.005877) can0 000A0003#FE40FCEE119F0000
(1763087355.006160) can0 000A0004#008C0013FE7F8E02
(1763087355.014010) can0 701#05
(1763087355.014564) can0 382#72075EFF19070000
(1763087355.015876) can0 000A0003#FE45FD22114D0000
(1763087355.016163) can0 000A0004#008D000CFE7A8E02
(1763087355.016387) can0 1A4#001F230B000000
(1763087355.016614) can0 2A3#1E24232121211C1B
(1763087355.017300) can0 682#4950C6030000CD02
(1763087355.019919) can0 281#7C07000012000000
(1763087355.020554) can0 186#D30F4C1D09020000
(1763087355.020996) can0 189#0F04E70255011251
(1763087355.021863) can0 080#
(1763087355.022463) can0 19A#00007E79727D807E
(1763087355.022703) can0 181#D10300207F000009
(1763087355.022933) can0 4C4#08A108B807C9088B
(1763087355.023177) can0 286#0000580200000000
(1763087355.023417) can0 482#76070E0008360001
(1763087355.023653) can0 29A#7F6F857F85860000
(1763087355.023889) can0 4C5#08B2087E084707E0
(1763087355.024548) can0 4C6#08200850086B0892
(1763087355.025568) can0 4C7#08E508A00832083F
(1763087355.025870) can0 000A0003#FE48FD4310E20000
(1763087355.026154) can0 000A0004#009B0003FE7A8E02
(1763087355.026595) can0 4C8#0580000000000000
(1763087355.032410) can0 1A2#0018E70D000000
(1763087355.032633) can0 2A1#2B2C292624262521
(1763087355.035876) can0 000A0003#FE19FD7310A40000
(1763087355.036161) can0 000A0004#00ACFFFEFE798E02
(1763087355.036277) can0 701#05
(1763087355.036523) can0 382#10062B0022060000
(1763087355.044371) can0 482#61070C0008360001
(1763087355.045882) can0 000A0003#FDD4FD9F10970000
(1763087355.046166) can0 000A0004#00BAFFF5FE758E02
(1763087355.048848) can0 1A3#C019A109000000
(1763087355.055879) can0 000A0003#FDB5FDA010440000
(1763087355.056166) can0 000A0004#00C8FFF7FE778E02
(1763087355.057925) can0 382#1D06BAFF22060000
(1763087355.058107) can0 701#05
(1763087355.058574) can0 682#4950C9030000B002
(1763087355.060516) can0 186#9A0A4C1D09030000
(1763087355.063470) can0 181#D10300207F000009
(1763087355.063718) can0 281#750700000C000000
(1763087355.065878) can0 000A0003#FDADFD920FF90000
(1763087355.066168) can0 000A0004#00D5FFFCFE778E02
(1763087355.068947) can0 482#7A07080008360001
(1763087355.075877) can0 000A0003#FDD9FD980F4A0000
(1763087355.076164) can0 000A0004#00DAFFFFFE798E02
(1763087355.077146) can0 701#05
(1763087355.077586) can0 382#0D04DCFF1C040000
(1763087355.083281) can0 1A5#001CFC0A000000
(1763087355.084357) can0 188#0C008C3100000000
(1763087355.085059) can0 288#8B25363000290000
(1763087355.085268) can0 1A0#000000000000
(1763087355.085874) can0 000A0003#FE1FFDA90E850000
(1763087355.086157) can0 000A0004#00CF0010FE7B8E02
(1763087355.086396) can0 388#28292C2626000000
(1763087355.086887) can0 000A0000#0000000000000000
(1763087355.087187) can0 000A0001#0000000000000000
(1763087355.087486) can0 000A0002#0000000000000000
(1763087355.087676) can0 191#787778787876
(1763087355.087908) can0 4C4#08A308B507C9088D
(1763087355.088100) can0 192#777878787777
(1763087355.088520) can0 4C5#08B2087E084907DE
(1763087355.089031) can0 193#777878797878
(1763087355.089532) can0 4C6#0822084E086B0892
(1763087355.090037) can0 194#787878797878
(1763087355.090555) can0 4C7#08E508A00832083F
(1763087355.091000) can0 482#7E07080008360001
(1763087355.091192) can0 195#777879797978
(1763087355.091584) can0 4C8#0580000000000000
(1763087355.092058) can0 291#181B1C1A1B1B
(1763087355.093037) can0 292#191B1C1A1C1A
(1763087355.094038) can0 293#191B1C1A1B1A
(1763087355.095051) can0 294#191C1C1B1C1B
(1763087355.095882) can0 000A0003#FE3DFDCE0E1F0000
(1763087355.096170) can0 000A0004#00AD0020FE7E8E02
(1763087355.096370) can0 295#191C1C1B1C1B
(1763087355.098961) can0 382#2B04F5FF1C040000
(1763087355.099082) can0 701#05
(1763087355.099528) can0 682#4950CF0300006502
(1763087355.100510) can0 186#BF0A4C1D09040000
(1763087355.104433) can0 181#D10300207F000009
(1763087355.105887) can0 000A0003#FE45FDEC0DFA0000
(1763087355.106175) can0 000A0004#00970019FE818E02
(1763087355.110022) can0 281#700700000B000000
(1763087355.112648) can0 482#6C07080008360001
(1763087355.115889) can0 000A0003#FE78FDEF0E6C0000
(1763087355.116175) can0 000A0004#00930024FE828E02
(1763087355.120560) can0 189#F003D30258011051
(1763087355.120676) can0 701#05
(1763087355.120863) can0 080#
(1763087355.121103) can0 382#5F04DEFF2A040000
(1763087355.122013) can0 286#0000580200000000
(1763087355.122988) can0 1A4#001F450B000000
(1763087355.123215) can0 2A3#1E24232121211C1A
(1763087355.125890) can0 000A0003#FEBBFDDE0F2B0000
(1763087355.126176) can0 000A0004#00A3003FFE858E02
(1763087355.130337) can0 188#0C00EF3100000000
(1763087355.131069) can0 288#9625054900290000
(1763087355.132081) can0 388#28292C2626000000
(1763087355.133043) can0 191#787879787877
(1763087355.134049) can0 192#787878787777
(1763087355.134484) can0 482#6807080008360001
(1763087355.135052) can0 193#787879797878
(1763087355.135882) can0 000A0003#FEF2FDE70F4B0000
(1763087355.136166) can0 000A0004#00B0004EFE888E02
(1763087355.136360) can0 194#787979797979
(1763087355.137036) can0 195#7878797A7978
(1763087355.138044) can0 291#181B1B1A1B1B
(1763087355.139056) can0 292#191B1C1A1C1B
(1763087355.139804) can0 1A2#001F300E000000
(1763087355.140029) can0 2A1#2B2C292526282321
(1763087355.140221) can0 293#191B1C1A1B1A
(1763087355.140457) can0 682#4950D00300002602
(1763087355.140689) can0 186#BD124C1D09050000
(1763087355.141041) can0 294#191C1B1B1C1C
(1763087355.142051) can0 295#191C1C1B1C1B
(1763087355.142630) can0 701#05
(1763087355.143015) can0 382#3E04BFFF2A040000
(1763087355.143351) can0 181#D10300207F000009
(1763087355.145883) can0 000A0003#FF53FE140EF60000
(1763087355.146167) can0 000A0004#00B7005BFE8E8E02
(1763087355.149789) can0 1A3#C01FD709000000
(1763087355.152478) can0 4C4#08A108B307CE0887
(1763087355.153487) can0 281#6D07000013000000
(1763087355.153725) can0 4C5#08B20880084907E0
(1763087355.154505) can0 4C6#081E084E086B0890
(1763087355.155526) can0 4C7#08E2089C0832083F
(1763087355.155886) can0 000A0003#FF95FE270E970000
(1763087355.156168) can0 000A0004#00AF0070FE958E02
(1763087355.156438) can0 482#74070F0008360001
(1763087355.156686) can0 4C8#0580000000000000
(1763087355.165896) can0 000A0003#FFA0FE2E0E370000
(1763087355.166176) can0 000A0004#00A20080FE958E02
(1763087355.166885) can0 701#05
(1763087355.167360) can0 382#18077F0043070000
(1763087355.175887) can0 000A0003#FF9BFE2C0E370000
(1763087355.176173) can0 000A0004#00A40085FE998E02
(1763087355.178167) can0 482#99070F0008360001
(1763087355.180502) can0 186#16154C1D09060000
(1763087355.181214) can0 682#4950C70300005002
(1763087355.183740) can0 181#D10300207F000009
(1763087355.185163) can0 1A0#000000000100
(1763087355.185385) can0 1A5#001EF00B000000
(1763087355.185895) can0 000A0003#FF82FE1F0E910000
(1763087355.186177) can0 000A0004#00AD008EFE9D8E02
(1763087355.186905) can0 000A0000#0000000000000000
(1763087355.187205) can0 000A0001#0000000000000000
(1763087355.187503) can0 000A0002#0000000000000000
(1763087355.189048) can0 382#630855002C080000
(1763087355.189167) can0 701#05
(1763087355.195897) can0 000A0003#FF62FDD80F140000
(1763087355.196177) can0 000A0004#00C9008CFE9D8E02
(1763087355.197259) can0 281#9407000015000000
(1763087355.199992) can0 482#9507100008360001
(1763087355.205897) can0 000A0003#FF35FD770FA60000
(1763087355.206179) can0 000A0004#00DA0084FE9B8E02
(1763087355.210575) can0 701#05
(1763087355.211138) can0 382#3A0862002C080000
(1763087355.215902) can0 000A0003#FF2EFD4F10190000
(1763087355.216186) can0 000A0004#00E2007BFE9A8E02
(1763087355.217450) can0 4C4#08A108B307CE0887
(1763087355.218470) can0 4C5#08B20880084907E0
(1763087355.219481) can0 4C6#081E084E086B0890
(1763087355.220500) can0 4C7#08E2089C0832083F
(1763087355.220732) can0 186#7B134C1D09070000
(1763087355.221012) can0 189#E803CD0256011051
(1763087355.221526) can0 4C8#0580000000000000
(1763087355.221876) can0 080#
(1763087355.222119) can0 181#D10300207F000009
(1763087355.222411) can0 482#8407100008360001
(1763087355.222739) can0 682#4950C2030000A202
(1763087355.222999) can0 286#0000580200000000
(1763087355.225891) can0 000A0003#FF45FD3310DE0000
(1763087355.226175) can0 000A0004#00E90075FE998E02
(1763087355.228453) can0 19A#000080776B7D7D7F
(1763087355.229459) can0 29A#8166817F83850000
(1763087355.229725) can0 1A4#4018AC0B000000
(1763087355.229953) can0 2A3#1E24222222201C1A
(1763087355.230319) can0 188#0C004C3100000000
(1763087355.231079) can0 288#9625056800290000
(1763087355.232088) can0 388#28292C2626000000
(1763087355.232514) can0 701#05
(1763087355.233030) can0 191#787879787877
(1763087355.233272) can0 382#7507CDFF8C070000
(1763087355.234040) can0 192#787878787777
(1763087355.235012) can0 193#787879797878
(1763087355.235889) can0 000A0003#FF62FD2110EC0000
(1763087355.236172) can0 000A0004#00DA006AFE9B8E02
(1763087355.236366) can0 194#787979797979
(1763087355.237045) can0 195#7878797A7978
(1763087355.238053) can0 291#181B1B1A1B1B
(1763087355.239033) can0 292#191B1C1A1C1B
(1763087355.240037) can0 293#191B1C1A1B1A
(1763087355.241031) can0 294#191C1B1B1C1C
(1763087355.241271) can0 482#82070F0008360001
(1763087355.241521) can0 281#8207000013000000
(1763087355.242041) can0 295#191C1C1B1C1B
(1763087355.245899) can0 000A0003#FF7DFD1510BC0000
(1763087355.246180) can0 000A0004#00D90065FE9C8E02
(1763087355.247187) can0 1A2#001C940D000000
(1763087355.247416) can0 2A1#2D2B29252628231F
(1763087355.250730) can0 1A3#001EA109000000
(1763087355.254259) can0 701#05
(1763087355.254726) can0 382#6007BCFF8C070000
(1763087355.255896) can0 000A0003#FFA1FD19105B0000
(1763087355.256182) can0 000A0004#00E20069FE9F8E02
(1763087355.260164) can0 181#D10300207F000009
(1763087355.260493) can0 186#67164C1D09080000
(1763087355.265621) can0 482#8507120008360001
(1763087355.265910) can0 000A0003#FFBCFD410FCA0000
(1763087355.266191) can0 000A0004#00D70070FEA68E02
(1763087355.266427) can0 682#4950C3030000C202
(1763087355.275910) can0 000A0003#FFC8FD540F7E0000
(1763087355.276193) can0 000A0004#00C80073FEAD8E02
(1763087355.276309) can0 701#05
(1763087355.276547) can0 382#9308DCFFAF080000
(1763087355.282448) can0 4C4#08A408B607C7088C
(1763087355.283463) can0 4C5#08B3087E084607E1
(1763087355.284464) can0 4C6#0821084D086D0890
(1763087355.284737) can0 281#9507000016000000
(1763087355.284981) can0 482#9507120008360001
(1763087355.285193) can0 1A0#000000000000
(1763087355.285485) can0 4C7#08E208A10830083F
(1763087355.285901) can0 000A0003#FFBFFD460F620000
(1763087355.286183) can0 000A0004#00B10072FEB28E02
(1763087355.286514) can0 4C8#0581000000000000
(1763087355.286914) can0 000A0000#0000000000000000
(1763087355.287214) can0 000A0001#0000000000000000
(1763087355.287512) can0 000A0002#0000000000000000
(1763087355.287732) can0 1A5#001C9D0B000000
(1763087355.295900) can0 000A0003#FFAEFD170F6A0000
(1763087355.296186) can0 000A0004#009A007DFEBB8E02
(1763087355.298029) can0 701#05
(1763087355.298393) can0 181#D10300207F000009
(1763087355.298828) can0 382#AF08F8FFAF080000
(1763087355.300490) can0 186#DB134C1D09090000
(1763087355.305903) can0 000A0003#FF96FCB50FD30000
(1763087355.306190) can0 000A0004#0090007FFEBE8E02
(1763087355.306576) can0 482#A307100008360001
(1763087355.306907) can0 682#4950C0030000FC02
(1763087355.315910) can0 000A0003#FF87FC6B0FF80000
(1763087355.316193) can0 000A0004#008D0074FEBF8E02
(1763087355.319772) can0 701#05
(1763087355.320247) can0 382#B907BDFFB2070000
(1763087355.320550) can0 189#B503AB0258010E51
(1763087355.320879) can0 080#
(1763087355.322031) can0 286#0000580200000000
(1763087355.325902) can0 000A0003#FF89FC550FFB0000
(1763087355.326186) can0 000A0004#008F006EFEBE8E02
(1763087355.328426) can0 281#8B07000014000000
(1763087355.328670) can0 482#8B07100008360001
(1763087355.330332) can0 188#0C00873100000000
(1763087355.331084) can0 288#9F25576900290000
(1763087355.332095) can0 388#28292C2626000000
(1763087355.333058) can0 191#787879797977
(1763087355.334032) can0 192#787879787878
(1763087355.335036) can0 193#787979797979
(1763087355.335902) can0 000A0003#FFA3FC6110070000
(1763087355.336183) can0 000A0004#0091006EFEBD8E02
(1763087355.336375) can0 194#7879797A7979
(1763087355.336599) can0 1A4#40184A0B000000
(1763087355.336842) can0 181#D10300207F000009
(1763087355.337068) can0 2A3#1E24222222201B19
(1763087355.337260) can0 195#7879797A7979
(1763087355.338026) can0 291#181B1B1A1B1B
(1763087355.339038) can0 292#191B1C1A1C1B
(1763087355.339318) can0 701#05
(1763087355.340044) can0 293#191B1C1A1B1A
(1763087355.340487) can0 186#780E4C1D090A0000
(1763087355.341057) can0 294#191C1B1B1C1B
(1763087355.342065) can0 295#191C1C1B1C1B
(1763087355.342304) can0 382#9B071500B2070000
(1763087355.345911) can0 000A0003#FFE9FCC210210000
(1763087355.346195) can0 000A0004#007D006FFEBB8E02
(1763087355.347444) can0 4C4#08A408B607C7088C
(1763087355.347680) can0 682#4950C30300000103
(1763087355.348461) can0 4C5#08B30880084607E1
(1763087355.349466) can0 4C6#0821084D086B088E
(1763087355.350366) can0 482#8F070B0008360001
(1763087355.350603) can0 4C7#08E2089F082D083F
(1763087355.351518) can0 4C8#0581000000000000
(1763087355.351738) can0 1A3#001E0509000000
(1763087355.354587) can0 1A2#001E420F000000
(1763087355.354815) can0 2A1#2D2B27272826231F
(1763087355.355916) can0 000A0003#0016FCFF0FEE0000
(1763087355.356198) can0 000A0004#00700075FEB88E02
(1763087355.360733) can0 701#05
(1763087355.361197) can0 382#86051C009C050000
(1763087355.365912) can0 000A0003#001FFD3B0F410000
(1763087355.366201) can0 000A0004#005F007FFEBA8E02
(1763087355.371998) can0 281#880700000E000000
(1763087355.372308) can0 482#88070B0008360001
(1763087355.375913) can0 000A0003#0022FD5F0EA40000
(1763087355.376196) can0 000A0004#00540095FEB78E02
(1763087355.377578) can0 181#D10300207F000009
(1763087355.380487) can0 186#30104C1D090B0000
(1763087355.382717) can0 701#05
(1763087355.383126) can0 382#400519009C050000
(1763087355.385170) can0 1A0#000000000100
(1763087355.385910) can0 000A0003#001DFD580E1D0000
(1763087355.386193) can0 000A0004#0053009FFEB68E02
(1763087355.386925) can0 000A0000#0000000000000000
(1763087355.387225) can0 000A0001#0000000000000000
(1763087355.387522) can0 000A0002#0000000000000000
(1763087355.388574) can0 682#4950C9030000BF02
(1763087355.389355) can0 1A5#001FF80C000000
(1763087355.393822) can0 482#8D070D0008360001
(1763087355.395921) can0 000A0003#0019FD530E030000
(1763087355.396205) can0 000A0004#005200A1FEB08E02
(1763087355.404503) can0 701#05
(1763087355.405068) can0 382#BC0654FF46060000
(1763087355.405910) can0 000A0003#FFCBFD290E390000
(1763087355.406192) can0 000A0004#004200A4FEA38E02
(1763087355.412438) can0 4C4#08A408B407CA088C
(1763087355.413447) can0 4C5#08B5087E084407E1
(1763087355.414459) can0 4C6#0821084D086B0890
(1763087355.415478) can0 4C7#08E40899082D083F
(1763087355.415783) can0 281#B307000010000000
(1763087355.416070) can0 000A0003#FF8AFCDF0EAC0000
(1763087355.416352) can0 000A0004#002D008AFE8E8E02
(1763087355.416590) can0 482#B3070D0008360001
(1763087355.416836) can0 4C8#0581000000000000
(1763087355.417079) can0 181#D10300207F000009
(1763087355.420516) can0 186#79114C1D090C0000
(1763087355.421026) can0 189#C703B00257010E51
(1763087355.421860) can0 080#
(1763087355.423012) can0 286#0000580200000000
(1763087355.423736) can0 701#05
(1763087355.424101) can0 382#63061F0046060000
(1763087355.425916) can0 000A0003#FF60FC560F970000
(1763087355.426201) can0 000A0004#0022006DFE7A8E02
(1763087355.429529) can0 682#4950C7030000B002
(1763087355.430303) can0 188#0C00E63100000000
(1763087355.431075) can0 288#9F25576300290000
(1763087355.432086) can0 388#28292C2626000000
(1763087355.433033) can0 191#787879797977
(1763087355.434039) can0 192#787879787878
(1763087355.434481) can0 19A#00007E6D707E817F
(1763087355.435043) can0 193#787979797979
(1763087355.435454) can0 29A#7F74848085830000
(1763087355.435922) can0 000A0003#FF44FBFE102D0000
(1763087355.436203) can0 000A0004#00230058FE6E8E02
(1763087355.436395) can0 194#7879797A7979
(1763087355.437030) can0 195#7879797A7979
(1763087355.437946) can0 482#AA070E0008360001
(1763087355.438138) can0 291#181B1B1A1B1B
(1763087355.439047) can0 292#191B1C1A1C1B
(1763087355.440052) can0 293#191B1C1A1B1A
(1763087355.441063) can0 294#191C1B1B1C1B
(1763087355.442041) can0 295#191C1C1B1C1B
(1763087355.443227) can0 1A4#001C510A000000
(1763087355.443456) can0 2A3#1E23232321201B19
(1763087355.445688) can0 701#05
(1763087355.445971) can0 000A0003#FF4DFB7711330000
(1763087355.446257) can0 000A0004#00340037FE5D8E02
(1763087355.448435) can0 382#E106ADFFC6060000
(1763087355.452620) can0 1A3#001E5707000000
(1763087355.455919) can0 000A0003#FF41FAF911F90000
(1763087355.456206) can0 000A0004#0046001DFE4F8E02
(1763087355.456721) can0 181#D10300207F000009
(1763087355.460476) can0 186#C1114C1D090D0000
(1763087355.461963) can0 1A2#C01F690F000000
(1763087355.462209) can0 281#A807000011000000
(1763087355.462437) can0 2A1#2B2B272728262120
(1763087355.462676) can0 482#A8070E0008360001
(1763087355.465915) can0 000A0003#FF1DFAAC12340000
(1763087355.466198) can0 000A0004#00480012FE4A8E02
(1763087355.467199) can0 701#05
(1763087355.470486) can0 682#4950C6030000B402
(1763087355.470743) can0 382#D2067700E2060000
(1763087355.475921) can0 000A0003#FEE9FA3C12890000
(1763087355.476206) can0 000A0004#0037FFFFFE4B8E02
(1763087355.477422) can0 4C4#089F08B407C5088A
(1763087355.478438) can0 4C5#08B5087C084607DF
(1763087355.479446) can0 4C6#0821084D0869088E
(1763087355.480465) can0 4C7#08E2089D08300842
(1763087355.481497) can0 4C8#0581000000000000
(1763087355.483921) can0 482#AD070E0008360001
(1763087355.485168) can0 1A0#000000000100
(1763087355.485919) can0 000A0003#FEF2FA56129A0000
(1763087355.486206) can0 000A0004#0011FFEDFE4B8E02
(1763087355.486931) can0 000A0000#0000000000000000
(1763087355.487231) can0 000A0001#0000000000000000
(1763087355.487529) can0 000A0002#0000000000000000
(1763087355.489051) can0 701#05
(1763087355.491392) can0 1A5#C018260C000000
(1763087355.492222) can0 382#1F07D6FFE2060000
(1763087355.494856) can0 181#D10300207F000009
(1763087355.495919) can0 000A0003#FF16FA7B12850000
(1763087355.496207) can0 000A0004#FFECFFDDFE4F8E02
(1763087355.500471) can0 186#4F114C1D090E0000
(1763087355.503253) can0 482#B2070E0008360001
(1763087355.505780) can0 281#B107000011000000
(1763087355.506062) can0 000A0003#FF50FAA312460000
(1763087355.506347) can0 000A0004#FFD5FFD2FE4F8E02
(1763087355.510972) can0 701#05
(1763087355.511462) can0 682#4950C6030000B902
(1763087355.511788) can0 382#90063400B5060000
(1763087355.515918) can0 000A0003#FFA3FADB11EB0000
(1763087355.516206) can0 000A0004#FFD6FFCFFE508E02
(1763087355.520520) can0 189#BD03AB0258010E51
(1763087355.520864) can0 080#
(1763087355.522014) can0 286#0000580200000000
(1763087355.524864) can0 482#B2070E0008360001
(1763087355.525920) can0 000A0003#FF95FAE411910000
(1763087355.526206) can0 000A0004#FFE1FFC5FE508E02
(1763087355.530328) can0 188#0C00CB3100000000
(1763087355.531100) can0 288#F325076400290000
(1763087355.532078) can0 388#28292C2626000000
(1763087355.533024) can0 191#7B7B7C7B7C7A
(1763087355.533139) can0 701#05
(1763087355.533519) can0 382#EF0636FFB5060000
(1763087355.534027) can0 192#7B7B7B7B7B7B
(1763087355.535057) can0 193#7B7B7C7C7B7B
(1763087355.535916) can0 000A0003#FF8FFB0811310000
(1763087355.536200) can0 000A0004#FFE4FFC5FE4E8E02
(1763087355.536442) can0 181#D10300207F000009
(1763087355.536647) can0 194#7B7C7C7C7C7C
(1763087355.537040) can0 195#7B7B7C7C7C7C
(1763087355.538044) can0 291#181B1C1A1B1B
(1763087355.539052) can0 292#191B1C1A1C1B
(1763087355.540058) can0 293#191B1C1A1B1A
(1763087355.540470) can0 186#16104C1D090F0000
(1763087355.541038) can0 294#191C1B1B1C1B
(1763087355.542046) can0 295#191C1C1B1C1B
(1763087355.542414) can0 4C4#089F08B407C5088A
(1763087355.543430) can0 4C5#08B5087C084607DF
(1763087355.544435) can0 4C6#0821084D0869088E
(1763087355.545455) can0 4C7#08E2089D08300842
(1763087355.545923) can0 000A0003#FF95FB4310E80000
(1763087355.546211) can0 000A0004#FFDFFFC3FE4A8E02
(1763087355.546485) can0 4C8#0581000000000000
(1763087355.546932) can0 482#A6070D0008360001
(1763087355.549319) can0 281#A707000010000000
(1763087355.549982) can0 1A4#C01F510A000000
(1763087355.550210) can0 2A3#1E232323211F1A18
(1763087355.552388) can0 682#4950C6030000B702
(1763087355.553554) can0 1A3#001C6607000000
(1763087355.555926) can0 000A0003#FF9DFB99107D0000
(1763087355.556211) can0 000A0004#FFD2FFC8FE438E02
(1763087355.557294) can0 701#05
(1763087355.557761) can0 382#740645FF3C060000
(1763087355.565927) can0 000A0003#FFCBFC070FB30000
(1763087355.566209) can0 000A0004#FFCBFFCDFE3C8E02
(1763087355.568676) can0 482#A0070D0008360001
(1763087355.569349) can0 1A2#001C690F000000
(1763087355.569572) can0 2A1#2B29292927262120
(1763087355.574146) can0 181#D10300207F000009
(1763087355.575927) can0 000A0003#FFE8FC4D0F310000
(1763087355.576212) can0 000A0004#FFC7FFD0FE358E02
(1763087355.579143) can0 701#05
(1763087355.579582) can0 382#C4055A003C060000
(1763087355.580463) can0 186#AD0F4C1D09000000
(1763087355.585169) can0 1A0#000000000100
(1763087355.585931) can0 000A0003#002FFC930E9D0000
(1763087355.586219) can0 000A0004#FFCEFFD7FE298E02
(1763087355.586943) can0 000A0000#0000000000000000
(1763087355.587245) can0 000A0001#0000000000000000
(1763087355.587542) can0 000A0002#0000000000000000
(1763087355.590509) can0 281#AE07000010000000
(1763087355.590755) can0 482#AE070C0008360001
(1763087355.593346) can0 682#4950C8030000A202
(1763087355.593564) can0 1A5#001FEB0B000000
(1763087355.595933) can0 000A0003#0082FCD50E0F0000
(1763087355.596218) can0 000A0004#FFDCFFDAFE1F8E02
(1763087355.598249) can0 701#05
(1763087355.598718) can0 382#1E06D8FF13060000
(1763087355.605932) can0 000A0003#005FFCF80DD90000
(1763087355.606219) can0 000A0004#FFDFFFDBFE188E02
(1763087355.607394) can0 4C4#08A108B807C40889
(1763087355.608413) can0 4C5#08B4087C084507E0
(1763087355.609419) can0 4C6#081E084B0867088E
(1763087355.610443) can0 4C7#08E20896082B083C
(1763087355.611469) can0 4C8#0580000000000000
(1763087355.612352) can0 181#D10300207F000009
(1763087355.612698) can0 482#BC070C0008360001
(1763087355.615933) can0 000A0003#0049FD0D0DB60000
(1763087355.616224) can0 000A0004#FFD3FFDCFE0F8E02
(1763087355.620341) can0 701#05
(1763087355.620563) can0 186#220B4C1D09010000
(1763087355.620801) can0 382#2B06C6FF13060000
(1763087355.621030) can0 189#B203A50256010E51
(1763087355.621880) can0 080#
(1763087355.623029) can0 286#0000580200000000
(1763087355.623479) can0 19A#00007F77757F817E
(1763087355.624484) can0 29A#806D818083830000
(1763087355.625930) can0 000A0003#0030FD290D630000
(1763087355.626218) can0 000A0004#FFBEFFD3FE088E02
(1763087355.630344) can0 188#0C00183200000000
(1763087355.631074) can0 288#C925EE4C00290000
(1763087355.632085) can0 388#28292C2626000000
(1763087355.633044) can0 191#79797A7A7A78
(1763087355.634056) can0 192#797A7A7A7979
(1763087355.635058) can0 193#797A7A7A7A7A
(1763087355.635931) can0 000A0003#001BFD420D130000
(1763087355.636218) can0 000A0004#FFA5FFCBFDFF8E02
(1763087355.636410) can0 194#7A7A7B7B7A7A
(1763087355.636821) can0 682#4950CA0300008302
(1763087355.637043) can0 195#7A7A7B7B7B7A
(1763087355.637285) can0 281#AC0700000B000000
(1763087355.637579) can0 482#AC07090008360001
(1763087355.638051) can0 291#181B1B1A1B1B
(1763087355.639063) can0 292#191B1C1A1C1A
(1763087355.640037) can0 293#191B1C1A1B1A
(1763087355.641047) can0 294#191C1C1B1C1B
(1763087355.642057) can0 295#191C1C1B1C1B
(1763087355.642174) can0 701#05
(1763087355.642614) can0 382#9F04D1FF51040000
(1763087355.645934) can0 000A0003#0032FD140D420000
(1763087355.646217) can0 000A0004#FFA2FFC8FDFB8E02
(1763087355.650470) can0 181#D10300207F000009
(1763087355.654516) can0 1A3#C0196607000000
(1763087355.655942) can0 000A0003#0040FCF70D600000
(1763087355.656225) can0 000A0004#FFAAFFC4FDF68E02
(1763087355.656739) can0 1A4#001F5B0A000000
(1763087355.656967) can0 2A3#1E232423211F1A18
(1763087355.658856) can0 482#9507090008360001
(1763087355.660465) can0 186#010A4C1D09020000
(1763087355.663771) can0 701#05
(1763087355.664236) can0 382#FF032600E1030000
(1763087355.665937) can0 000A0003#0047FCD20CFC0000
(1763087355.666223) can0 000A0004#FFBCFFC1FDEE8E02
(1763087355.672385) can0 4C4#08A108B807C40889
(1763087355.673404) can0 4C5#08B4087C084507E0
(1763087355.674410) can0 4C6#081E084B0867088E
(1763087355.675433) can0 4C7#08E20896082B083C
(1763087355.675938) can0 000A0003#0046FCB00C9C0000
(1763087355.676224) can0 000A0004#FFC1FFBAFDE98E02
(1763087355.676472) can0 4C8#0580000000000000
(1763087355.676744) can0 1A2#801F690F000000
(1763087355.676968) can0 2A1#2B29292927242321
(1763087355.677854) can0 682#4950D00300003802
(1763087355.680371) can0 281#AF0700000A000000
(1763087355.680617) can0 482#AF07080008360001
(1763087355.685081) can0 1A0#000000000100
(1763087355.685698) can0 701#05
(1763087355.685986) can0 000A0003#0030FC800CB80000
(1763087355.686269) can0 000A0004#FFBDFFBBFDE58E02
(1763087355.686507) can0 382#D4035D01E1030000
(1763087355.686953) can0 000A0000#0000000000000000
(1763087355.687253) can0 000A0001#0000000000000000
(1763087355.687551) can0 000A0002#0000000000000000
(1763087355.691431) can0 181#D10300207F000009
(1763087355.695399) can0 1A5#001FEB0B000000
(1763087355.695946) can0 000A0003#000FFC3B0CE00000
(1763087355.696229) can0 000A0004#FFB2FFBEFDE38E02
(1763087355.699965) can0 482#B007080008360001
(1763087355.700461) can0 186#360C4C1D09030000
(1763087355.705950) can0 000A0003#FFCBFBE00D080000
(1763087355.706234) can0 000A0004#FFAEFFC2FDDE8E02
(1763087355.708011) can0 382#5C057CFDBB040000
(1763087355.708131) can0 701#05
(1763087355.715949) can0 000A0003#FF79FB890D2F0000
(1763087355.716228) can0 000A0004#FFA5FFC7FDDC8E02
(1763087355.718698) can0 682#4950CE0300001202
(1763087355.720511) can0 189#A803A20256010D51
(1763087355.720883) can0 080#
(1763087355.722032) can0 286#0000580200000000
(1763087355.724286) can0 281#C50700000C000000
(1763087355.724526) can0 482#C5070A0008360001
(1763087355.725940) can0 000A0003#FF88FB500D5A0000
(1763087355.726223) can0 000A0004#FFA5FFCEFDDA8E02
(1763087355.729294) can0 701#05
(1763087355.729762) can0 382#CF0403FFBB040000
(1763087355.730099) can0 181#D10300207F000009
(1763087355.730343) can0 188#0C007A3100000000
(1763087355.731081) can0 288#C925EE5100290000
(1763087355.732094) can0 388#28292C2626000000
(1763087355.733035) can0 191#79797A7A7A78
(1763087355.734045) can0 192#797A7A7A7979
(1763087355.735017) can0 193#797A7A7A7A7A
(1763087355.735946) can0 000A0003#FF9DFAFF0D980000
(1763087355.736231) can0 000A0004#FFA2FFD5FDD98E02
(1763087355.736423) can0 194#7A7A7B7B7A7A
(1763087355.737049) can0 195#7A7A7B7B7B7A
(1763087355.737387) can0 4C4#08A408BD07CF088A
(1763087355.738059) can0 291#181B1B1A1B1B
(1763087355.738399) can0 4C5#08B3087B084607DF
(1763087355.739042) can0 292#191B1C1A1C1A
(1763087355.739410) can0 4C6#082108490869088E
(1763087355.740041) can0 293#191B1C1A1B1A
(1763087355.740429) can0 4C7#08E0089D082D083F
(1763087355.740665) can0 186#BA0B4C1D09040000
(1763087355.741035) can0 294#191C1C1B1C1B
(1763087355.741457) can0 4C8#0581000000000000
(1763087355.742043) can0 295#191C1C1B1C1B
(1763087355.745942) can0 000A0003#FFA7FAAA0DB10000
(1763087355.746226) can0 000A0004#FF97FFDAFDD68E02
(1763087355.746463) can0 482#AF07090008360001
(1763087355.751217) can0 701#05
(1763087355.751584) can0 382#6604F1FF8B040000
(1763087355.755448) can0 1A3#001C6607000000
(1763087355.755948) can0 000A0003#FFABFA550DC90000
(1763087355.756234) can0 000A0004#FF96FFDFFDD78E02
(1763087355.759665) can0 682#4950CE0300000402
(1763087355.763484) can0 1A4#001C5B0A000000
(1763087355.763711) can0 2A3#1E23242321201C19
(1763087355.765945) can0 000A0003#FF98FA2A0E1A0000
(1763087355.766227) can0 000A0004#FF94FFDCFDD48E02
(1763087355.770474) can0 281#A10700000C000000
(1763087355.770791) can0 482#A107090008360001
(1763087355.771160) can0 181#D10300207F000009
(1763087355.773065) can0 701#05
(1763087355.773560) can0 382#460489FF8B040000
(1763087355.775947) can0 000A0003#FF7CF9ED0E8F0000
(1763087355.776233) can0 000A0004#FF95FFE4FDCF8E02
(1763087355.780456) can0 186#370F4C1D09050000
(1763087355.784132) can0 1A2#C019950F000000
(1763087355.784355) can0 2A1#2A2A2B2827242321
(1763087355.785081) can0 1A0#000000000100
(1763087355.785952) can0 000A0003#FF6BF9A40F0E0000
(1763087355.786234) can0 000A0004#FF94FFE8FDCE8E02
(1763087355.786969) can0 000A0000#0000000000000000
(1763087355.787275) can0 000A0001#0000000000000000
(1763087355.787567) can0 000A0002#0000000000000000
(1763087355.792560) can0 482#B4070C0008360001
(1763087355.795051) can0 701#05
(1763087355.795589) can0 382#C2053100E5050000
(1763087355.795952) can0 000A0003#FF65F9710F5F0000
(1763087355.796236) can0 000A0004#FF95FFEEFDCD8E02
(1763087355.797406) can0 1A5#C01F300C000000
(1763087355.800612) can0 682#4950CC0300000402
(1763087355.802387) can0 4C4#08A608BA07CF0887
(1763087355.803402) can0 4C5#08B3087C084407DD
(1763087355.804413) can0 4C6#081F084B08670890
(1763087355.805426) can0 4C7#08E2089B082B0842
(1763087355.805952) can0 000A0003#FF3DF94F0FC10000
(1763087355.806236) can0 000A0004#FF91FFF3FDC68E02
(1763087355.806482) can0 4C8#0581000000000000
(1763087355.811674) can0 181#D10300207F000009
(1763087355.814511) can0 281#CC0700000F000000
(1763087355.814819) can0 482#CC070C0008360001
(1763087355.815955) can0 000A0003#FF08F94110150000
(1763087355.816236) can0 000A0004#FF8AFFF8FDCA8E02
(1763087355.816664) can0 701#05
(1763087355.817105) can0 382#2C0679FFE5050000
(1763087355.820486) can0 186#560A4C1D09060000
(1763087355.821035) can0 189#9503920254010C51
(1763087355.821849) can0 080#
(1763087355.823052) can0 286#0000580200000000
(1763087355.825987) can0 000A0003#FEAEF90011700000
(1763087355.826246) can0 000A0004#FF8B0000FDC68E02
(1763087355.829473) can0 19A#00008168747C7F80
(1763087355.830333) can0 188#0C004E3200000000
(1763087355.830570) can0 29A#8277828284830000
(1763087355.831092) can0 288#00265A4F00290000
(1763087355.832098) can0 388#28292C2626000000
(1763087355.833064) can0 191#7B7C7C7C7C7B
(1763087355.834042) can0 192#7B7C7C7C7B7B
(1763087355.835052) can0 193#7B7C7C7C7C7C
(1763087355.835946) can0 000A0003#FE66F8C6124E0000
(1763087355.836230) can0 000A0004#FF93FFFCFDC68E02
(1763087355.836433) can0 194#7B7C7C7D7C7C
(1763087355.836674) can0 482#A507080008360001
(1763087355.836794) can0 701#05
(1763087355.837064) can0 195#7B7C7C7D7C7C
(1763087355.837309) can0 382#2404F8FF01040000
(1763087355.838036) can0 291#181B1C1A1B1B
(1763087355.839043) can0 292#191B1C1A1C1B
(1763087355.840048) can0 293#191B1C1A1B1A
(1763087355.841059) can0 294#191C1C1B1C1B
(1763087355.841579) can0 682#4950CC0300001202
(1763087355.842068) can0 295#191C1C1B1C1B
(1763087355.845949) can0 000A0003#FDCCF89713BC0000
(1763087355.846236) can0 000A0004#FF94FFFFFDC18E02
(1763087355.849865) can0 181#D10300207F000009
(1763087355.855635) can0 482#9107080008360001
(1763087355.855966) can0 000A0003#FD20F87D15300000
(1763087355.856252) can0 000A0004#FF9AFFFCFDC18E02
(1763087355.856473) can0 1A3#801F5707000000
(1763087355.860450) can0 186#BE0C4C1D09070000
(1763087355.860698) can0 281#9F0700000A000000
(1763087355.860873) can0 701#05
(1763087355.861141) can0 382#F303080001040000
(1763087355.865966) can0 000A0003#FCD4F87415F10000
(1763087355.866246) can0 000A0004#FF9DFFF1FDBE8E02
(1763087355.867380) can0 4C4#08A608BA07CF0887
(1763087355.868395) can0 4C5#08B3087C084407DD
(1763087355.869409) can0 4C6#081F084B08670890
(1763087355.870233) can0 1A4#C018600A000000
(1763087355.870466) can0 2A3#1E24232321201C19
(1763087355.870695) can0 4C7#08E2089B082B0842
(1763087355.871454) can0 4C8#0581000000000000
(1763087355.875958) can0 000A0003#FCC1F873166E0000
(1763087355.876240) can0 000A0004#FF9FFFE5FDBB8E02
(1763087355.877053) can0 482#C4070A0008360001
(1763087355.882514) can0 682#4950CE030000FB01
(1763087355.882632) can0 701#05
(1763087355.882872) can0 382#C8046500F0040000
(1763087355.885174) can0 1A0#000000000100
(1763087355.885957) can0 000A0003#FCCEF87D16C50000
(1763087355.886241) can0 000A0004#FFA9FFE0FDB98E02
(1763087355.886970) can0 000A0000#0000000000000000
(1763087355.887280) can0 000A0001#0000000000000000
(1763087355.887568) can0 000A0002#0000000000000000
(1763087355.887992) can0 181#D10300207F000009
(1763087355.891537) can0 1A2#C01FAA0E000000
(1763087355.891761) can0 2A1#2A2A2B2825252522
(1763087355.895954) can0 000A0003#FCEEF88D16EA0000
(1763087355.896235) can0 000A0004#FFB1FFD5FDBA8E02
(1763087355.899034) can0 482#CF070A0008360001
(1763087355.899409) can0 1A5#001E120C000000
(1763087355.900440) can0 186#8C104C1D09080000
(1763087355.901517) can0 701#05
(1763087355.901958) can0 382#EB046000F0040000
(1763087355.904365) can0 281#C707000010000000
(1763087355.905967) can0 000A0003#FD0CF8A016F10000
(1763087355.906252) can0 000A0004#FFB1FFD1FDBD8E02
(1763087355.915961) can0 000A0003#FD44F8CA16E30000
(1763087355.916243) can0 000A0004#FFA8FFCEFDBF8E02
(1763087355.920488) can0 189#9B039B0257010D51
(1763087355.920861) can0 482#B7070D0008360001
(1763087355.920961) can0 080#
(1763087355.922017) can0 286#0000580200000000
(1763087355.923592) can0 682#4950C90300001802
(1763087355.923779) can0 701#05
(1763087355.924017) can0 382#8E0684FF6A060000
(1763087355.925956) can0 000A0003#FD4CF8DA16E70000
(1763087355.926242) can0 000A0004#FF9BFFD2FDC88E02
(1763087355.929040) can0 181#D10300207F000009
(1763087355.932368) can0 4C4#08A108B407CA088A
(1763087355.933378) can0 4C5#08B10879084607DF
(1763087355.934388) can0 4C6#081B08490867088B
(1763087355.935409) can0 4C7#08DD089D082D0838
(1763087355.935958) can0 000A0003#FD3CF8DD16F30000
(1763087355.936244) can0 000A0004#FF92FFD5FDCF8E02
(1763087355.936491) can0 4C8#0581000000000000
(1763087355.939302) can0 188#0C00433100000000
(1763087355.940086) can0 288#0026604700290000
(1763087355.940434) can0 186#BC0D4C1D09090000
(1763087355.941092) can0 388#28292C2626000000
(1763087355.942047) can0 191#7B7C7C7C7C7B
(1763087355.942717) can0 482#C1070D0008360001
(1763087355.942890) can0 701#05
(1763087355.943088) can0 192#7B7C7C7C7B7B
(1763087355.944067) can0 193#7B7C7C7C7C7C
(1763087355.945072) can0 194#7B7C7C7D7C7C
(1763087355.945962) can0 000A0003#FD2EF8D716E20000
(1763087355.946246) can0 000A0004#FF91FFD9FDD58E02
(1763087355.946446) can0 195#7B7C7C7D7C7C
(1763087355.947051) can0 291#181B1C1A1B1B
(1763087355.948059) can0 292#191B1C1A1C1B
(1763087355.948295) can0 382#8605080053050000
(1763087355.948591) can0 281#C50700000E000000
(1763087355.949059) can0 293#191B1C1A1B1A
(1763087355.950043) can0 294#191C1C1B1C1B
(1763087355.951051) can0 295#191C1C1B1C1B
(1763087355.955960) can0 000A0003#FD13F8C516A60000
(1763087355.956245) can0 000A0004#FF97FFDEFDDF8E02
(1763087355.957344) can0 1A3#C0191608000000
(1763087355.964403) can0 482#B1070B0008360001
(1763087355.965969) can0 000A0003#FCFDF8A4168D0000
(1763087355.966253) can0 000A0004#FFAEFFE3FDE88E02
(1763087355.967134) can0 181#D10300207F000009
(1763087355.967255) can0 701#05
(1763087355.967592) can0 682#4950C90300003602
(1763087355.970119) can0 382#3B05170053050000
(1763087355.975968) can0 000A0003#FCE9F87D16860000
(1763087355.976251) can0 000A0004#FFC4FFF3FDEC8E02
(1763087355.976983) can0 1A4#C01FDA0A000000
(1763087355.977209) can0 2A3#1E24232221211D19
(1763087355.980434) can0 186#77094C1D090A0000
(1763087355.983548) can0 482#A907080008360001
(1763087355.985175) can0 1A0#000000000000
(1763087355.985965) can0 000A0003#FCEDF885168E0000
(1763087355.986253) can0 000A0004#FFD0FFFBFDF18E02
(1763087355.986979) can0 000A0000#0000000000000000
(1763087355.987292) can0 000A0001#0000000000000000
(1763087355.987577) can0 000A0002#0000000000000000
(1763087355.988660) can0 701#05
(1763087355.994465) can0 382#2503F601AB030000
(1763087355.994705) can0 281#A807000009000000
(1763087355.995968) can0 000A0003#FD0BF8C216AB0000
(1763087355.996255) can0 000A0004#FFD40003FDF68E02
(1763087355.997355) can0 4C4#08A108B407CA088A
(1763087355.998367) can0 4C5#08B10879084607DF
(1763087355.998927) can0 1A2#001EAA0E000000
(1763087355.999154) can0 2A1#2C2C2A2825252522
(1763087355.999382) can0 4C6#081B08490867088B
(1763087356.000396) can0 4C7#08DD089D082D0838
(1763087356.001426) can0 4C8#0581000000000000
(1763087356.001646) can0 1A5#001C9D0B000000
(1763087356.005362) can0 482#A707070008360001
(1763087356.005726) can0 181#D10300207F000009
(1763087356.006013) can0 000A0003#FD25F90016BE0000
(1763087356.006300) can0 000A0004#FFD20008FDF78E02
(1763087356.008214) can0 682#4950CF0300000602
(1763087356.010578) can0 701#05
(1763087356.015970) can0 000A0003#FD31F92916C70000
(1763087356.016254) can0 000A0004#FFD40017FDFB8E02
(1763087356.016490) can0 382#BB03A700AB030000
(1763087356.018470) can0 19A#000080776D7F807D
(1763087356.019480) can0 29A#806D827F83850000
(1763087356.020463) can0 186#8D0B4C1D090B0000
(1763087356.021017) can0 189#9303940254010C51
(1763087356.021882) can0 080#
(1763087356.023033) can0 286#0000580200000000
(1763087356.025970) can0 000A0003#FD45F95D16CB0000
(1763087356.026254) can0 000A0004#FFDD0021FE008E02
(1763087356.027351) can0 482#B807090008360001
(1763087356.030348) can0 188#0C00803200000000
(1763087356.031102) can0 288#EE25E55400290000
(1763087356.032086) can0 388#28292C2626000000
(1763087356.032330) can0 701#05
(1763087356.033046) can0 191#7B7B7C7B7B7A
(1763087356.034053) can0 192#7B7B7B7B7B7A
(1763087356.035062) can0 193#7B7B7B7C7B7B
(1763087356.035973) can0 000A0003#FD60F98216B90000
(1763087356.036261) can0 000A0004#FFE00025FE028E02
(1763087356.036461) can0 194#7B7C7C7C7C7B
(1763087356.037049) can0 195#7B7B7C7C7C7C
(1763087356.038049) can0 291#181B1B1A1B1B
(1763087356.038297) can0 281#C40700000C000000
(1763087356.038690) can0 382#F70435FE7A040000
(1763087356.039064) can0 292#191B1C1A1C1A
(1763087356.040065) can0 293#191B1C1A1B1A
(1763087356.041047) can0 294#191C1C1B1C1B
(1763087356.042056) can0 295#191C1C1B1C1B
(1763087356.043708) can0 181#D10300207F000009
(1763087356.045975) can0 000A0003#FD69F9AC16C40000
(1763087356.046260) can0 000A0004#FFDD0028FE048E02
(1763087356.049064) can0 482#CC07090008360001
(1763087356.049407) can0 682#4950CE030000F601
(1763087356.054187) can0 701#05
(1763087356.055972) can0 000A0003#FD59F9C816D50000
(1763087356.056259) can0 000A0004#FFD20021FE058E02
(1763087356.058288) can0 1A3#C0191608000000
(1763087356.059983) can0 382#6E044EFF7A040000
(1763087356.060426) can0 186#650D4C1D090C0000
(1763087356.062348) can0 4C4#08A208B407CA0888
(1763087356.063360) can0 4C5#08AE087B084307DF
(1763087356.064377) can0 4C6#081E084A0866088B
(1763087356.065389) can0 4C7#08DD0896082E083B
(1763087356.065977) can0 000A0003#FD3DF9E116D70000
(1763087356.066263) can0 000A0004#FFCE0018FE078E02
(1763087356.066509) can0 4C8#0582000000000000
(1763087356.070799) can0 482#B2070A0008360001
(1763087356.075969) can0 000A0003#FD18F9D516B10000
(1763087356.076255) can0 000A0004#FFD60009FE0B8E02
(1763087356.076372) can0 701#05
(1763087356.081803) can0 181#D10300207F000009
(1763087356.082045) can0 281#AA0700000D000000
(1763087356.082377) can0 382#32053DFF31050000
(1763087356.083725) can0 1A4#001E4A0B000000
(1763087356.083950) can0 2A3#1F24232221211D1C
(1763087356.085084) can0 1A0#000000000000
(1763087356.085979) can0 000A0003#FD01F9EA16660000
(1763087356.086266) can0 000A0004#FFE7FFFDFE108E02
(1763087356.086992) can0 000A0000#0000000000000000
(1763087356.087294) can0 000A0001#0000000000000000
(1763087356.087591) can0 000A0002#0000000000000000
(1763087356.092947) can0 482#B2070A0008360001
(1763087356.093203) can0 682#4950CD030000F501
(1763087356.095980) can0 000A0003#FD03FA0116290000
(1763087356.096266) can0 000A0004#FFF6FFF6FE138E02
(1763087356.097856) can0 701#05
(1763087356.100422) can0 186#880D4C1D090D0000
(1763087356.103445) can0 1A5#401C260C000000
(1763087356.103687) can0 382#ED0402003E050000
(1763087356.105980) can0 000A0003#FCFEFA4315B20000
(1763087356.106265) can0 000A0004#0000FFF2FE198E02
(1763087356.106496) can0 1A2#C01F300E000000
(1763087356.106719) can0 2A1#2C2C2A2726272322
(1763087356.114594) can0 482#CC070B0008360001
(1763087356.115979) can0 000A0003#FCEAFABF15030000
(1763087356.116265) can0 000A0004#0002FFF0FE1E8E02
(1763087356.117395) can0 701#05
(1763087356.120469) can0 189#9003930255010C51
(1763087356.120884) can0 080#
(1763087356.122034) can0 286#0000580200000000
(1763087356.122893) can0 181#D10300207F000009
(1763087356.125738) can0 382#FD0452003E050000
(1763087356.126021) can0 000A0003#FCDDFAEF14CB0000
(1763087356.126307) can0 000A0004#FFFAFFF0FE228E02
(1763087356.126551) can0 281#CF0700000E000000
(1763087356.127332) can0 4C4#089F08B907CA0888
(1763087356.128338) can0 4C5#08B00879084307E1
(1763087356.129356) can0 4C6#081C084608640889
(1763087356.130340) can0 188#0C005E3100000000
(1763087356.130574) can0 4C7#08DB089A082C083B
(1763087356.131064) can0 288#EE25E55500290000
(1763087356.131402) can0 4C8#0582000000000000
(1763087356.132072) can0 388#28292C2626000000
(1763087356.133036) can0 191#7B7B7C7B7B7A
(1763087356.133906) can0 482#CF070B0008360001
(1763087356.134098) can0 192#7B7B7B7B7B7A
(1763087356.134336) can0 682#4950CB0300000702
(1763087356.135068) can0 193#7B7B7B7C7B7B
(1763087356.135985) can0 000A0003#FD03FB0714CA0000
(1763087356.136266) can0 000A0004#FFF2FFF2FE2D8E02
(1763087356.136466) can0 194#7B7C7C7C7C7B
(1763087356.137056) can0 195#7B7B7C7C7C7C
(1763087356.138057) can0 291#181B1B1A1B1B
(1763087356.138820) can0 701#05
(1763087356.139072) can0 292#191B1C1A1C1A
(1763087356.140025) can0 293#191B1C1A1B1A
(1763087356.140418) can0 186#F40D4C1D090E0000
(1763087356.141036) can0 294#191C1C1B1C1B
(1763087356.142046) can0 295#191C1C1B1C1B
(1763087356.145982) can0 000A0003#FD1AFB0C14FD0000
(1763087356.146264) can0 000A0004#FFECFFF1FE348E02
(1763087356.147455) can0 382#B10591FF68050000
(1763087356.155980) can0 000A0003#FD15FAEE15920000
(1763087356.156264) can0 000A0004#FFE8FFEFFE3D8E02
(1763087356.158393) can0 482#B3070B0008360001
(1763087356.159226) can0 1A3#001C4208000000
(1763087356.160736) can0 701#05
(1763087356.161217) can0 181#D10300207F000009
(1763087356.165985) can0 000A0003#FD12FADA15E80000
(1763087356.166268) can0 000A0004#FFECFFF1FE418E02
(1763087356.169196) can0 382#38055E0068050000
(1763087356.171815) can0 281#BA0700000E000000
(1763087356.175980) can0 000A0003#FD32FABB16570000
(1763087356.176262) can0 000A0004#FFECFFF2FE4D8E02
(1763087356.177385) can0 682#4950CA0300001502
(1763087356.180110) can0 482#BC070B0008360001
(1763087356.180439) can0 186#B5104C1D090F0000
(1763087356.182692) can0 701#05
(1763087356.185088) can0 1A0#000000000000
(1763087356.185984) can0 000A0003#FD47FA9016AC0000
(1763087356.186270) can0 000A0004#FFE7FFF4FE528E02
(1763087356.186998) can0 000A0000#0000000000000000
(1763087356.187299) can0 000A0001#0000000000000000
(1763087356.187597) can0 000A0002#0000000000000000
(1763087356.188409) can0 382#4A06530079060000
(1763087356.190466) can0 1A4#001EFC0A000000
(1763087356.190694) can0 2A3#1F24232322201D1C
(1763087356.192309) can0 4C4#089F08B907CA0888
(1763087356.193314) can0 4C5#08B00879084307E1
(1763087356.194333) can0 4C6#081C084608640889
(1763087356.195349) can0 4C7#08DB089A082C083B
(1763087356.195991) can0 000A0003#FD4AFA4C16D50000
(1763087356.196274) can0 000A0004#FFE4FFFBFE598E02
(1763087356.196521) can0 4C8#0582000000000000
(1763087356.199312) can0 181#D10300207F000009
(1763087356.201932) can0 482#C5070D0008360001
(1763087356.204329) can0 701#05
(1763087356.205442) can0 1A5#8023350C000000
(1763087356.205984) can0 000A0003#FD4BFA2116DA0000
(1763087356.206267) can0 000A0004#FFECFFFDFE5C8E02
(1763087356.210157) can0 382#A206300079060000
(1763087356.213727) can0 1A2#C01FAA0E000000
(1763087356.213951) can0 2A1#2D2B2A2726272323
(1763087356.215698) can0 281#C307000011000000
(1763087356.215994) can0 000A0003#FD47F9FB16C00000
(1763087356.216280) can0 000A0004#FFFC0005FE648E02
(1763087356.218335) can0 682#4950C70300004002
(1763087356.220458) can0 186#2C0B4C1D09000000
(1763087356.221041) can0 189#9C03980255010D51
(1763087356.221271) can0 482#C6070D0008360001
(1763087356.221899) can0 080#
(1763087356.223019) can0 286#0000580200000000
(1763087356.224469) can0 19A#00007F7478817F7E
(1763087356.225471) can0 29A#8074837F83850000
(1763087356.225989) can0 000A0003#FD3DF9CE16C00000
(1763087356.226275) can0 000A0004#000B000CFE6D8E02
(1763087356.226392) can0 701#05
(1763087356.230336) can0 188#0C00833100000000
(1763087356.231088) can0 288#F6250E4E00290000
(1763087356.232068) can0 382#B9048EFF54040000
(1763087356.232304) can0 388#28292C2626000000
(1763087356.233067) can0 191#7B7B7C7C7C7A
(1763087356.234068) can0 192#7B7B7C7B7B7B
(1763087356.235048) can0 193#7B7B7C7C7B7B
(1763087356.235993) can0 000A0003#FD2FF9A816DF0000
(1763087356.236278) can0 000A0004#00130011FE718E02
(1763087356.236483) can0 194#7B7C7C7C7C7C
(1763087356.237067) can0 195#7B7C7C7D7C7C
(1763087356.238069) can0 291#181B1C1A1B1B
(1763087356.239045) can0 292#191B1C1A1C1B
(1763087356.240050) can0 293#191B1C1A1B1A
(1763087356.240291) can0 181#D10300207F000009
(1763087356.241061) can0 294#191C1B1B1C1B
(1763087356.242071) can0 295#191C1C1B1C1B
(1763087356.245637) can0 482#AA07090008360001
(1763087356.245988) can0 000A0003#FD1AF97117140000
(1763087356.246276) can0 000A0004#0006000FFE758E02
(1763087356.248106) can0 701#05
(1763087356.253920) can0 382#8A04D6FF54040000
(1763087356.255990) can0 000A0003#FD3FF97417570000
(1763087356.256275) can0 000A0004#FFF2000CFE798E02
(1763087356.257286) can0 4C4#089D08B407CD0886
(1763087356.258298) can0 4C5#08B00877084107DB
(1763087356.259319) can0 4C6#081A084608620888
(1763087356.259552) can0 682#4950CD0300002502
(1763087356.259828) can0 281#B40700000B000000
(1763087356.260150) can0 1A3#00264208000000
(1763087356.260382) can0 4C7#08D8089408290836
(1763087356.260616) can0 186#17094C1D09010000
(1763087356.261358) can0 4C8#0582000000000000
(1763087356.265992) can0 000A0003#FD60F96B17860000
(1763087356.266278) can0 000A0004#FFE6000CFE7D8E02
(1763087356.267457) can0 482#BC07070008360001
(1763087356.269852) can0 701#05
(1763087356.275665) can0 382#5C03890186030000
(1763087356.275992) can0 000A0003#FD72F955178D0000
(1763087356.276277) can0 000A0004#FFE20010FE7D8E02
(1763087356.278368) can0 181#D10300207F000009
(1763087356.285180) can0 1A0#000000000000
(1763087356.285994) can0 000A0003#FD8DF935179B0000
(1763087356.286280) can0 000A0004#FFF40012FE808E02
(1763087356.287006) can0 000A0000#0000000000000000
(1763087356.287317) can0 000A0001#0000000000000000
(1763087356.287605) can0 000A0002#0000000000000000
(1763087356.289440) can0 482#C507070008360001
(1763087356.291704) can0 701#05
(1763087356.296005) can0 000A0003#FDADF91B17B00000
(1763087356.296292) can0 000A0004#0003001CFE838E02
(1763087356.297213) can0 1A4#C01FDA0A000000
(1763087356.297440) can0 2A3#1F24232322201D1C
(1763087356.297681) can0 382#7003E10086030000
(1763087356.300407) can0 186#F3104C1D09020000
(1763087356.300639) can0 682#4950D1030000E901
(1763087356.302958) can0 281#B707000009000000
(1763087356.305998) can0 000A0003#FDC4F90817CA0000
(1763087356.306282) can0 000A0004#00040023FE8B8E02
(1763087356.307475) can0 1A5#001F350C000000
(1763087356.308412) can0 482#B2070D0008360001
(1763087356.313624) can0 701#05
(1763087356.316006) can0 000A0003#FDCAF90217E00000
(1763087356.316289) can0 000A0004#FFFD0024FE8C8E02
(1763087356.316730) can0 181#D10300207F000009
(1763087356.319453) can0 382#0207BEFE92060000
(1763087356.320453) can0 189#C003B00257010E51
(1763087356.320899) can0 080#
(1763087356.321133) can0 1A2#C0191D0E000000
(1763087356.321350) can0 2A1#2D2B292827252323
(1763087356.322052) can0 286#0000580200000000
(1763087356.322284) can0 4C4#089D08B407CD0886
(1763087356.323304) can0 4C5#08B00877084107DB
(1763087356.324305) can0 4C6#081A084608620888
(1763087356.325317) can0 4C7#08D8089408290836
(1763087356.326001) can0 000A0003#FDD2F8FA17FF0000
(1763087356.326287) can0 000A0004#FFED0016FE908E02
(1763087356.326535) can0 4C8#0582000000000000
(1763087356.330361) can0 188#0C00D43100000000
(1763087356.331251) can0 288#F6250E6200290000
(1763087356.332104) can0 388#28292C2626000000
(1763087356.332993) can0 482#E7070D0008360001
(1763087356.333188) can0 191#7B7B7C7C7C7A
(1763087356.334054) can0 192#7B7B7C7B7B7B
(1763087356.335098) can0 193#7B7B7C7C7B7B
(1763087356.335547) can0 701#05
(1763087356.336021) can0 000A0003#FDD5F8C918430000
(1763087356.336300) can0 000A0004#FFEC000AFE948E02
(1763087356.336491) can0 194#7B7C7C7C7C7C
(1763087356.337059) can0 195#7B7C7C7D7C7C
(1763087356.338043) can0 291#181B1C1A1B1B
(1763087356.339077) can0 292#191B1C1A1C1B
(1763087356.340058) can0 293#191B1C1A1B1A
(1763087356.340402) can0 186#F2104C1D09030000
(1763087356.341067) can0 294#191C1B1B1C1B
(1763087356.341404) can0 682#4950C80300001B02
(1763087356.341739) can0 382#7D06EFFF92060000
(1763087356.342076) can0 295#191C1C1B1C1B
(1763087356.346007) can0 000A0003#FDD8F8A9186F0000
(1763087356.346291) can0 000A0004#FFF1FFF9FE938E02
(1763087356.346655) can0 281#E307000011000000
(1763087356.354932) can0 181#D10300207F000009
(1763087356.355277) can0 482#CD070D0008360001
(1763087356.355381) can0 701#05
(1763087356.356001) can0 000A0003#FD77F8FA18240000
(1763087356.356285) can0 000A0004#FFFAFFDEFE948E02
(1763087356.361058) can0 1A3#801F9008000000
(1763087356.365848) can0 382#5F06E9FF91060000
(1763087356.366136) can0 000A0003#FD1AF94817DC0000
(1763087356.366422) can0 000A0004#0004FFC6FE988E02
(1763087356.376006) can0 000A0003#FD2FF9B317910000
(1763087356.376292) can0 000A0004#0008FFB5FE9F8E02
(1763087356.376408) can0 701#05
(1763087356.376782) can0 482#C4070D0008360001
(1763087356.380399) can0 186#CD0A4C1D09040000
(1763087356.384967) can0 682#4950C70300004E02
(1763087356.385181) can0 1A0#000000000000
(1763087356.386003) can0 000A0003#FD3DF9F817610000
(1763087356.386291) can0 000A0004#0009FFB7FEA18E02
(1763087356.387031) can0 000A0000#0000000000000000
(1763087356.387332) can0 000A0001#0000000000000000
(1763087356.387629) can0 000A0002#0000000000000000
(1763087356.387869) can0 382#FD043C0037050000
(1763087356.388101) can0 4C4#089808B407CD0884
(1763087356.388335) can0 4C5#08AC0875083D07D9
(1763087356.389326) can0 4C6#08160842085F0884
(1763087356.390338) can0 4C7#08D4089408250834
(1763087356.390580) can0 281#D10700000B000000
(1763087356.391369) can0 4C8#0582000000000000
(1763087356.393043) can0 181#D10300207F000009
(1763087356.395535) can0 701#05
(1763087356.396009) can0 000A0003#FD30FA38170B0000
(1763087356.396294) can0 000A0004#0016FFBEFEA98E02
(1763087356.396537) can0 482#CF07080008360001
(1763087356.403951) can0 1A4#001CFC0A000000
(1763087356.404177) can0 2A3#1F23242321201D1C
(1763087356.406007) can0 000A0003#FD23FA7416B90000
(1763087356.406293) can0 000A0004#0024FFD2FEB38E02
(1763087356.409511) can0 1A5#C01FAC0B000000
(1763087356.409750) can0 382#8A0453FF2F040000
(1763087356.416009) can0 000A0003#FD4EFAC715C30000
(1763087356.416298) can0 000A0004#002FFFE5FEBE8E02
(1763087356.417605) can0 701#05
(1763087356.417969) can0 482#AA07080008360001
(1763087356.420432) can0 186#920B4C1D09050000
(1763087356.421051) can0 189#7803830255010B51
(1763087356.421887) can0 080#
(1763087356.423035) can0 286#0000580200000000
(1763087356.425921) can0 682#4950CE0300002102
(1763087356.426205) can0 000A0003#FD6AFAFC15250000
(1763087356.426489) can0 000A0004#002F0004FEC48E02
(1763087356.428492) can0 1A2#C019AA0E000000
(1763087356.428715) can0 2A1#2C2B292827252324
(1763087356.430346) can0 188#0C00C23100000000
(1763087356.430583) can0 19A#00008073737E7D7D
(1763087356.431106) can0 288#3326204F00290000
(1763087356.431380) can0 382#440477007C040000
(1763087356.431613) can0 29A#806B848084860000
(1763087356.432114) can0 388#28292C2626000000
(1763087356.433054) can0 191#7D7D7E7E7E7C
(1763087356.433997) can0 181#D10300207F000009
(1763087356.434203) can0 192#7D7D7D7D7D7D
(1763087356.434448) can0 281#B30700000C000000
