(1763085649.513767) can0 482#0000000008140001
(1763085649.515725) can0 186#00004C1D010E0000
(1763085649.516020) can0 189#4A02A001700100C8
(1763085649.518493) can0 1A0#000000000100
(1763085649.518915) can0 000A0003#FF5FFFD810230000
(1763085649.519200) can0 000A0004#FFF6FFE3FFB58E02
(1763085649.519450) can0 382#0000000000000000
(1763085649.519924) can0 000A0000#0000000000000000
(1763085649.520223) can0 000A0001#0000000000000000
(1763085649.520521) can0 000A0002#0000000000000000
(1763085649.522297) can0 4C4#04C704C604CA04BE
(1763085649.523304) can0 4C5#04B604BF04C404CD
(1763085649.524320) can0 4C6#04CD04CD04BD04B3
(1763085649.524437) can0 701#05
(1763085649.525333) can0 4C7#04C804BB04CA04C7
(1763085649.525702) can0 189#49029F01720100C8
(1763085649.526361) can0 4C8#04A1000000000000
(1763085649.528923) can0 000A0003#FF5FFFDA10280000
(1763085649.529209) can0 000A0004#FFF5FFE1FFB68E02
(1763085649.532735) can0 682#3D45240400000000
(1763085649.532983) can0 181#810100207F000009
(1763085649.533264) can0 281#0000000000000000
(1763085649.535487) can0 482#0000000008140001
(1763085649.535716) can0 189#4902A201740100C8
(1763085649.538913) can0 000A0003#FF5DFFDB102D0000
(1763085649.539197) can0 000A0004#FFF4FFE0FFB68E02
(1763085649.540934) can0 382#0000000000000000
(1763085649.543423) can0 701#05
(1763085649.545697) can0 189#4802A101770100C8
(1763085649.548917) can0 000A0003#FF5BFFDB10310000
(1763085649.549204) can0 000A0004#FFF4FFE0FFB58E02
(1763085649.555724) can0 186#00004C1D010F0000
(1763085649.556003) can0 189#4902A101760100C8
(1763085649.556870) can0 080#
(1763085649.557318) can0 482#0000000008140001
(1763085649.558023) can0 286#6400900100000000
(1763085649.558916) can0 000A0003#FF5AFFDB10340000
(1763085649.559204) can0 000A0004#FFF4FFDFFFB68E02
(1763085649.561476) can0 19A#0000806F727E7F80
(1763085649.562483) can0 29A#8072828084830000
(1763085649.562758) can0 382#0000000000000000
(1763085649.565222) can0 188#0C00EF3100000000
(1763085649.565702) can0 189#49029F01760100C8
(1763085649.565977) can0 288#6129432A00140000
(1763085649.566957) can0 388#2122222123000000
(1763085649.567918) can0 191#999999999998
(1763085649.568035) can0 701#05
(1763085649.568921) can0 000A0003#FF5AFFDA10360000
(1763085649.569206) can0 000A0004#FFF5FFDFFFB68E02
(1763085649.569403) can0 192#989999999998
(1763085649.569931) can0 193#999999999999
(1763085649.570911) can0 194#999999999999
(1763085649.571155) can0 181#810100207F000009
(1763085649.571915) can0 195#999999999999
(1763085649.572946) can0 291#0F0F0F0F0F0F
(1763085649.573684) can0 682#3D45230400000000
(1763085649.573960) can0 292#0F0F0F10100F
(1763085649.574912) can0 293#10100F101010
(1763085649.575702) can0 189#48029F01770100C8
(1763085649.575926) can0 294#101010101010
(1763085649.576410) can0 281#0000000000000000
(1763085649.576929) can0 295#101010111010
(1763085649.578921) can0 000A0003#FF5AFFD910370000
(1763085649.579205) can0 000A0004#FFF4FFDFFFB58E02
(1763085649.579451) can0 482#0000000008140001
(1763085649.584705) can0 382#0000000000000000
(1763085649.584927) can0 1A3#40007A09000000
(1763085649.585695) can0 189#4902A1017A0100C8
(1763085649.587466) can0 4C4#04C704C604CA04BE
(1763085649.588478) can0 4C5#04B604BF04C404CD
(1763085649.588919) can0 000A0003#FF58FFD610360000
(1763085649.589208) can0 000A0004#FFF0FFDEFFB58E02
(1763085649.589433) can0 1A4#0000120A000000
(1763085649.589667) can0 2A3#1014151515160F0C
(1763085649.589900) can0 4C6#04CD04CD04BD04B3
(1763085649.590023) can0 701#05
(1763085649.590506) can0 4C7#04C804BB04CA04C7
(1763085649.591534) can0 4C8#04A1000000000000
(1763085649.593624) can0 1A2#0000BB0D000000
(1763085649.593853) can0 2A1#151617171718160D
(1763085649.595696) can0 186#00004C1D01000000
(1763085649.596033) can0 189#4802A0017B0100C8
(1763085649.598923) can0 000A0003#FF56FFD410360000
(1763085649.599209) can0 000A0004#FFEFFFDEFFB58E02
(1763085649.600995) can0 482#0000000008140001
(1763085649.605704) can0 189#4A02A0017D0100C8
(1763085649.606452) can0 382#0000000000000000
(1763085649.607979) can0 1A5#0000940D000000
(1763085649.608915) can0 000A0003#FF54FFD310330000
(1763085649.609199) can0 000A0004#FFF0FFDCFFB58E02
(1763085649.609445) can0 181#810100207F000009
(1763085649.611651) can0 701#05
(1763085649.614622) can0 682#3D45230400000000
(1763085649.615697) can0 189#4902A1017E0100C8
(1763085649.618497) can0 1A0#000000000100
(1763085649.618921) can0 000A0003#FF53FFD4102F0000
(1763085649.619210) can0 000A0004#FFF0FFDBFFB58E02
(1763085649.619930) can0 000A0000#0000000000000000
(1763085649.620229) can0 000A0001#0000000000000000
(1763085649.620528) can0 000A0002#0000000000000000
(1763085649.620780) can0 281#0000000000000000
(1763085649.625565) can0 482#0000000008140001
(1763085649.625800) can0 189#4A02A001800100C8
(1763085649.628255) can0 382#0000000000000000
(1763085649.628933) can0 000A0003#FF52FFD3102E0000
(1763085649.629217) can0 000A0004#FFF1FFDAFFB58E02
(1763085649.630750) can0 701#05
(1763085649.635694) can0 186#00004C1D01010000
(1763085649.636045) can0 189#4A029F01810100C8
(1763085649.638922) can0 000A0003#FF52FFD3102D0000
(1763085649.639208) can0 000A0004#FFF1FFDAFFB68E02
(1763085649.645694) can0 189#4902A301840100C8
(1763085649.647350) can0 482#0000000008140001
(1763085649.647597) can0 181#810100207F000009
(1763085649.648922) can0 000A0003#FF51FFD3102A0000
(1763085649.649210) can0 000A0004#FFF1FFD9FFB58E02
(1763085649.650207) can0 382#0000000000000000
(1763085649.652629) can0 4C4#04C004BF04BF04BD
(1763085649.652745) can0 701#05
(1763085649.653642) can0 4C5#04B504BE04C304C8
(1763085649.654655) can0 4C6#04CC04C804BC04B7
(1763085649.655569) can0 682#3D45240400000000
(1763085649.655803) can0 189#49029F01840100C8
(1763085649.655902) can0 080#
(1763085649.656139) can0 4C7#04BA04BA04C904C0
(1763085649.656698) can0 4C8#04A1000000000000
(1763085649.657024) can0 286#6400900100000000
(1763085649.658930) can0 000A0003#FF50FFD310260000
(1763085649.659209) can0 000A0004#FFF5FFDAFFB58E02
(1763085649.663780) can0 281#0000000000000000
(1763085649.665150) can0 188#0C000A3200000000
(1763085649.665690) can0 189#4A02A001850100C8
(1763085649.665935) can0 288#6129432A00140000
(1763085649.666947) can0 388#2122222123000000
(1763085649.667926) can0 191#999999999998
(1763085649.668923) can0 000A0003#FF50FFD310250000
(1763085649.669207) can0 000A0004#FFF5FFDAFFB58E02
(1763085649.669403) can0 192#989999999998
(1763085649.669649) can0 482#0000000008140001
(1763085649.669908) can0 193#999999999999
(1763085649.670918) can0 194#999999999999
(1763085649.671959) can0 382#0000000000000000
(1763085649.672149) can0 195#999999999999
(1763085649.672953) can0 291#0F0F0F0F0F0F
(1763085649.673925) can0 292#0F0F0F10100F
(1763085649.674450) can0 701#05
(1763085649.674920) can0 293#10100F101010
(1763085649.675686) can0 186#00004C1D01020000
(1763085649.675934) can0 294#101010101010
(1763085649.676166) can0 189#48029E01850100C8
(1763085649.676935) can0 295#101010111010
(1763085649.678928) can0 000A0003#FF4DFFD310230000
(1763085649.679213) can0 000A0004#FFF6FFDAFFB48E02
(1763085649.685599) can0 181#810100207F000009
(1763085649.685827) can0 189#4A02A101890100C8
(1763085649.686052) can0 1A3#40007A09000000
(1763085649.688933) can0 000A0003#FF4AFFD0101F0000
(1763085649.689217) can0 000A0004#FFF6FFDCFFB58E02
(1763085649.691117) can0 482#0000000008140001
(1763085649.693762) can0 382#0000000000000000
(1763085649.695693) can0 189#4A02A0018C0100C8
(1763085649.696116) can0 1A4#0000120A000000
(1763085649.696350) can0 2A3#1014151515160F0C
(1763085649.696466) can0 701#05
(1763085649.696714) can0 682#3D45230400000000
(1763085649.698929) can0 000A0003#FF47FFCD101C0000
(1763085649.699212) can0 000A0004#FFF7FFDCFFB48E02
(1763085649.701139) can0 1A2#0000BB0D000000
(1763085649.701367) can0 2A1#151617171718160D
(1763085649.705696) can0 189#49029F01900100C8
(1763085649.707409) can0 281#0000000000000000
(1763085649.708931) can0 000A0003#FF46FFCE10190000
(1763085649.709219) can0 000A0004#FFF8FFDBFFB58E02
(1763085649.710130) can0 1A5#0000940D000000
(1763085649.712856) can0 482#0000000008140001
(1763085649.715688) can0 186#00004C1D01030000
(1763085649.715936) can0 382#0000000000000000
(1763085649.716170) can0 189#49029F01910100C8
(1763085649.717788) can0 4C4#04C004BF04BF04BD
(1763085649.718187) can0 701#05
(1763085649.718497) can0 1A0#000000000100
(1763085649.718801) can0 4C5#04B904BE04C304CC
(1763085649.719091) can0 000A0003#FF47FFD010150000
(1763085649.719375) can0 000A0004#FFF8FFDCFFB48E02
(1763085649.719815) can0 4C6#04CC04C804C004BB
(1763085649.720115) can0 000A0000#0000000000000000
(1763085649.720415) can0 000A0001#0000000000000000
(1763085649.720713) can0 000A0002#0000000000000000
(1763085649.720949) can0 4C7#04BF04BA04C404C0
(1763085649.721855) can0 4C8#04A1000000000000
(1763085649.723793) can0 181#810100207F000009
(1763085649.725688) can0 189#49029F01920100C8
(1763085649.728935) can0 000A0003#FF47FFD110110000
(1763085649.729220) can0 000A0004#FFF8FFDDFFB58E02
(1763085649.734800) can0 482#0000000008140001
(1763085649.735684) can0 189#49029F01950100C8
(1763085649.737446) can0 682#3D45240400000000
(1763085649.737700) can0 382#0000000000000000
(1763085649.738948) can0 000A0003#FF47FFD2100D0000
(1763085649.739233) can0 000A0004#FFF8FFDDFFB58E02
(1763085649.739948) can0 701#05
(1763085649.745689) can0 189#4902A001980100C8
(1763085649.748938) can0 000A0003#FF46FFD3100E0000
(1763085649.749223) can0 000A0004#FFF8FFDFFFB58E02
(1763085649.750476) can0 19A#00007C79717C7F7E
(1763085649.751104) can0 281#0000000000000000
(1763085649.751478) can0 29A#8171858183810000
(1763085649.755710) can0 186#00004C1D01040000
(1763085649.756024) can0 189#4A029F019A0100C8
(1763085649.756683) can0 482#0000000008140001
(1763085649.756829) can0 080#
(1763085649.758008) can0 286#6400900100000000
(1763085649.758937) can0 000A0003#FF44FFD4100F0000
(1763085649.759223) can0 000A0004#FFF8FFDFFFB58E02
(1763085649.759485) can0 382#0000000000000000
(1763085649.759606) can0 701#05
(1763085649.762088) can0 181#810100207F000009
(1763085649.765184) can0 188#0C00E63100000000
(1763085649.765687) can0 189#4A029F01990100C8
(1763085649.765973) can0 288#6129432100140000
(1763085649.766973) can0 388#2122222123000000
(1763085649.767914) can0 191#999999999998
(1763085649.768934) can0 000A0003#FF41FFD510110000
(1763085649.769221) can0 000A0004#FFF7FFDEFFB58E02
(1763085649.769417) can0 192#989999999998
(1763085649.769915) can0 193#999999999999
(1763085649.770926) can0 194#999999999999
(1763085649.771929) can0 195#999999999999
(1763085649.772929) can0 291#0F0F0F0F0F0F
(1763085649.773933) can0 292#0F0F0F10100F
(1763085649.774928) can0 293#10100F101010
(1763085649.775681) can0 189#49029F019C0100C8
(1763085649.775941) can0 294#101010101010
(1763085649.776943) can0 295#101010111010
(1763085649.778358) can0 482#0000000008140001
(1763085649.778605) can0 682#3D45230400000000
(1763085649.778937) can0 000A0003#FF40FFD510130000
(1763085649.779223) can0 000A0004#FFF7FFDFFFB58E02
(1763085649.780887) can0 701#05
(1763085649.781247) can0 382#0000000000000000
(1763085649.782967) can0 4C4#04C104D104C504BE
(1763085649.783971) can0 4C5#04BA04BF04C404D1
(1763085649.784985) can0 4C6#04CD04C904C504BC
(1763085649.785679) can0 189#48029F019D0100C8
(1763085649.786007) can0 4C7#04BF04BB04C504C1
(1763085649.786809) can0 1A3#40007A09000000
(1763085649.787052) can0 4C8#04A1000000000000
(1763085649.788936) can0 000A0003#FF3EFFD510160000
(1763085649.789223) can0 000A0004#FFF6FFDFFFB58E02
(1763085649.794795) can0 281#0000000000000000
(1763085649.795673) can0 186#00004C1D01050000
(1763085649.796021) can0 189#4902A001A00100C8
(1763085649.798938) can0 000A0003#FF3EFFD610190000
(1763085649.799221) can0 000A0004#FFF5FFDEFFB58E02
(1763085649.800232) can0 181#810100207F000009
(1763085649.800521) can0 482#0000000008140001
(1763085649.800644) can0 701#05
(1763085649.802956) can0 382#0000000000000000
(1763085649.803180) can0 1A4#0000120A000000
(1763085649.803414) can0 2A3#1014151515160F0C
(1763085649.805681) can0 189#49029F01A00100C8
(1763085649.808649) can0 1A2#0000BB0D000000
(1763085649.808936) can0 000A0003#FF3EFFD7101C0000
(1763085649.809222) can0 000A0004#FFF6FFDDFFB58E02
(1763085649.809450) can0 2A1#151617171718160D
(1763085649.812271) can0 1A5#0000940D000000
(1763085649.815680) can0 189#4A02A001A20100C8
(1763085649.818499) can0 1A0#000000000100
(1763085649.818937) can0 000A0003#FF3FFFD7101E0000
(1763085649.819222) can0 000A0004#FFF6FFDEFFB68E02
(1763085649.819466) can0 682#3D45240400000000
(1763085649.819950) can0 000A0000#0000000000000000
(1763085649.820250) can0 000A0001#0000000000000000
(1763085649.820548) can0 000A0002#0000000000000000
(1763085649.822075) can0 482#0000000008140001
(1763085649.824776) can0 382#0000000000000000
(1763085649.824898) can0 701#05
(1763085649.825676) can0 189#49029F01A30100C8
(1763085649.828947) can0 000A0003#FF40FFD8101E0000
(1763085649.829231) can0 000A0004#FFF7FFDEFFB68E02
(1763085649.835674) can0 186#00004C1D01060000
(1763085649.836031) can0 189#4902A101A50100C8
(1763085649.838505) can0 181#810100207F000009
(1763085649.838760) can0 281#0000000000000000
(1763085649.839048) can0 000A0003#FF40FFD9101C0000
(1763085649.839334) can0 000A0004#FFF7FFDEFFB68E02
(1763085649.843873) can0 482#0000000008140001
(1763085649.845677) can0 189#4A029F01A70100C8
(1763085649.846596) can0 701#05
(1763085649.848122) can0 4C4#04C604BF04BF04BD
(1763085649.848945) can0 000A0003#FF40FFD9101C0000
(1763085649.849231) can0 000A0004#FFF6FFDEFFB78E02
(1763085649.849481) can0 382#0000000000000000
(1763085649.849715) can0 4C5#04BE04BE04C704D0
(1763085649.850151) can0 4C6#04D004C004BC04C0
(1763085649.851162) can0 4C7#04C304BF04C404CB
(1763085649.852192) can0 4C8#04A1000000000000
(1763085649.855689) can0 189#4902A101AA0100C8
(1763085649.855887) can0 080#
(1763085649.857006) can0 286#6400900100000000
(1763085649.858940) can0 000A0003#FF40FFD7101C0000
(1763085649.859225) can0 000A0004#FFFAFFDFFFB68E02
(1763085649.860271) can0 682#3D45240400000000
(1763085649.865195) can0 188#0C009E3100000000
(1763085649.865675) can0 189#4B029F01AC0100C8
(1763085649.865921) can0 482#0000000008140001
(1763085649.866155) can0 288#6129432200140000
(1763085649.866976) can0 388#2122222123000000
(1763085649.867909) can0 191#999999999998
(1763085649.868219) can0 701#05
(1763085649.868947) can0 000A0003#FF41FFD5101C0000
(1763085649.869233) can0 000A0004#FFF9FFDFFFB58E02
(1763085649.869429) can0 192#989999999998
(1763085649.869938) can0 193#999999999999
(1763085649.870936) can0 194#999999999999
(1763085649.871306) can0 382#0000000000000000
(1763085649.871905) can0 195#999999999999
(1763085649.872937) can0 291#0F0F0F0F0F0F
(1763085649.873939) can0 292#0F0F0F10100F
(1763085649.874934) can0 293#10100F101010
(1763085649.875667) can0 186#00004C1D01070000
(1763085649.875947) can0 294#101010101010
(1763085649.876178) can0 189#48029F01AF0100C8
(1763085649.876842) can0 181#810100207F000009
(1763085649.877041) can0 295#101010111010
(1763085649.878951) can0 000A0003#FF43FFD5101D0000
(1763085649.879236) can0 000A0004#FFF9FFE0FFB58E02
(1763085649.882111) can0 281#0000000000000000
(1763085649.885671) can0 189#49029F01B20100C8
(1763085649.887594) can0 482#0000000008140001
(1763085649.887815) can0 1A3#40007A09000000
(1763085649.888947) can0 000A0003#FF46FFD4101E0000
(1763085649.889237) can0 000A0004#FFF9FFE0FFB68E02
(1763085649.890052) can0 701#05
(1763085649.893037) can0 382#0000000000000000
(1763085649.895670) can0 189#4902A101B40100C8
(1763085649.898948) can0 000A0003#FF49FFD3101F0000
(1763085649.899243) can0 000A0004#FFF7FFE0FFB68E02
(1763085649.901209) can0 682#3D45240400000000
(1763085649.905669) can0 189#4A02A201B60100C8
(1763085649.908947) can0 000A0003#FF4CFFD210210000
(1763085649.909234) can0 000A0004#FFF6FFE3FFB58E02
(1763085649.909478) can0 482#0000000008140001
(1763085649.909866) can0 1A4#0000120A000000
(1763085649.910100) can0 2A3#1014151515160F0C
(1763085649.911900) can0 701#05
(1763085649.913280) can0 4C4#04C604BF04BF04BD
(1763085649.914297) can0 4C5#04BE04BE04C704D0
(1763085649.914521) can0 1A5#0000940D000000
(1763085649.914867) can0 382#0000000000000000
(1763085649.915153) can0 181#810100207F000009
(1763085649.915387) can0 4C6#04D004C004BC04C0
(1763085649.915674) can0 186#00004C1D01080000
(1763085649.916047) can0 189#48029F01B70100C8
(1763085649.916270) can0 1A2#0000BB0D000000
(1763085649.916501) can0 2A1#151617171818160D
(1763085649.916734) can0 4C7#04C304BF04C404CB
(1763085649.917351) can0 4C8#04A1000000000000
(1763085649.918500) can0 1A0#000000000100
(1763085649.918950) can0 000A0003#FF4EFFD010240000
(1763085649.919238) can0 000A0004#FFF5FFE3FFB58E02
(1763085649.919964) can0 000A0000#0000000000000000
(1763085649.920262) can0 000A0001#0000000000000000
(1763085649.920560) can0 000A0002#0000000000000000
(1763085649.925673) can0 189#4A029F01B90100C8
(1763085649.925925) can0 281#0000000000000000
(1763085649.928946) can0 000A0003#FF4FFFCF10260000
(1763085649.929232) can0 000A0004#FFF4FFE3FFB58E02
(1763085649.931320) can0 482#0000000008140001
(1763085649.933711) can0 701#05
(1763085649.935669) can0 189#4B02A001BC0100C8
(1763085649.936808) can0 382#0000000000000000
(1763085649.938949) can0 000A0003#FF50FFCF10280000
(1763085649.939239) can0 000A0004#FFF3FFE3FFB48E02
(1763085649.942155) can0 682#3D45240400000000
(1763085649.945670) can0 189#4B02A101BE0100C8
(1763085649.948953) can0 000A0003#FF51FFD0102A0000
(1763085649.949237) can0 000A0004#FFF4FFE2FFB48E02
(1763085649.953064) can0 181#810100207F000009
(1763085649.953313) can0 482#0000000008140001
(1763085649.955682) can0 186#00004C1D01090000
(1763085649.955798) can0 701#05
(1763085649.956033) can0 189#4902A001C10100C8
(1763085649.956465) can0 19A#00007D76757D8381
(1763085649.956867) can0 080#
(1763085649.957473) can0 29A#8074837E82850000
(1763085649.958019) can0 286#6400900100000000
(1763085649.958730) can0 382#0000000000000000
(1763085649.959016) can0 000A0003#FF51FFD1102A0000
(1763085649.959303) can0 000A0004#FFF5FFE1FFB48E02
(1763085649.965189) can0 188#0C008C3100000000
(1763085649.965663) can0 189#4A02A001C40100C8
(1763085649.965987) can0 288#6129432A00140000
(1763085649.966956) can0 388#2122222123000000
(1763085649.967896) can0 191#999999999998
(1763085649.968946) can0 000A0003#FF51FFD3102B0000
(1763085649.969232) can0 000A0004#FFF6FFE3FFB58E02
(1763085649.969430) can0 192#989999999998
(1763085649.969680) can0 281#0000000000000000
(1763085649.969909) can0 193#999999999999
(1763085649.970907) can0 194#999999999999
(1763085649.971912) can0 195#999999999999
(1763085649.972940) can0 291#0F0F0F0F0F0F
(1763085649.973943) can0 292#0F0F0F10100F
(1763085649.974892) can0 482#0000000008140001
(1763085649.975090) can0 293#10100F101010
(1763085649.975662) can0 189#49029E01C40100C8
(1763085649.975904) can0 294#101010101010
(1763085649.976906) can0 295#101010111010
(1763085649.977416) can0 701#05
(1763085649.978446) can0 4C4#04CC04CA04C404C2
(1763085649.978951) can0 000A0003#FF52FFD5102C0000
(1763085649.979237) can0 000A0004#FFF6FFE2FFB58E02
(1763085649.979470) can0 4C5#04B504BE04C704CC
(1763085649.980364) can0 382#0000000000000000
(1763085649.980594) can0 4C6#04C804C804BC04BB
(1763085649.981492) can0 4C7#04BE04BA04BF04C0
(1763085649.982520) can0 4C8#04A1000000000000
(1763085649.983103) can0 682#3D45240400000000
(1763085649.985659) can0 189#4B029F01C60100C8
(1763085649.988777) can0 1A3#40007A09000000
(1763085649.989065) can0 000A0003#FF54FFD7102D0000
(1763085649.989349) can0 000A0004#FFF5FFDEFFB58E02
(1763085649.991358) can0 181#810100207F000009
(1763085649.995654) can0 186#00004C1D010A0000
(1763085649.996035) can0 189#4A029F01C60100C8
(1763085649.996930) can0 482#0000000008140001
(1763085649.998955) can0 000A0003#FF55FFD7102E0000
(1763085649.999243) can0 000A0004#FFF5FFDFFFB48E02
(1763085649.999360) can0 701#05
(1763085650.002314) can0 382#0000000000000000
(1763085650.005659) can0 189#4A02A101C90100C8
(1763085650.008964) can0 000A0003#FF56FFD810300000
(1763085650.009255) can0 000A0004#FFF6FFE0FFB48E02
(1763085650.013124) can0 281#0000000000000000
(1763085650.015664) can0 189#4C029F01C80100C8
(1763085650.016534) can0 1A5#0000940D000000
(1763085650.016762) can0 1A4#0000120A000000
(1763085650.016994) can0 2A3#1014151515160F0C
(1763085650.018499) can0 1A0#000000000100
(1763085650.018745) can0 482#0000000008140001
(1763085650.019032) can0 000A0003#FF55FFD710320000
(1763085650.019323) can0 000A0004#FFF5FFE0FFB58E02
(1763085650.019966) can0 000A0000#0000000000000000
(1763085650.020267) can0 000A0001#0000000000000000
(1763085650.020566) can0 000A0002#0000000000000000
(1763085650.021060) can0 701#05
(1763085650.023668) can0 1A2#0000BB0D000000
(1763085650.023898) can0 2A1#151617171818160D
(1763085650.024144) can0 682#3D45230400000000
(1763085650.024397) can0 382#0000000000000000
(1763085650.025658) can0 189#4A029F01C70100C8
(1763085650.028960) can0 000A0003#FF55FFD710340000
(1763085650.029245) can0 000A0004#FFF6FFDFFFB58E02
(1763085650.029505) can0 181#810100207F000009
(1763085650.035649) can0 186#00004C1D010B0000
(1763085650.036042) can0 189#4902A101C90100C8
(1763085650.038966) can0 000A0003#FF56FFD710360000
(1763085650.039253) can0 000A0004#FFF6FFE0FFB58E02
(1763085650.040389) can0 482#0000000008140001
(1763085650.042914) can0 701#05
(1763085650.043615) can0 4C4#04CC04CA04C404C2
(1763085650.044631) can0 4C5#04B504BE04C704CC
(1763085650.045641) can0 4C6#04C804C804BC04BB
(1763085650.045873) can0 189#49029F01C70100C8
(1763085650.046127) can0 382#0000000000000000
(1763085650.046663) can0 4C7#04BE04BA04BF04C0
(1763085650.047687) can0 4C8#04A1000000000000
(1763085650.048954) can0 000A0003#FF58FFD710370000
(1763085650.049240) can0 000A0004#FFF6FFDEFFB58E02
(1763085650.055672) can0 189#4A02A101C90100C8
(1763085650.055870) can0 080#
(1763085650.056878) can0 281#0000000000000000
(1763085650.057123) can0 286#6400900100000000
(1763085650.058960) can0 000A0003#FF58FFD610350000
(1763085650.059245) can0 000A0004#FFF6FFDDFFB58E02
(1763085650.062335) can0 482#0000000008140001
(1763085650.064705) can0 701#05
(1763085650.065215) can0 188#0C00EF3100000000
(1763085650.065656) can0 189#4902A001C90100C8
(1763085650.065961) can0 288#6129432900140000
(1763085650.066962) can0 388#2122222123000000
(1763085650.067711) can0 181#810100207F000009
(1763085650.067959) can0 682#3D45240400000000
(1763085650.068151) can0 191#999999999998
(1763085650.068403) can0 382#0000000000000000
(1763085650.068957) can0 000A0003#FF58FFD610340000
(1763085650.069243) can0 000A0004#FFF7FFDDFFB48E02
(1763085650.069440) can0 192#989999999998
(1763085650.069934) can0 193#999999999999
(1763085650.070914) can0 194#999999999999
(1763085650.071917) can0 195#999999999999
(1763085650.072947) can0 291#0F0F0F0F0F0F
(1763085650.073960) can0 292#0F0F0F10100F
(1763085650.074916) can0 293#10100F101010
(1763085650.075649) can0 186#00004C1D010C0000
(1763085650.075928) can0 294#101010101010
(1763085650.076165) can0 189#48029E01C80100C8
(1763085650.076931) can0 295#101010111010
(1763085650.078965) can0 000A0003#FF5BFFD5102E0000
(1763085650.079256) can0 000A0004#FFF8FFDDFFB38E02
(1763085650.083860) can0 701#05
(1763085650.084183) can0 482#0000000008140001
(1763085650.085651) can0 189#4902A001C90100C8
(1763085650.088964) can0 000A0003#FF5FFFD5102A0000
(1763085650.089251) can0 000A0004#FFF9FFDDFFB38E02
(1763085650.089571) can0 382#0000000000000000
(1763085650.089788) can0 1A3#40007A09000000
(1763085650.095686) can0 189#4B02A001C80100C8
(1763085650.098972) can0 000A0003#FF60FFD510280000
(1763085650.099248) can0 000A0004#FFF8FFE2FFB28E02
(1763085650.100448) can0 281#0000000000000000
(1763085650.105652) can0 189#4C02A101C80100C8
(1763085650.105898) can0 482#0000000008140001
(1763085650.106020) can0 701#05
(1763085650.106267) can0 181#810100207F000009
(1763085650.108783) can0 4C4#04C604C504C404C2
(1763085650.109072) can0 000A0003#FF60FFD610270000
(1763085650.109357) can0 000A0004#FFF7FFE2FFB38E02
(1763085650.109601) can0 682#3D45230400000000
(1763085650.109835) can0 4C5#04BE04C204BF04CC
(1763085650.110822) can0 4C6#04C804C004B804B7
(1763085650.111379) can0 382#0000000000000000
(1763085650.111836) can0 4C7#04C304BF04C404C0
(1763085650.112859) can0 4C8#04A1000000000000
(1763085650.115645) can0 186#00004C1D010D0000
(1763085650.116033) can0 189#4A029F01C80100C8
(1763085650.118500) can0 1A0#000000000100
(1763085650.118726) can0 1A5#0000940D000000
(1763085650.119015) can0 000A0003#FF61FFD710280000
(1763085650.119300) can0 000A0004#FFF7FFE2FFB38E02
(1763085650.119978) can0 000A0000#0000000000000000
(1763085650.120277) can0 000A0001#0000000000000000
(1763085650.120577) can0 000A0002#0000000000000000
(1763085650.123648) can0 1A4#0000120A000000
(1763085650.123879) can0 2A3#1014151515160F0C
(1763085650.125650) can0 189#49029F01C80100C8
(1763085650.127515) can0 701#05
(1763085650.127870) can0 482#0000000008140001
(1763085650.128968) can0 000A0003#FF62FFD8102A0000
(1763085650.129254) can0 000A0004#FFF6FFE1FFB38E02
(1763085650.131184) can0 1A2#0000BB0D000000
(1763085650.131411) can0 2A1#151617171718160D
(1763085650.133323) can0 382#0000000000000000
(1763085650.135652) can0 189#4A029F01C80100C8
(1763085650.138969) can0 000A0003#FF62FFDC102D0000
(1763085650.139250) can0 000A0004#FFF6FFE1FFB38E02
(1763085650.144147) can0 181#810100207F000009
(1763085650.144439) can0 281#0000000000000000
(1763085650.145647) can0 189#4902A001C90100C9
(1763085650.148973) can0 000A0003#FF61FFDE102F0000
(1763085650.149261) can0 000A0004#FFF7FFE1FFB38E02
(1763085650.149378) can0 701#05
(1763085650.149687) can0 482#0000000008140001
(1763085650.149935) can0 682#3D45230400000000
(1763085650.155067) can0 382#0000000000000000
(1763085650.155667) can0 186#00004C1D010E0000
(1763085650.156021) can0 189#49029F01C90100C9
(1763085650.156885) can0 080#
(1763085650.158007) can0 286#6400900100000000
(1763085650.158977) can0 000A0003#FF60FFE010340000
(1763085650.159261) can0 000A0004#FFF6FFE1FFB38E02
(1763085650.162467) can0 19A#00007F7D6F7E7D7C
(1763085650.163468) can0 29A#8279837F81840000
(1763085650.165651) can0 189#4B029F01C80100C9
(1763085650.168971) can0 000A0003#FF60FFE210390000
(1763085650.169257) can0 000A0004#FFF7FFE0FFB38E02
(1763085650.171404) can0 482#0000000008140001
(1763085650.171525) can0 701#05
(1763085650.173961) can0 4C4#04C704C604C004BE
(1763085650.174243) can0 188#0C00F83100000000
(1763085650.174940) can0 288#6129431A00140000
(1763085650.175174) can0 4C5#04BA04BF04C804CD
(1763085650.175644) can0 189#4A029E01C80100C9
(1763085650.175952) can0 388#2122222122000000
(1763085650.176183) can0 4C6#04C504CD04C504B8
(1763085650.176903) can0 382#0000000000000000
(1763085650.177094) can0 191#999999999998
(1763085650.177330) can0 4C7#04BF04C004C504C7
(1763085650.177912) can0 192#989999999998
(1763085650.178157) can0 4C8#04A1000000000000
(1763085650.178978) can0 000A0003#FF60FFE1103B0000
(1763085650.179263) can0 000A0004#FFF6FFDFFFB38E02
(1763085650.179454) can0 193#999999999999
(1763085650.179925) can0 194#999999999999
(1763085650.180928) can0 195#999999999999
(1763085650.181969) can0 291#0F0F0F0F0F0F
(1763085650.182347) can0 181#810100207F000009
(1763085650.182932) can0 292#0F0F0F10100F
(1763085650.183925) can0 293#10100F101010
(1763085650.184938) can0 294#101010101010
(1763085650.185647) can0 189#49029F01C80100C9
(1763085650.185954) can0 295#101010111010
(1763085650.187843) can0 281#0000000000000000
(1763085650.188981) can0 000A0003#FF5FFFE0103E0000
(1763085650.189261) can0 000A0004#FFF7FFDFFFB38E02
(1763085650.190626) can0 682#3D45230400000000
(1763085650.190846) can0 1A3#40007A09000000
(1763085650.193021) can0 701#05
(1763085650.193373) can0 482#0000000008140001
(1763085650.195639) can0 186#00004C1D010F0000
(1763085650.196049) can0 189#4A029F01C70100C9
(1763085650.198828) can0 382#0000000000000000
(1763085650.199115) can0 000A0003#FF5DFFE010420000
(1763085650.199402) can0 000A0004#FFF6FFDFFFB38E02
(1763085650.205644) can0 189#4A029F01C80100C9
(1763085650.208985) can0 000A0003#FF5BFFDF10440000
(1763085650.209269) can0 000A0004#FFF6FFDFFFB48E02
(1763085650.214871) can0 701#05
(1763085650.215195) can0 482#0000000008140001
(1763085650.215639) can0 189#4A02A101C80100C9
(1763085650.218503) can0 1A0#000000000100
(1763085650.218977) can0 000A0003#FF5BFFE010450000
(1763085650.219267) can0 000A0004#FFF5FFE0FFB58E02
(1763085650.219990) can0 000A0000#0000000000000000
(1763085650.220290) can0 000A0001#0000000000000000
(1763085650.220589) can0 000A0002#0000000000000000
(1763085650.220813) can0 1A5#0000940D000000
(1763085650.221064) can0 382#0000000000000000
(1763085650.221313) can0 181#810100207F000009
(1763085650.225644) can0 189#4902A001C80100C9
(1763085650.228976) can0 000A0003#FF5CFFE010470000
(1763085650.229260) can0 000A0004#FFF6FFDFFFB58E02
(1763085650.230529) can0 1A4#0000120A000000
(1763085650.230764) can0 2A3#1014151615160F0C
(1763085650.231479) can0 281#0000000000000000
(1763085650.231728) can0 682#3D45240400000000
(1763085650.235637) can0 186#00004C1D01000000
(1763085650.236031) can0 189#49029F01C80100C9
(1763085650.236955) can0 482#0000000008140001
(1763085650.237101) can0 701#05
(1763085650.238698) can0 1A2#0000BB0D000000
(1763085650.238989) can0 000A0003#FF5DFFDF10460000
(1763085650.239277) can0 000A0004#FFF6FFE0FFB58E02
(1763085650.239505) can0 2A1#151617171718160D
(1763085650.239744) can0 4C4#04C704C604C004BE
(1763085650.240115) can0 4C5#04BA04BF04C804CD
(1763085650.241126) can0 4C6#04C504CD04C504B8
(1763085650.242148) can0 4C7#04BF04C004C504C7
(1763085650.242397) can0 382#0000000000000000
(1763085650.243172) can0 4C8#04A1000000000000
(1763085650.245640) can0 189#49029F01C60100DB
(1763085650.248985) can0 000A0003#FF5EFFDD10460000
(1763085650.249268) can0 000A0004#FFF7FFDFFFB58E02
(1763085650.255657) can0 189#49029E01C70100DB
(1763085650.255884) can0 080#
(1763085650.257038) can0 286#6400900100000000
(1763085650.258609) can0 701#05
(1763085650.258891) can0 181#810100207F000009
(1763085650.259175) can0 000A0003#FF5EFFDB10470000
(1763085650.259462) can0 000A0004#FFF7FFE0FFB58E02
(1763085650.259709) can0 482#0000000008140001
(1763085650.264337) can0 382#0000000000000000
(1763085650.265192) can0 188#0C005C3200000000
(1763085650.265636) can0 189#49029E01C80100DB
(1763085650.265978) can0 288#6129432200140000
(1763085650.266976) can0 388#2122222122000000
(1763085650.267936) can0 191#999999999998
(1763085650.268978) can0 000A0003#FF5DFFD910490000
(1763085650.269264) can0 000A0004#FFF6FFDFFFB68E02
(1763085650.269461) can0 192#989999999998
(1763085650.269918) can0 193#999999999999
(1763085650.270929) can0 194#999999999999
(1763085650.271932) can0 195#999999999999
(1763085650.272518) can0 682#3D45240400000000
(1763085650.272931) can0 291#0F0F0F0F0F0F
(1763085650.273934) can0 292#0F0F0F10100F
(1763085650.274931) can0 293#10100F101010
(1763085650.275185) can0 281#0000000000000000
(1763085650.275619) can0 186#A4F74C1D09010000
(1763085650.275943) can0 294#101010101010
(1763085650.276175) can0 189#46029D01C60100DB
(1763085650.276947) can0 295#101010111010
(1763085650.278985) can0 000A0003#FF5CFFDB104A0000
(1763085650.279269) can0 000A0004#FFF7FFDEFFB68E02
(1763085650.280382) can0 701#05
(1763085650.280706) can0 482#0000000008140001
(1763085650.285639) can0 189#49029F01C80100DB
(1763085650.286159) can0 382#0000000000000000
(1763085650.288984) can0 000A0003#FF5BFFDC104A0000
(1763085650.289270) can0 000A0004#FFF6FFDFFFB68E02
(1763085650.291800) can0 1A3#40007A09000000
(1763085650.295639) can0 189#49029F01C60100DB
(1763085650.296987) can0 181#910132247F00000D
(1763085650.298989) can0 000A0003#FF5AFFDD104A0000
(1763085650.299274) can0 000A0004#FFF5FFE3FFB58E02
(1763085650.302438) can0 482#0000000028340001
(1763085650.302558) can0 701#05
(1763085650.304262) can0 4C4#04CC04C504BA04BD
(1763085650.305275) can0 4C5#04B904BE04BF04C8
(1763085650.305636) can0 189#49029F01C60100DB
(1763085650.306291) can0 4C6#04C404C004C404B7
(1763085650.307306) can0 4C7#04BA04BF04C404C0
(1763085650.307920) can0 382#0000000000000000
(1763085650.308331) can0 4C8#04A1000000000000
(1763085650.308984) can0 000A0003#FF59FFDF10490000
(1763085650.309271) can0 000A0004#FFF5FFE3FFB68E02
(1763085650.313472) can0 682#3D45230432040000
(1763085650.315619) can0 186#A4F74C1D09020000
(1763085650.316043) can0 189#49029D01C50100DB
(1763085650.318505) can0 1A0#000000000100
(1763085650.318915) can0 281#0000000000000000
(1763085650.319205) can0 000A0003#FF58FFDF10480000
(1763085650.319491) can0 000A0004#FFF4FFE3FFB68E02
(1763085650.319995) can0 000A0000#0000000000000000
(1763085650.320293) can0 000A0001#0000000000000000
(1763085650.320591) can0 000A0002#0000000000000000
(1763085650.321381) can0 701#05
(1763085650.321664) can0 482#0000000028340001
(1763085650.322958) can0 1A5#0000940D000000
(1763085650.325629) can0 189#48029E01C60100DB
(1763085650.328988) can0 000A0003#FF58FFDE10480000
(1763085650.329274) can0 000A0004#FFF4FFE3FFB68E02
(1763085650.329860) can0 382#0000000000000000
(1763085650.335284) can0 181#910132247F00000D
(1763085650.335638) can0 189#49029F01C80100DB
(1763085650.337438) can0 1A4#0000120A000000
(1763085650.337623) can0 2A3#1114151615160F0D
(1763085650.338994) can0 000A0003#FF57FFDE10490000
(1763085650.339274) can0 000A0004#FFF4FFE4FFB58E02
(1763085650.343379) can0 482#0000000028340001
(1763085650.343496) can0 701#05
(1763085650.345630) can0 189#49029F01C70100DB
(1763085650.346224) can0 1A2#0000BB0D000000
(1763085650.346452) can0 2A1#151617171718160D
(1763085650.348982) can0 000A0003#FF57FFDE104A0000
(1763085650.349268) can0 000A0004#FFF4FFE5FFB58E02
(1763085650.351492) can0 19A#00007C69787F7D7D
(1763085650.351743) can0 382#0000000000000000
(1763085650.352461) can0 29A#7F77857D81850000
(1763085650.354410) can0 682#3D45240432040000
(1763085650.355642) can0 186#A4F74C1D09030000
(1763085650.356039) can0 189#49029D01C40100DB
(1763085650.356869) can0 080#
(1763085650.358024) can0 286#6400900100000000
(1763085650.358984) can0 000A0003#FF56FFDD104C0000
(1763085650.359269) can0 000A0004#FFF4FFE4FFB58E02
(1763085650.362715) can0 482#0000000028340001
(1763085650.362834) can0 701#05
(1763085650.365198) can0 188#0C00873100000000
(1763085650.365452) can0 281#0000000000000000
(1763085650.365684) can0 189#49029F01C50100DB
(1763085650.365966) can0 288#6129432A00140000
(1763085650.366965) can0 388#2122222122000000
(1763085650.367896) can0 191#999999999998
(1763085650.368984) can0 000A0003#FF56FFDD104C0000
(1763085650.369268) can0 000A0004#FFF5FFE4FFB58E02
(1763085650.369465) can0 192#989999999998
(1763085650.369700) can0 4C4#04CC04C504BA04BD
(1763085650.369938) can0 193#999999999999
(1763085650.370428) can0 4C5#04B904BE04BF04C8
(1763085650.370878) can0 382#0000000000000000
(1763085650.371074) can0 194#999999999999
(1763085650.371442) can0 4C6#04C404C004C404B7
(1763085650.371908) can0 195#999999999999
(1763085650.372456) can0 4C7#04BA04BF04C404C0
(1763085650.372940) can0 291#0F0F0F0F0F0F
(1763085650.373482) can0 4C8#04A1000000000000
(1763085650.373718) can0 181#910132247F00000D
(1763085650.373943) can0 292#0F0F0F10100F
(1763085650.374922) can0 293#10100F101010
(1763085650.375626) can0 189#47029E01C50100DB
(1763085650.375933) can0 294#101010101010
(1763085650.376905) can0 295#101010111010
(1763085650.378993) can0 000A0003#FF56FFDD104D0000
(1763085650.379277) can0 000A0004#FFF5FFE0FFB68E02
(1763085650.384323) can0 482#0000000028340001
(1763085650.384441) can0 701#05
(1763085650.385624) can0 189#49029E01C50100DB
(1763085650.388993) can0 000A0003#FF57FFDF104E0000
(1763085650.389279) can0 000A0004#FFF5FFE0FFB68E02
(1763085650.392592) can0 382#0000000000000000
(1763085650.392828) can0 1A3#40007A09000000
(1763085650.395614) can0 186#ABF74C1D09040000
(1763085650.396035) can0 189#48029F01C50100DB
(1763085650.398176) can0 682#3D45230432040000
(1763085650.398993) can0 000A0003#FF58FFDD104D0000
(1763085650.399279) can0 000A0004#FFF5FFDEFFB58E02
(1763085650.405625) can0 189#49029E01C60100DB
(1763085650.405957) can0 701#05
(1763085650.406302) can0 482#0000000028340001
(1763085650.408994) can0 000A0003#FF59FFDC104C0000
(1763085650.409278) can0 000A0004#FFF6FFDEFFB58E02
(1763085650.409530) can0 281#0000000000000000
(1763085650.411628) can0 181#910132247F00000D
(1763085650.414358) can0 382#0000000000000000
(1763085650.415625) can0 189#49029F01C60100DB
(1763085650.418505) can0 1A0#000000000100
(1763085650.418993) can0 000A0003#FF59FFD9104A0000
(1763085650.419280) can0 000A0004#FFF5FFDFFFB48E02
(1763085650.420004) can0 000A0000#0000000000000000
(1763085650.420304) can0 000A0001#0000000000000000
(1763085650.420603) can0 000A0002#0000000000000000
(1763085650.425102) can0 1A5#0000940D000000
(1763085650.425622) can0 189#48029F01C50100DB
(1763085650.427830) can0 701#05
(1763085650.428113) can0 482#0000000028340001
(1763085650.428997) can0 000A0003#FF5AFFD510470000
(1763085650.429283) can0 000A0004#FFF6FFDFFFB58E02
(1763085650.434575) can0 4C4#04C604BF04C404BD
(1763085650.435587) can0 4C5#04B504BE04BF04CC
(1763085650.435820) can0 186#A4F74C1D09050000
(1763085650.436050) can0 189#49029E01C40100DB
(1763085650.436425) can0 382#0000000000000000
(1763085650.436658) can0 4C6#04CC04C804BC04BB
(1763085650.437616) can0 4C7#04BF04BA04BF04C6
(1763085650.438644) can0 4C8#04A1000000000000
(1763085650.438999) can0 000A0003#FF5AFFD510450000
(1763085650.439289) can0 000A0004#FFF5FFDFFFB48E02
(1763085650.439525) can0 682#3D45240432040000
(1763085650.444259) can0 1A4#0000120A000000
(1763085650.444489) can0 2A3#1114161615160F0D
(1763085650.445621) can0 189#48029F01C60100DB
(1763085650.448996) can0 000A0003#FF59FFD310440000
(1763085650.449281) can0 000A0004#FFF5FFDFFFB38E02
(1763085650.449827) can0 482#0000000028340001
(1763085650.449959) can0 701#05
(1763085650.450191) can0 181#910132247F00000D
(1763085650.452569) can0 281#0000000000000000
(1763085650.453732) can0 1A2#0000BB0D000000
(1763085650.453975) can0 2A1#151617171718160D
(1763085650.455636) can0 189#48029F01C40100DB
(1763085650.455871) can0 080#
(1763085650.457022) can0 286#6400900100000000
(1763085650.458157) can0 382#0000000000000000
(1763085650.459001) can0 000A0003#FF58FFD410420000
(1763085650.459287) can0 000A0004#FFF5FFDFFFB38E02
(1763085650.465194) can0 188#0C00E63100000000
(1763085650.465620) can0 189#48029F01C40100DB
(1763085650.465979) can0 288#6029432A00140000
(1763085650.466959) can0 388#2122222122000000
(1763085650.467921) can0 191#999999999998
(1763085650.469002) can0 000A0003#FF58FFD510410000
(1763085650.469289) can0 000A0004#FFF4FFDFFFB48E02
(1763085650.469485) can0 192#989999999998
(1763085650.469933) can0 193#999999999999
(1763085650.470915) can0 194#999999999999
(1763085650.471456) can0 701#05
(1763085650.471808) can0 482#0000000028340001
(1763085650.471998) can0 195#999999999999
(1763085650.472947) can0 291#0F0F0F0F0F0F
(1763085650.473956) can0 292#0F0F0F10100F
(1763085650.474944) can0 293#10100F101010
(1763085650.475604) can0 186#A4F74C1D09060000
(1763085650.475927) can0 294#101010101010
(1763085650.476159) can0 189#47029E01C10100DB
(1763085650.476930) can0 295#101010111010
(1763085650.479001) can0 000A0003#FF58FFD510400000
(1763085650.479289) can0 000A0004#FFF4FFDFFFB48E02
(1763085650.479867) can0 382#0000000000000000
(1763085650.480161) can0 682#3D45240432040000
(1763085650.485620) can0 189#48029F01C40100DB
(1763085650.488118) can0 181#910132247F00000D
(1763085650.488998) can0 000A0003#FF59FFD3103E0000
(1763085650.489285) can0 000A0004#FFF0FFDFFFB48E02
(1763085650.493338) can0 701#05
(1763085650.493621) can0 482#0000000028340001
(1763085650.493842) can0 1A3#40007A09000000
(1763085650.495619) can0 189#49029F01C40100DB
(1763085650.496266) can0 281#0000000000000000
(1763085650.499006) can0 000A0003#FF58FFD0103A0000
(1763085650.499292) can0 000A0004#FFF0FFDFFFB48E02
(1763085650.499738) can0 4C4#04C604BF04BF04BD
(1763085650.500750) can0 4C5#04B904C204BF04CC
(1763085650.501766) can0 4C6#04D004C804C004BB
(1763085650.502016) can0 382#0000000000000000
(1763085650.502779) can0 4C7#04BE04C404C404C0
(1763085650.503807) can0 4C8#04A1000000000000
(1763085650.505618) can0 189#47029F01C40100DB
(1763085650.509003) can0 000A0003#FF57FFCE10350000
(1763085650.509291) can0 000A0004#FFF0FFDFFFB48E02
(1763085650.515337) can0 482#0000000028340001
(1763085650.515457) can0 701#05
(1763085650.515688) can0 186#A4F74C1D09070000
(1763085650.516042) can0 189#49029E01C30100DB
(1763085650.518508) can0 1A0#000000000100
(1763085650.519002) can0 000A0003#FF57FFCD10350000
(1763085650.519286) can0 000A0004#FFF0FFDFFFB38E02
(1763085650.520016) can0 000A0000#0000000000000000
(1763085650.520317) can0 000A0001#0000000000000000
(1763085650.520616) can0 000A0002#0000000000000000
(1763085650.520923) can0 682#3D45230432040000
(1763085650.523564) can0 382#0000000000000000
(1763085650.525614) can0 189#48029F01C30100DB
(1763085650.526275) can0 181#910132247F00000D
(1763085650.527249) can0 1A5#0000940D000000
(1763085650.529001) can0 000A0003#FF58FFCD10340000
(1763085650.529289) can0 000A0004#FFF2FFE1FFB38E02
(1763085650.535616) can0 189#49029F01C30100DB
(1763085650.536954) can0 701#05
(1763085650.537312) can0 482#0000000028340001
(1763085650.539010) can0 000A0003#FF58FFCC10330000
(1763085650.539293) can0 000A0004#FFF0FFDCFFB38E02
(1763085650.539993) can0 281#0000000000000000
(1763085650.545376) can0 382#0000000000000000
(1763085650.545621) can0 189#49029F01C30100DB
(1763085650.549005) can0 000A0003#FF58FFCC10330000
(1763085650.549287) can0 000A0004#FFF0FFDBFFB38E02
(1763085650.551122) can0 1A4#0000120A000000
(1763085650.551353) can0 2A3#1114161615160F0D
(1763085650.555624) can0 186#A4F74C1D09080000
(1763085650.556019) can0 189#49029D01C30100DB
(1763085650.556885) can0 080#
(1763085650.557488) can0 19A#00007C83717C7E7F
(1763085650.558037) can0 286#6400900100000000
(1763085650.558487) can0 29A#836A838181820000
(1763085650.559003) can0 000A0003#FF59FFCB10330000
(1763085650.559287) can0 000A0004#FFF0FFDCFFB38E02
(1763085650.559406) can0 701#05
(1763085650.559654) can0 482#0000000028340001
(1763085650.561238) can0 1A2#0000BB0D000000
(1763085650.561466) can0 2A1#151617171718160D
(1763085650.564487) can0 682#3D45240432040000
(1763085650.564758) can0 181#910132247F00000D
(1763085650.564994) can0 4C4#04C604BF04BF04BD
(1763085650.565241) can0 188#0C00D03100000000
(1763085650.565612) can0 189#48029D01C20100DB
(1763085650.565906) can0 4C5#04B904C204BF04CC
(1763085650.566143) can0 288#6029432900140000
(1763085650.566919) can0 4C6#04D004C804C004BB
(1763085650.567159) can0 388#2122222122000000
(1763085650.567935) can0 4C7#04BE04C404C404C0
(1763085650.568127) can0 191#999999999998
(1763085650.568961) can0 4C8#04A1000000000000
(1763085650.569249) can0 000A0003#FF5CFFCA10350000
(1763085650.569532) can0 000A0004#FFF0FFDCFFB48E02
(1763085650.569728) can0 192#989999999998
(1763085650.569980) can0 382#0000000000000000
(1763085650.570170) can0 193#999999999999
(1763085650.570903) can0 194#999999999999
(1763085650.571904) can0 195#999999999999
(1763085650.572936) can0 291#0F0F0F0F0F0F
(1763085650.573981) can0 292#0F0F0F10100F
(1763085650.574922) can0 293#10100F101010
(1763085650.575608) can0 189#47029E01C10100DB
(1763085650.575934) can0 294#101010101010
(1763085650.576938) can0 295#101010111010
(1763085650.579014) can0 000A0003#FF5EFFC910360000
(1763085650.579299) can0 000A0004#FFF0FFDBFFB48E02
(1763085650.580843) can0 482#0000000028340001
(1763085650.580964) can0 701#05
(1763085650.583584) can0 281#0000000000000000
(1763085650.585609) can0 189#49029F01C10100DB
(1763085650.589015) can0 000A0003#FF5FFFC910370000
(1763085650.589302) can0 000A0004#FFF0FFD7FFB48E02
(1763085650.591891) can0 382#0000000000000000
(1763085650.594799) can0 1A3#40007A09000000
(1763085650.595589) can0 186#A4F74C1D09090000
(1763085650.596050) can0 189#48029F01C20100DB
(1763085650.599016) can0 000A0003#FF60FFC810370000
(1763085650.599300) can0 000A0004#FFF1FFD8FFB48E02
(1763085650.602462) can0 701#05
(1763085650.602774) can0 181#910132247F00000D
(1763085650.603023) can0 482#0000000028340001
(1763085650.605430) can0 682#3D45230432040000
(1763085650.605662) can0 189#49029F01C30100DB
(1763085650.609016) can0 000A0003#FF60FFC710330000
(1763085650.609300) can0 000A0004#FFF5FFD9FFB58E02
(1763085650.613635) can0 382#0000000000000000
(1763085650.615608) can0 189#49029F01C10100DB
(1763085650.618520) can0 1A0#000000000100
(1763085650.619012) can0 000A0003#FF5FFFC710310000
(1763085650.619299) can0 000A0004#FFF4FFDAFFB58E02
(1763085650.620024) can0 000A0000#0000000000000000
(1763085650.620326) can0 000A0001#0000000000000000
(1763085650.620625) can0 000A0002#0000000000000000
(1763085650.624421) can0 701#05
(1763085650.624652) can0 482#0000000028340001
(1763085650.625649) can0 189#47029F01C00100DB
(1763085650.627323) can0 281#0000000000000000
(1763085650.629029) can0 000A0003#FF5EFFC810310000
(1763085650.629303) can0 000A0004#FFF5FFDAFFB58E02
(1763085650.629526) can0 1A5#0000940D000000
(1763085650.630060) can0 4C4#04C604C504C404BD
(1763085650.631069) can0 4C5#04B504BE04C304CC
(1763085650.632083) can0 4C6#04CC04C804C004B2
(1763085650.633092) can0 4C7#04BE04B604C404C6
(1763085650.634119) can0 4C8#04A1000000000000
(1763085650.635447) can0 382#0000000000000000
(1763085650.635676) can0 186#A4F74C1D090A0000
(1763085650.636067) can0 189#46029E01C00100DB
(1763085650.639019) can0 000A0003#FF5CFFC810310000
(1763085650.639303) can0 000A0004#FFF5FFDAFFB58E02
(1763085650.640900) can0 181#910132247F00000D
(1763085650.643600) can0 701#05
(1763085650.645602) can0 189#49029F01C30100DB
(1763085650.646358) can0 482#0000000028340001
(1763085650.646599) can0 682#3D45240432040000
(1763085650.649013) can0 000A0003#FF5BFFC610320000
(1763085650.649297) can0 000A0004#FFF5FFDAFFB58E02
(1763085650.655621) can0 189#49029F01C10100DB
(1763085650.655889) can0 080#
(1763085650.657036) can0 286#6400900100000000
(1763085650.657417) can0 382#0000000000000000
(1763085650.658008) can0 1A4#0000120A000000
(1763085650.658236) can0 2A3#1115161615160F0D
(1763085650.659017) can0 000A0003#FF5AFFC610310000
(1763085650.659303) can0 000A0004#FFF4FFDEFFB48E02
(1763085650.665181) can0 188#0C00013200000000
(1763085650.665297) can0 701#05
(1763085650.665631) can0 189#47029F01C20100DB
(1763085650.665975) can0 288#6129432A00140000
(1763085650.666971) can0 388#2122222122000000
(1763085650.667933) can0 191#999999999998
(1763085650.668310) can0 482#0000000028340001
(1763085650.668733) can0 1A2#0000BB0D000000
(1763085650.669021) can0 000A0003#FF58FFC8102F0000
(1763085650.669309) can0 000A0004#FFF5FFDFFFB48E02
(1763085650.669506) can0 192#989999999998
(1763085650.669734) can0 2A1#151617171718160D
(1763085650.669924) can0 193#999999999999
(1763085650.670927) can0 194#999999999999
(1763085650.671179) can0 281#0000000000000000
(1763085650.671929) can0 195#999999999999
(1763085650.672958) can0 291#0F0F0F0F0F0F
(1763085650.673933) can0 292#0F0F0F10100F
(1763085650.674927) can0 293#10100F101010
(1763085650.675585) can0 186#A4F74C1D090B0000
(1763085650.675940) can0 294#101010101010
(1763085650.676175) can0 189#45029E01C10100DB
(1763085650.676943) can0 295#101010111010
(1763085650.679019) can0 000A0003#FF58FFCA102D0000
(1763085650.679307) can0 000A0004#FFF5FFE0FFB38E02
(1763085650.679559) can0 382#0000000000000000
(1763085650.679798) can0 181#910132247F00000D
(1763085650.685601) can0 189#48029F01C00100DB
(1763085650.687068) can0 701#05
(1763085650.687381) can0 682#3D45240432040000
(1763085650.689019) can0 000A0003#FF59FFCA102B0000
(1763085650.689313) can0 000A0004#FFF5FFE0FFB38E02
(1763085650.690113) can0 482#0000000028340001
(1763085650.695192) can0 4C4#04C604C504C404BD
(1763085650.695599) can0 189#47029F01C10100DB
(1763085650.695823) can0 1A3#40007A09000000
(1763085650.696207) can0 4C5#04B504BE04C304CC
(1763085650.697219) can0 4C6#04CC04C804C004B2
(1763085650.698235) can0 4C7#04BE04B604C404C6
(1763085650.699017) can0 000A0003#FF5AFFCB102B0000
(1763085650.699305) can0 000A0004#FFF5FFE4FFB38E02
(1763085650.699549) can0 4C8#04A1000000000000
(1763085650.700953) can0 382#0000000000000000
(1763085650.705601) can0 189#49029F01C00100DB
(1763085650.709023) can0 000A0003#FF59FFCB102A0000
(1763085650.709310) can0 000A0004#FFF6FFE3FFB38E02
(1763085650.709424) can0 701#05
(1763085650.711861) can0 482#0000000028340001
(1763085650.714601) can0 281#0000000000000000
(1763085650.715584) can0 186#ABF74C1D090C0000
(1763085650.716050) can0 189#49029D01C00100DB
(1763085650.717422) can0 181#910132247F00000D
(1763085650.718511) can0 1A0#000000000100
(1763085650.719020) can0 000A0003#FF5AFFCB102A0000
(1763085650.719306) can0 000A0004#FFF6FFE3FFB38E02
(1763085650.720034) can0 000A0000#0000000000000000
(1763085650.720334) can0 000A0001#0000000000000000
(1763085650.720632) can0 000A0002#0000000000000000
(1763085650.722909) can0 382#0000000000000000
(1763085650.725600) can0 189#48029F01C10100DB
(1763085650.728257) can0 682#3D45240432040000
(1763085650.729019) can0 000A0003#FF5BFFCE102B0000
(1763085650.729306) can0 000A0004#FFF6FFE3FFB28E02
(1763085650.730926) can0 701#05
(1763085650.731222) can0 482#0000000028340001
(1763085650.731572) can0 1A5#0000940D000000
(1763085650.735601) can0 189#47029F01C00100DB
(1763085650.739031) can0 000A0003#FF5CFFCE102B0000
(1763085650.739316) can0 000A0004#FFF6FFE3FFB28E02
(1763085650.744654) can0 382#0000000000000000
(1763085650.745598) can0 189#48029F01C00100DB
(1763085650.749026) can0 000A0003#FF5EFFCD102B0000
(1763085650.749308) can0 000A0004#FFF6FFDEFFB38E02
(1763085650.752802) can0 482#0000000028340001
(1763085650.752920) can0 701#05
(1763085650.755544) can0 181#910132247F00000D
(1763085650.755772) can0 186#A4F74C1D090D0000
(1763085650.756039) can0 189#49029F01BD0100DB
(1763085650.756904) can0 080#
(1763085650.758025) can0 286#6400900100000000
(1763085650.758464) can0 281#0000000000000000
(1763085650.759030) can0 000A0003#FF5FFFCC102C0000
(1763085650.759316) can0 000A0004#FFF6FFDFFFB38E02
(1763085650.760341) can0 4C4#04C704C604C504BE
(1763085650.761353) can0 4C5#04BA04BF04C804CD
(1763085650.762366) can0 4C6#04C504C904BD04BC
(1763085650.763385) can0 4C7#04BB04BB04C004C1
(1763085650.763623) can0 19A#00007D78687C8381
(1763085650.764409) can0 4C8#04A1000000000000
(1763085650.764649) can0 29A#826C837F81810000
(1763085650.764875) can0 1A4#0000120A000000
(1763085650.765106) can0 2A3#1115161616160F0D
(1763085650.765352) can0 188#0C00D03100000000
(1763085650.765599) can0 189#47029D01BC0100DB
(1763085650.765988) can0 288#6029432A00140000
(1763085650.766529) can0 382#0000000000000000
(1763085650.766983) can0 388#2122222122000000
(1763085650.767942) can0 191#999999999998
(1763085650.768924) can0 192#989999999998
(1763085650.769213) can0 000A0003#FF5FFFCA102C0000
(1763085650.769499) can0 000A0004#FFF6FFDFFFB38E02
(1763085650.769738) can0 682#3D45230432040000
(1763085650.769929) can0 193#999999999999
(1763085650.770935) can0 194#999999999999
(1763085650.771939) can0 195#989999999999
(1763085650.772939) can0 291#0F0F0F0F0F0F
(1763085650.773941) can0 292#0F0F0F10100F
(1763085650.774425) can0 701#05
(1763085650.774778) can0 482#0000000028340001
(1763085650.774975) can0 293#10100F101010
(1763085650.775587) can0 189#48029C01BB0100DB
(1763085650.775947) can0 294#101010101010
(1763085650.776235) can0 1A2#0000BB0D000000
(1763085650.776463) can0 2A1#151617171718160D
(1763085650.776949) can0 295#101010111010
(1763085650.779037) can0 000A0003#FF5FFFC9102C0000
(1763085650.779323) can0 000A0004#FFF6FFDFFFB48E02
(1763085650.785596) can0 189#49029F01BB0100DB
(1763085650.788415) can0 382#0000000000000000
(1763085650.789036) can0 000A0003#FF5EFFC9102A0000
(1763085650.789321) can0 000A0004#FFF7FFE2FFB48E02
(1763085650.793838) can0 181#910132247F00000D
(1763085650.795580) can0 186#ABF74C1D090E0000
(1763085650.796035) can0 189#49029E01B90100DB
(1763085650.796375) can0 701#05
(1763085650.796697) can0 482#0000000028340001
(1763085650.796921) can0 1A3#40007A09000000
(1763085650.799031) can0 000A0003#FF5EFFC910290000
(1763085650.799315) can0 000A0004#FFF7FFE2FFB58E02
(1763085650.802026) can0 281#0000000000000000
(1763085650.805593) can0 189#49029F01BA0100DB
(1763085650.807407) can0 382#0000000000000000
(1763085650.809033) can0 000A0003#FF5FFFCA102A0000
(1763085650.809319) can0 000A0004#FFF7FFE2FFB48E02
(1763085650.810141) can0 682#3D45240432040000
(1763085650.815590) can0 189#49029F01B70100DB
(1763085650.818304) can0 482#0000000028340001
(1763085650.818512) can0 1A0#000000000100
(1763085650.818628) can0 701#05
(1763085650.819032) can0 000A0003#FF60FFCB102B0000
(1763085650.819318) can0 000A0004#FFF7FFE2FFB58E02
(1763085650.820042) can0 000A0000#0000000000000000
(1763085650.820342) can0 000A0001#0000000000000000
(1763085650.820640) can0 000A0002#0000000000000000
(1763085650.825513) can0 4C4#04C704CB04CA04BE
(1763085650.825745) can0 189#49029E01B70100DB
(1763085650.826527) can0 4C5#04BF04BF04C804D1
(1763085650.827538) can0 4C6#04CD04C904C104BC
(1763085650.828554) can0 4C7#04BB04C504C504C1
(1763085650.829038) can0 000A0003#FF5FFFCB102C0000
(1763085650.829324) can0 000A0004#FFF7FFDEFFB58E02
(1763085650.829574) can0 382#0000000000000000
(1763085650.829818) can0 4C8#04A1000000000000
(1763085650.832026) can0 181#910132247F00000D
(1763085650.833721) can0 1A5#0000940D000000
(1763085650.835574) can0 186#A4F74C1D090F0000
(1763085650.836050) can0 189#48029D01B50100DB
(1763085650.837289) can0 701#05
(1763085650.837613) can0 482#0000000028340001
(1763085650.839042) can0 000A0003#FF5EFFCB102D0000
(1763085650.839327) can0 000A0004#FFF7FFDEFFB58E02
(1763085650.845588) can0 189#4902A001B50100DB
(1763085650.845838) can0 281#0000000000000000
(1763085650.849035) can0 000A0003#FF5EFFCD102D0000
(1763085650.849321) can0 000A0004#FFF7FFDEFFB58E02
(1763085650.851085) can0 682#3D45240432040000
(1763085650.851367) can0 382#0000000000000000
(1763085650.855607) can0 189#48029F01B40100DB
(1763085650.855907) can0 080#
(1763085650.857025) can0 286#6400900100000000
(1763085650.859036) can0 000A0003#FF5EFFCF102C0000
(1763085650.859323) can0 000A0004#FFF8FFDFFFB68E02
(1763085650.861816) can0 701#05
(1763085650.862100) can0 482#0000000028340001
(1763085650.865224) can0 188#0C001C3200000000
(1763085650.865584) can0 189#48029E01B30100DB
(1763085650.865980) can0 288#6029432A00140000
(1763085650.866988) can0 388#2122222122000000
(1763085650.867920) can0 191#999999999998
(1763085650.868932) can0 192#989999999998
(1763085650.869218) can0 000A0003#FF5DFFD1102D0000
(1763085650.869506) can0 000A0004#FFF8FFE0FFB68E02
(1763085650.869932) can0 193#999999999999
(1763085650.870237) can0 181#910132247F00000D
(1763085650.870942) can0 194#999999999999
(1763085650.871733) can0 1A4#0000120A000000
(1763085650.871923) can0 195#989999999999
(1763085650.872153) can0 2A3#1115161616160F0D
(1763085650.872936) can0 382#0000000000000000
(1763085650.873149) can0 291#0F0F0F0F0F0F
(1763085650.873962) can0 292#0F0F0F10100F
(1763085650.874944) can0 293#10100F101010
(1763085650.875568) can0 186#A4F74C1D09000000
(1763085650.875958) can0 294#101010101010
(1763085650.876188) can0 189#47029C01B10100DB
(1763085650.876930) can0 295#101010111010
(1763085650.879039) can0 000A0003#FF5CFFD2102D0000
(1763085650.879326) can0 000A0004#FFF7FFE0FFB58E02
(1763085650.883758) can0 1A2#0000BB0D000000
(1763085650.883984) can0 2A1#151617171718160D
(1763085650.884230) can0 482#0000000028340001
(1763085650.884350) can0 701#05
(1763085650.885581) can0 189#46029E01B40100DB
(1763085650.889042) can0 000A0003#FF59FFD0102F0000
(1763085650.889326) can0 000A0004#FFF7FFE1FFB58E02
(1763085650.889579) can0 281#0000000000000000
(1763085650.890682) can0 4C4#04C604CA04C904BD
(1763085650.891697) can0 4C5#04BE04BE04C704D0
(1763085650.892074) can0 682#3D45240432040000
(1763085650.892712) can0 4C6#04CC04C804C004BB
(1763085650.893722) can0 4C7#04BA04C404C404C0
(1763085650.894752) can0 4C8#04A1000000000000
(1763085650.895001) can0 382#0000000000000000
(1763085650.895581) can0 189#47029D01B40100DB
(1763085650.897767) can0 1A3#40007A09000000
(1763085650.899041) can0 000A0003#FF57FFCD10310000
(1763085650.899325) can0 000A0004#FFF7FFDEFFB68E02
(1763085650.905430) can0 701#05
(1763085650.905666) can0 189#49029F01B60100DB
(1763085650.905913) can0 482#0000000028340001
(1763085650.908472) can0 181#910132247F00000D
(1763085650.909041) can0 000A0003#FF56FFCA10310000
(1763085650.909327) can0 000A0004#FFF7FFDEFFB58E02
(1763085650.915568) can0 186#A4F74C1D09010000
(1763085650.916065) can0 189#47029F01B30100DB
(1763085650.916718) can0 382#0000000000000000
(1763085650.918515) can0 1A0#000000000100
(1763085650.919046) can0 000A0003#FF55FFC810310000
(1763085650.919332) can0 000A0004#FFF7FFDEFFB58E02
(1763085650.920058) can0 000A0000#0000000000000000
(1763085650.920358) can0 000A0001#0000000000000000
(1763085650.920656) can0 000A0002#0000000000000000
(1763085650.925581) can0 189#48029F01B30100DB
(1763085650.927326) can0 701#05
(1763085650.927608) can0 482#0000000028340001
(1763085650.929044) can0 000A0003#FF53FFCA102F0000
(1763085650.929330) can0 000A0004#FFF6FFDFFFB58E02
(1763085650.932965) can0 682#3D45240432040000
(1763085650.933252) can0 281#0000000000000000
(1763085650.935581) can0 189#47029F01B40100DB
(1763085650.935883) can0 1A5#0000940D000000
(1763085650.938418) can0 382#0000000000000000
(1763085650.939042) can0 000A0003#FF51FFCC102D0000
(1763085650.939332) can0 000A0004#FFF6FFE0FFB58E02
(1763085650.945579) can0 189#48029F01B30100DB
(1763085650.946667) can0 181#910132247F00000D
(1763085650.946787) can0 701#05
(1763085650.949042) can0 000A0003#FF52FFCB102F0000
(1763085650.949327) can0 000A0004#FFF6FFDCFFB58E02
(1763085650.949573) can0 482#0000000028340001
(1763085650.952476) can0 19A#00007E716A7E7D7D
(1763085650.953477) can0 29A#7E75858284820000
(1763085650.955590) can0 186#A4F74C1D09020000
(1763085650.955831) can0 4C4#04C604C504C404C2
(1763085650.956062) can0 189#47029E01B30100DB
(1763085650.956847) can0 4C5#04B904BE04BF04D0
(1763085650.956953) can0 080#
(1763085650.957859) can0 4C6#04C804C404BC04B7
(1763085650.958104) can0 286#6400900100000000
(1763085650.958876) can0 4C7#04BE04BA04C404CB
(1763085650.959164) can0 000A0003#FF52FFCA10310000
(1763085650.959450) can0 000A0004#FFF5FFDCFFB48E02
(1763085650.959904) can0 4C8#04A1000000000000
(1763085650.960455) can0 382#0000000000000000
(1763085650.965623) can0 189#48029F01B50100DB
(1763085650.968266) can0 701#05
(1763085650.968548) can0 482#0000000028340001
(1763085650.969046) can0 000A0003#FF55FFCD10320000
(1763085650.969331) can0 000A0004#FFF1FFDCFFB58E02
(1763085650.973924) can0 682#3D45230432040000
(1763085650.975577) can0 189#47029F01B40100DB
(1763085650.976636) can0 281#0000000000000000
(1763085650.978600) can0 1A4#0000120A000000
(1763085650.978830) can0 2A3#1115161616160F0D
(1763085650.979118) can0 000A0003#FF57FFD010330000
(1763085650.979406) can0 000A0004#FFF2FFDCFFB58E02
(1763085650.982112) can0 382#0000000000000000
(1763085650.984815) can0 181#910132247F00000D
(1763085650.985575) can0 189#47029F01B30100DB
(1763085650.989049) can0 000A0003#FF58FFD210330000
(1763085650.989335) can0 000A0004#FFF1FFDDFFB58E02
(1763085650.990266) can0 482#0000000028340001
(1763085650.990384) can0 701#05
(1763085650.991280) can0 1A2#0000BB0D000000
(1763085650.991508) can0 2A1#151617171718160D
(1763085650.995563) can0 186#A4F74C1D09030000
(1763085650.996050) can0 189#47029E01B20100DB
(1763085650.998747) can0 1A3#40007A09000000
(1763085650.999048) can0 000A0003#FF59FFD510340000
(1763085650.999334) can0 000A0004#FFF1FFDDFFB58E02
(1763085651.003928) can0 382#0000000000000000
(1763085651.005572) can0 189#47029E01B40100DB
(1763085651.009053) can0 000A0003#FF5AFFD510330000
(1763085651.009336) can0 000A0004#FFF6FFDEFFB48E02
(1763085651.011880) can0 701#05
(1763085651.012237) can0 482#0000000028340001
(1763085651.014850) can0 682#3D45240432040000
(1763085651.015574) can0 189#45029F01B30100DB
(1763085651.018515) can0 1A0#000000000100
(1763085651.019056) can0 000A0003#FF5AFFD510330000
(1763085651.019340) can0 000A0004#FFF7FFDEFFB48E02
(1763085651.019584) can0 188#0C00553100000000
(1763085651.019958) can0 288#6029431A00140000
(1763085651.020258) can0 000A0000#0000000000000000
(1763085651.020558) can0 000A0001#0000000000000000
(1763085651.020856) can0 000A0002#0000000000000000
(1763085651.021108) can0 281#0000000000000000
(1763085651.021346) can0 388#2122222122000000
(1763085651.021578) can0 4C4#04C604C504C404C2
(1763085651.021926) can0 191#999999999998
(1763085651.022158) can0 4C5#04B904BE04BF04D0
(1763085651.022904) can0 192#989999999998
(1763085651.023134) can0 4C6#04C804C404BC04B7
(1763085651.023384) can0 382#0000000000000000
(1763085651.023922) can0 193#999999999999
(1763085651.024154) can0 4C7#04BE04BA04C404CB
(1763085651.024934) can0 194#999999999999
(1763085651.025178) can0 4C8#04A1000000000000
(1763085651.025566) can0 189#44029C01B20100DB
(1763085651.025803) can0 181#910132247F00000D
(1763085651.025995) can0 195#989999999999
(1763085651.026970) can0 291#0F0F0F0F0F0F
(1763085651.027942) can0 292#0F0F0F10100F
(1763085651.028938) can0 293#10100F101010
(1763085651.029226) can0 000A0003#FF5CFFD510340000
(1763085651.029512) can0 000A0004#FFF7FFDEFFB58E02
(1763085651.029957) can0 294#101010101010
(1763085651.030954) can0 295#101010111010
(1763085651.033773) can0 701#05
(1763085651.034057) can0 482#0000000028340001
(1763085651.035562) can0 186#A4F74C1D09040000
(1763085651.036066) can0 189#3C029F01B20100DB
(1763085651.038022) can0 1A5#0000940D000000
(1763085651.039060) can0 000A0003#FF5FFFD410350000
(1763085651.039346) can0 000A0004#FFF6FFDFFFB58E02
(1763085651.044870) can0 382#0000000000000000
(1763085651.045572) can0 189#3802A001B30100DB
(1763085651.049055) can0 000A0003#FF60FFD110350000
(1763085651.049340) can0 000A0004#FFF6FFDFFFB58E02
(1763085651.055589) can0 189#3802A201B50100DB
(1763085651.055829) can0 482#0000000028340001
(1763085651.055932) can0 080#
(1763085651.056049) can0 701#05
(1763085651.056290) can0 682#3D45240432040000
(1763085651.057039) can0 286#6400900100000000
(1763085651.059061) can0 000A0003#FF60FFCE10350000
(1763085651.059351) can0 000A0004#FFF6FFE0FFB58E02
(1763085651.065213) can0 188#0C00CB3100000000
(1763085651.065573) can0 189#3902A001B30100DB
(1763085651.065975) can0 288#6029432A00140000
(1763085651.066758) can0 181#910132247F00000D
(1763085651.066995) can0 388#2122222122000000
(1763085651.067248) can0 281#0000000000000000
(1763085651.067502) can0 382#0000000000000000
(1763085651.067934) can0 191#999999999998
(1763085651.068946) can0 192#989999999998
(1763085651.069237) can0 000A0003#FF5FFFCC10340000
(1763085651.069524) can0 000A0004#FFF6FFE1FFB48E02
(1763085651.069961) can0 193#999999999999
(1763085651.070927) can0 194#999999999999
(1763085651.071931) can0 195#999999999999
(1763085651.072960) can0 291#0F0F0F0F0F0F
(1763085651.073978) can0 292#0F0F0F10100F
(1763085651.074929) can0 293#10100F101010
(1763085651.075553) can0 186#A4F74C1D09050000
(1763085651.075941) can0 294#101010101010
(1763085651.076175) can0 189#37029F01B20100DB
(1763085651.076945) can0 295#101010111010
(1763085651.077478) can0 701#05
(1763085651.077830) can0 482#0000000028340001
(1763085651.079056) can0 000A0003#FF5DFFC910340000
(1763085651.079342) can0 000A0004#FFF6FFE1FFB48E02
(1763085651.085482) can0 1A4#0000120A000000
(1763085651.085714) can0 189#3802A001B30100DB
(1763085651.085958) can0 2A3#1115161616160F0D
(1763085651.086181) can0 4C4#04C604CA04BF04BD
(1763085651.087175) can0 4C5#04B504BE04BF04CC
(1763085651.088189) can0 4C6#04CC04C804C004B7
(1763085651.088614) can0 382#0000000000000000
(1763085651.089063) can0 000A0003#FF5AFFC810360000
(1763085651.089352) can0 000A0004#FFF6FFE1FFB48E02
(1763085651.089583) can0 4C7#04BA04BA04C404C0
(1763085651.090231) can0 4C8#04A1000000000000
(1763085651.095570) can0 189#3802A001B30100DB
(1763085651.096741) can0 682#3D45240432040000
(1763085651.098800) can0 1A2#0000BB0D000000
(1763085651.099082) can0 000A0003#FF57FFC710370000
(1763085651.099370) can0 000A0004#FFF6FFE1FFB48E02
(1763085651.099598) can0 2A1#151617171718160D
(1763085651.099822) can0 1A3#40007A09000000
(1763085651.099938) can0 701#05
(1763085651.100196) can0 482#0000000028340001
(1763085651.104996) can0 181#910132247F00000D
(1763085651.105567) can0 189#3702A101B40100DB
(1763085651.109069) can0 000A0003#FF56FFC710390000
(1763085651.109354) can0 000A0004#FFF6FFE1FFB48E02
(1763085651.110376) can0 382#0000000000000000
(1763085651.110669) can0 281#0000000000000000
(1763085651.115550) can0 186#A4F74C1D09060000
(1763085651.116051) can0 189#3802A001B30100DB
(1763085651.118518) can0 1A0#000000000100
(1763085651.119057) can0 000A0003#FF56FFC6103B0000
(1763085651.119345) can0 000A0004#FFF5FFE0FFB48E02
(1763085651.120086) can0 000A0000#0000000000000000
(1763085651.120378) can0 000A0001#0000000000000000
(1763085651.120675) can0 000A0002#0000000000000000
(1763085651.121279) can0 482#0000000028340001
(1763085651.121398) can0 701#05
(1763085651.125565) can0 189#3802A001B30100DB
(1763085651.129066) can0 000A0003#FF57FFC7103C0000
(1763085651.129350) can0 000A0004#FFF5FFE1FFB48E02
(1763085651.129684) can0 382#0000000000000000
(1763085651.135568) can0 189#3802A001B40100DB
(1763085651.137675) can0 682#3D45240432040000
(1763085651.139065) can0 000A0003#FF58FFC7103C0000
(1763085651.139350) can0 000A0004#FFF4FFE1FFB48E02
(1763085651.140166) can0 1A5#0000940D000000
(1763085651.142899) can0 701#05
(1763085651.143210) can0 181#910132247F00000D
(1763085651.143460) can0 482#0000000028340001
(1763085651.145564) can0 189#38029F01B20100DB
(1763085651.149061) can0 000A0003#FF58FFC6103C0000
(1763085651.149348) can0 000A0004#FFF4FFE0FFB48E02
(1763085651.151345) can0 4C4#04C604BF04C404BD
(1763085651.152359) can0 4C5#04B504BE04C304CC
(1763085651.153372) can0 4C6#04CC04C804C004BB
(1763085651.154121) can0 382#0000000000000000
(1763085651.154376) can0 281#0000000000000000
(1763085651.154610) can0 4C7#04B504BF04C404BB
(1763085651.155414) can0 4C8#04A1000000000000
(1763085651.155647) can0 186#A4F74C1D09070000
(1763085651.156047) can0 189#37029F01B30100DB
(1763085651.156905) can0 080#
(1763085651.158029) can0 286#6400900100000000
(1763085651.158471) can0 19A#00007E776E7D807F
(1763085651.159061) can0 000A0003#FF57FFC5103D0000
(1763085651.159351) can0 000A0004#FFF3FFE0FFB38E02
(1763085651.159589) can0 29A#7F6E838283830000
(1763085651.164790) can0 701#05
(1763085651.165071) can0 482#0000000028340001
(1763085651.165313) can0 188#0C001C3200000000
(1763085651.165571) can0 189#37029F01B30100DB
(1763085651.165988) can0 288#6029432200140000
(1763085651.166981) can0 388#2122222122000000
(1763085651.167923) can0 191#999999999998
(1763085651.168935) can0 192#989999999998
(1763085651.169224) can0 000A0003#FF57FFC4103C0000
(1763085651.169511) can0 000A0004#FFF3FFDFFFB48E02
(1763085651.169905) can0 193#999999999999
(1763085651.170933) can0 194#999999999999
(1763085651.171937) can0 195#999999999999
(1763085651.172967) can0 291#0F0F0F0F0F0F
(1763085651.173939) can0 292#0F0F0F10100F
(1763085651.174938) can0 293#10100F101010
(1763085651.175564) can0 189#37029F01B30100DB
(1763085651.175896) can0 382#0000000000000000
(1763085651.176100) can0 294#101010101010
(1763085651.176933) can0 295#101010111010
(1763085651.178615) can0 682#3D45240432040000
(1763085651.179064) can0 000A0003#FF56FFC5103B0000
(1763085651.179352) can0 000A0004#FFF3FFDFFFB48E02
(1763085651.181335) can0 181#910132247F00000D
(1763085651.185559) can0 189#3A029F01B30100DB
(1763085651.186794) can0 482#0000000028340001
(1763085651.186913) can0 701#05
(1763085651.189071) can0 000A0003#FF59FFC7103C0000
(1763085651.189358) can0 000A0004#FFF4FFDFFFB48E02
(1763085651.192356) can0 1A4#0000120A000000
(1763085651.192584) can0 2A3#1115161616160F0D
(1763085651.195543) can0 186#A4F74C1D09080000
(1763085651.196067) can0 189#3C029E01B30100DB
(1763085651.197795) can0 281#0000000000000000
(1763085651.198051) can0 382#0000000000000000
(1763085651.199073) can0 000A0003#FF5CFFCB103E0000
(1763085651.199358) can0 000A0004#FFF3FFDEFFB48E02
(1763085651.200692) can0 1A3#40007A09000000
(1763085651.205559) can0 189#3D029F01B40100DB
(1763085651.205736) can0 701#05
(1763085651.206017) can0 482#0000000028340001
(1763085651.206313) can0 1A2#0000BB0D000000
(1763085651.206541) can0 2A1#151617171718160D
(1763085651.209072) can0 000A0003#FF5EFFCD10400000
(1763085651.209356) can0 000A0004#FFF2FFDDFFB48E02
(1763085651.215556) can0 189#41029F01B30100DB
(1763085651.216482) can0 4C4#04C004BF04C404BD
(1763085651.217496) can0 4C5#04B904BE04C304CC
(1763085651.218507) can0 4C6#04C804CC04C004BB
(1763085651.218718) can0 1A0#000000000100
(1763085651.219063) can0 000A0003#FF61FFCF10430000
(1763085651.219350) can0 000A0004#FFF3FFDDFFB48E02
(1763085651.219583) can0 4C7#04B504BF04C404BB
(1763085651.219821) can0 682#3D45240432040000
(1763085651.220121) can0 000A0000#0000000000000000
(1763085651.220422) can0 000A0001#0000000000000000
(1763085651.220719) can0 000A0002#0000000000000000
(1763085651.220969) can0 382#0000000000000000
(1763085651.221214) can0 4C8#04A1000000000000
(1763085651.221452) can0 181#910132247F00000D
(1763085651.225549) can0 189#44029D01B30100DB
(1763085651.229070) can0 000A0003#FF60FFD110440000
(1763085651.229354) can0 000A0004#FFF2FFDDFFB58E02
(1763085651.230295) can0 701#05
(1763085651.230575) can0 482#0000000028340001
(1763085651.235535) can0 186#A4F74C1D09090000
(1763085651.236045) can0 189#45029D01B30100DB
(1763085651.239073) can0 000A0003#FF5EFFD210440000
(1763085651.239360) can0 000A0004#FFF6FFDBFFB58E02
(1763085651.241388) can0 382#0000000000000000
(1763085651.241683) can0 281#0000000000000000
(1763085651.242306) can0 1A5#0000940D000000
(1763085651.245548) can0 189#45029E01B20100D9
(1763085651.249085) can0 000A0003#FF5DFFD310430000
(1763085651.249370) can0 000A0004#FFF6FFDBFFB58E02
(1763085651.252295) can0 482#0000000028340001
(1763085651.252412) can0 701#05
(1763085651.255570) can0 189#46029F01B20100D9
(1763085651.255904) can0 080#
(1763085651.257058) can0 286#6400900100000000
(1763085651.259072) can0 000A0003#FF5DFFD310410000
(1763085651.259356) can0 000A0004#FFF6FFDCFFB48E02
(1763085651.260500) can0 682#3D45240432040000
(1763085651.260773) can0 181#910132247F00000D
(1763085651.263340) can0 382#0000000000000000
(1763085651.265218) can0 188#0C000A3200000000
(1763085651.265554) can0 189#48029E01B30100D9
(1763085651.265979) can0 288#6029432A00140000
(1763085651.266985) can0 388#2122222122000000
(1763085651.267947) can0 191#999999999998
(1763085651.268923) can0 192#989999999898
(1763085651.269212) can0 000A0003#FF5DFFD310400000
(1763085651.269496) can0 000A0004#FFF5FFDDFFB58E02
(1763085651.269929) can0 193#999999999999
(1763085651.270940) can0 194#999999999999
(1763085651.271944) can0 195#999999999999
(1763085651.272941) can0 291#0F0F0F0F0F0F
(1763085651.273954) can0 292#0F0F0F10100F
(1763085651.274062) can0 701#05
(1763085651.274323) can0 482#0000000028340001
(1763085651.274940) can0 293#10100F101010
(1763085651.275529) can0 186#A4F74C1D090A0000
(1763085651.275953) can0 294#101010101010
(1763085651.276189) can0 189#48029C01B00100D9
(1763085651.276956) can0 295#101010111010
(1763085651.279080) can0 000A0003#FF5CFFD310410000
(1763085651.279364) can0 000A0004#FFF5FFDDFFB58E02
(1763085651.281640) can0 4C4#04C604BF04C404C2
(1763085651.282653) can0 4C5#04B904BE04C304CC
(1763085651.283664) can0 4C6#04CC04C404BC04B7
(1763085651.284680) can0 4C7#04BE04BA04BF04CB
(1763085651.285270) can0 382#0000000000000000
(1763085651.285559) can0 189#49029D01B30100D9
(1763085651.285803) can0 4C8#04A1000000000000
(1763085651.287785) can0 281#0000000000000000
(1763085651.289083) can0 000A0003#FF5DFFD310410000
(1763085651.289365) can0 000A0004#FFF5FFDCFFB58E02
(1763085651.293266) can0 482#0000000028340001
(1763085651.293353) can0 701#05
(1763085651.295545) can0 189#4C029E01B00100D9
(1763085651.298758) can0 181#910132247F00000D
(1763085651.299076) can0 000A0003#FF5FFFD310440000
(1763085651.299359) can0 000A0004#FFF5FFDCFFB68E02
(1763085651.299587) can0 1A4#0000120A000000
(1763085651.299815) can0 2A3#1115161616160F0D
(1763085651.301437) can0 682#3D45240432040000
(1763085651.301671) can0 1A3#40007A09000000
(1763085651.305544) can0 189#4C029E01B30100D9
(1763085651.306892) can0 382#0000000000000000
(1763085651.309077) can0 000A0003#FF5FFFD210460000
(1763085651.309363) can0 000A0004#FFF1FFDCFFB58E02
(1763085651.313831) can0 1A2#0000BB0D000000
(1763085651.314058) can0 2A1#151617171718160D
(1763085651.314909) can0 701#05
(1763085651.315268) can0 482#0000000028340001
(1763085651.315543) can0 186#CAF74C1D090B0000
(1763085651.316062) can0 189#4D029C01B00100D9
(1763085651.318518) can0 1A0#000000000100
(1763085651.319078) can0 000A0003#FF60FFD110460000
(1763085651.319365) can0 000A0004#FFF1FFDCFFB58E02
(1763085651.320090) can0 000A0000#0000000000000000
(1763085651.320390) can0 000A0001#0000000000000000
(1763085651.320688) can0 000A0002#0000000000000000
(1763085651.325545) can0 189#4F029E01B10100D9
(1763085651.328846) can0 382#0000000000000000
(1763085651.329138) can0 000A0003#FF5FFFCF10480000
(1763085651.329426) can0 000A0004#FFF1FFDBFFB58E02
(1763085651.331477) can0 281#0000000000000000
(1763085651.335545) can0 189#50029F01B10100D9
(1763085651.336912) can0 181#910132247F00000D
(1763085651.337032) can0 701#05
(1763085651.337321) can0 482#0000000028340001
(1763085651.339082) can0 000A0003#FF5EFFCE10480000
(1763085651.339368) can0 000A0004#FFF1FFDFFFB68E02
(1763085651.342387) can0 682#3D45230432040000
(1763085651.344443) can0 1A5#0000940D000000
(1763085651.345542) can0 189#50029D01AF0100D9
(1763085651.346806) can0 4C4#04C604BF04C404C2
(1763085651.347818) can0 4C5#04B904BE04C304CC
(1763085651.348833) can0 4C6#04CC04C404BC04B7
(1763085651.349120) can0 000A0003#FF5EFFCF10480000
(1763085651.349406) can0 000A0004#FFF1FFDFFFB68E02
(1763085651.349848) can0 4C7#04BE04BA04BF04CB
(1763085651.350643) can0 382#0000000000000000
(1763085651.350884) can0 4C8#04A1000000000000
(1763085651.355551) can0 186#E3F74C1D090C0000
(1763085651.356057) can0 189#50029E01AE0100D9
(1763085651.356891) can0 080#
(1763085651.358040) can0 286#6400900100000000
(1763085651.358838) can0 482#0000000028340001
(1763085651.359128) can0 000A0003#FF5EFFD010470000
(1763085651.359415) can0 000A0004#FFF1FFDFFFB68E02
(1763085651.359530) can0 701#05
(1763085651.364498) can0 19A#00007F70727F7F7F
(1763085651.365176) can0 188#0C00DD3100000000
(1763085651.365472) can0 29A#7F6E828183830000
(1763085651.365702) can0 189#51029D01AF0100D9
(1763085651.365981) can0 288#6029432A00140000
(1763085651.366975) can0 388#2122222122000000
(1763085651.367924) can0 191#999999999998
(1763085651.368931) can0 192#989999999898
(1763085651.369221) can0 000A0003#FF5FFFD210440000
(1763085651.369507) can0 000A0004#FFF0FFDFFFB68E02
(1763085651.369936) can0 193#999999999999
(1763085651.370948) can0 194#999999999999
(1763085651.371919) can0 195#999999999999
(1763085651.372416) can0 382#0000000000000000
(1763085651.372951) can0 291#0F0F0F0F0F0F
(1763085651.373960) can0 292#0F0F0F10100F
(1763085651.374948) can0 293#10100F101010
(1763085651.375224) can0 181#910132247F00000D
(1763085651.375482) can0 281#0000000000000000
(1763085651.375712) can0 189#50029C01AC0100D9
(1763085651.375960) can0 294#101010101010
(1763085651.376932) can0 295#101010111010
(1763085651.379086) can0 000A0003#FF60FFD5103F0000
(1763085651.379368) can0 000A0004#FFF1FFDFFFB68E02
(1763085651.380357) can0 701#05
(1763085651.380712) can0 482#0000000028340001
(1763085651.385539) can0 189#51029D01AC0100D9
(1763085651.386153) can0 682#3D45240432040000
(1763085651.389080) can0 000A0003#FF61FFD9103B0000
(1763085651.389367) can0 000A0004#FFF1FFE3FFB68E02
(1763085651.394356) can0 382#0000000000000000
(1763085651.395520) can0 186#E9F74C1D090D0000
(1763085651.396051) can0 189#51029C01AC0100D9
(1763085651.399082) can0 000A0003#FF62FFDD10390000
(1763085651.399366) can0 000A0004#FFF1FFE2FFB68E02
(1763085651.402249) can0 701#05
(1763085651.402536) can0 482#0000000028340001
(1763085651.402760) can0 1A3#40007A09000000
(1763085651.405536) can0 189#51029D01AC0100D9
(1763085651.406111) can0 1A4#0000120A000000
(1763085651.406342) can0 2A3#1115161615160F0D
(1763085651.409088) can0 000A0003#FF63FFE010370000
(1763085651.409373) can0 000A0004#FFEDFFE2FFB68E02
(1763085651.411950) can0 4C4#04C004CA04BA04B4
(1763085651.412962) can0 4C5#04BE04B904C704CC
(1763085651.413405) can0 181#910132247F00000D
(1763085651.413982) can0 4C6#04CC04C804C004BB
(1763085651.414997) can0 4C7#04BF04B604BF04C0
(1763085651.415537) can0 189#4F029C01AB0100D9
(1763085651.416019) can0 4C8#04A1000000000000
(1763085651.416271) can0 382#0000000000000000
(1763085651.418519) can0 1A0#000000000100
(1763085651.418806) can0 281#0000000000000000
(1763085651.419095) can0 000A0003#FF63FFE010340000
(1763085651.419380) can0 000A0004#FFEEFFE2FFB78E02
(1763085651.420097) can0 000A0000#0000000000000000
(1763085651.420396) can0 000A0001#0000000000000000
(1763085651.420695) can0 000A0002#0000000000000000
(1763085651.421330) can0 1A2#0000BB0D000000
(1763085651.421556) can0 2A1#151617171718160D
(1763085651.421673) can0 701#05
(1763085651.424246) can0 482#0000000028340001
(1763085651.425534) can0 189#4F029E01AA0100D9
(1763085651.427089) can0 682#3D45240432040000
(1763085651.429100) can0 000A0003#FF64FFE010350000
(1763085651.429384) can0 000A0004#FFEEFFE2FFB88E02
(1763085651.435296) can0 382#0000000000000000
(1763085651.435527) can0 186#E3F74C1D090E0000
(1763085651.436071) can0 189#51029F01AB0100D9
(1763085651.439106) can0 000A0003#FF66FFE010370000
(1763085651.439392) can0 000A0004#FFEBFFE3FFB78E02
(1763085651.443192) can0 701#05
(1763085651.445533) can0 189#50029F01AB0100D9
(1763085651.446199) can0 482#0000000028340001
(1763085651.446596) can0 1A5#0000940D000000
(1763085651.449092) can0 000A0003#FF68FFE010390000
(1763085651.449378) can0 000A0004#FFECFFE3FFB88E02
(1763085651.451554) can0 181#910132247F00000D
(1763085651.455550) can0 189#51029D01AB0100D9
(1763085651.455888) can0 080#
(1763085651.457040) can0 286#6400900100000000
(1763085651.457291) can0 382#0000000000000000
(1763085651.459099) can0 000A0003#FF69FFE0103B0000
(1763085651.459381) can0 000A0004#FFECFFE2FFB88E02
(1763085651.462504) can0 281#0000000000000000
(1763085651.464968) can0 701#05
(1763085651.465214) can0 188#0C000A3200000000
(1763085651.465554) can0 189#50029F01AB0100D9
(1763085651.465991) can0 288#6129432100140000
(1763085651.466970) can0 388#2122222122000000
(1763085651.467912) can0 191#999999999998
(1763085651.468158) can0 482#0000000028340001
(1763085651.468442) can0 682#3D45240432040000
(1763085651.468922) can0 192#989999999998
(1763085651.469212) can0 000A0003#FF6AFFE0103D0000
(1763085651.469499) can0 000A0004#FFECFFE1FFB88E02
(1763085651.469962) can0 193#999999999999
(1763085651.470923) can0 194#999999999999
(1763085651.471926) can0 195#999999999999
(1763085651.472956) can0 291#0F0F0F0F0F0F
(1763085651.473981) can0 292#0F0F0F10100F
(1763085651.474956) can0 293#10100F101010
(1763085651.475516) can0 186#CAF74C1D090F0000
(1763085651.475937) can0 294#101010101010
(1763085651.476171) can0 189#4E029E01A80100D9
(1763085651.476941) can0 295#101010111010
(1763085651.477175) can0 4C4#04C004CA04BA04B8
(1763085651.478117) can0 4C5#04BE04BE04C704D0
(1763085651.478862) can0 382#0000000000000000
(1763085651.479152) can0 000A0003#FF67FFDF10410000
(1763085651.479440) can0 000A0004#FFF1FFE1FFB88E02
(1763085651.479672) can0 4C6#04CC04C404BC04B7
(1763085651.480150) can0 4C7#04BF04B604BF04C0
(1763085651.481172) can0 4C8#04A1000000000000
(1763085651.485534) can0 189#4F029F01A80100D9
(1763085651.486809) can0 701#05
(1763085651.489095) can0 000A0003#FF66FFE010440000
(1763085651.489384) can0 000A0004#FFF2FFE1FFB88E02
(1763085651.489752) can0 482#0000000028340001
(1763085651.489994) can0 181#910132247F00000D
(1763085651.495532) can0 189#4F029F01A90100D9
(1763085651.499097) can0 000A0003#FF68FFE110470000
(1763085651.499383) can0 000A0004#FFF2FFE2FFB88E02
(1763085651.500802) can0 382#0000000000000000
(1763085651.503652) can0 1A3#40007A09000000
(1763085651.505528) can0 189#4E029F01A70100D9
(1763085651.506234) can0 281#0000000000000000
(1763085651.508850) can0 701#05
(1763085651.509138) can0 000A0003#FF69FFE210490000
(1763085651.509422) can0 000A0004#FFF2FFE2FFB88E02
(1763085651.509669) can0 482#0000000028340001
(1763085651.509961) can0 682#3D45240432040000
(1763085651.513003) can0 1A4#0000120A000000
(1763085651.513233) can0 2A3#1115161615160F0D
(1763085651.515517) can0 186#D0F74C1D09000000
(1763085651.516049) can0 189#4E029F01A50100D9
(1763085651.518522) can0 1A0#000000000100
(1763085651.519094) can0 000A0003#FF68FFE3104D0000
(1763085651.519377) can0 000A0004#FFF3FFE2FFB88E02
(1763085651.520121) can0 000A0000#0000000000000000
(1763085651.520422) can0 000A0001#0000000000000000
(1763085651.520719) can0 000A0002#0000000000000000
(1763085651.522545) can0 382#0000000000000000
(1763085651.525526) can0 189#4E029F01A40100D9
(1763085651.528042) can0 181#910132247F00000D
(1763085651.528822) can0 1A2#0000BB0D000000
(1763085651.529108) can0 000A0003#FF67FFE3104E0000
(1763085651.529392) can0 000A0004#FFF3FFE2FFB88E02
(1763085651.529625) can0 2A1#151617171818160D
(1763085651.530706) can0 482#0000000028340001
(1763085651.530826) can0 701#05
(1763085651.535532) can0 189#50029F01A30100D9
(1763085651.539102) can0 000A0003#FF65FFE2104A0000
(1763085651.539384) can0 000A0004#FFF5FFDEFFB88E02
(1763085651.542266) can0 4C4#04C004C504BF04BD
(1763085651.543280) can0 4C5#04BE04BE04C304CC
(1763085651.544294) can0 4C6#04CC04C404C004B7
(1763085651.544542) can0 382#0000000000000000
(1763085651.545309) can0 4C7#04BF04BA04C404C0
(1763085651.545541) can0 189#4E029E01A10100D9
(1763085651.546338) can0 4C8#04A1000000000000
(1763085651.548733) can0 1A5#0000940D000000
(1763085651.549099) can0 000A0003#FF63FFE210470000
(1763085651.549385) can0 000A0004#FFF5FFDFFFB88E02
(1763085651.549821) can0 281#0000000000000000
(1763085651.550097) can0 682#3D45240432040000
(1763085651.550218) can0 701#05
(1763085651.550469) can0 482#0000000028340001
(1763085651.553496) can0 19A#00007C70737F7F81
(1763085651.554498) can0 29A#8174838083830000
(1763085651.555534) can0 186#D0F74C1D09010000
(1763085651.556041) can0 189#4E029E01A00100D9
(1763085651.556907) can0 080#
(1763085651.558056) can0 286#6400900100000000
(1763085651.559101) can0 000A0003#FF64FFE110450000
(1763085651.559389) can0 000A0004#FFF4FFDFFFB78E02
(1763085651.565229) can0 188#0C00F83100000000
(1763085651.565557) can0 189#4E029F019F0100D9
(1763085651.565981) can0 288#6029432A00140000
(1763085651.566207) can0 181#910132247F00000D
(1763085651.566505) can0 382#0000000000000000
(1763085651.566976) can0 388#2122222122000000
(1763085651.567939) can0 191#999999999998
(1763085651.568945) can0 192#989999999898
(1763085651.569231) can0 000A0003#FF65FFE110430000
(1763085651.569517) can0 000A0004#FFF5FFDFFFB88E02
(1763085651.569961) can0 193#999999999999
(1763085651.570930) can0 194#999999999999
(1763085651.571646) can0 482#0000000028340001
(1763085651.571766) can0 701#05
(1763085651.571958) can0 195#989999999999
(1763085651.572964) can0 291#0F0F0F0F0F0F
(1763085651.573978) can0 292#0F0F0F10100F
(1763085651.574931) can0 293#10100F101010
(1763085651.575519) can0 189#4E029E019A0100D9
(1763085651.575944) can0 294#101010101010
(1763085651.576948) can0 295#101010111010
(1763085651.579108) can0 000A0003#FF65FFE210430000
(1763085651.579393) can0 000A0004#FFF5FFDFFFB88E02
(1763085651.585523) can0 189#4E029F01990100D9
(1763085651.588055) can0 382#0000000000000000
(1763085651.589101) can0 000A0003#FF65FFE210420000
(1763085651.589388) can0 000A0004#FFF6FFDFFFB88E02
(1763085651.593258) can0 701#05
(1763085651.593571) can0 281#0000000000000000
(1763085651.593822) can0 482#0000000028340001
(1763085651.594066) can0 682#3D45240432040000
(1763085651.595505) can0 186#CAF74C1D09020000
(1763085651.596064) can0 189#4D029E01950100D9
(1763085651.599110) can0 000A0003#FF63FFDF103F0000
(1763085651.599396) can0 000A0004#FFF6FFDFFFB88E02
(1763085651.604484) can0 181#910132247F00000D
(1763085651.604706) can0 1A3#40007A09000000
(1763085651.605520) can0 189#4D029F01910100D9
(1763085651.607427) can0 4C4#04C704C604C004C3
(1763085651.608432) can0 4C5#04B604BF04C404D1
(1763085651.609110) can0 000A0003#FF62FFDC103C0000
(1763085651.609396) can0 000A0004#FFF7FFDFFFB88E02
(1763085651.609632) can0 4C6#04C904C504C104B8
(1763085651.609881) can0 382#0000000000000000
(1763085651.610467) can0 4C7#04BF04BB04CA04C7
(1763085651.611492) can0 4C8#04A1000000000000
(1763085651.615149) can0 701#05
(1763085651.615432) can0 482#0000000028340001
(1763085651.615666) can0 189#4E02A0018A0100D9
(1763085651.618521) can0 1A0#000000000100
(1763085651.619109) can0 000A0003#FF62FFD9103A0000
(1763085651.619392) can0 000A0004#FFF8FFDEFFB88E02
(1763085651.619876) can0 1A4#0000120A000000
(1763085651.620183) can0 000A0000#0000000000000000
(1763085651.620479) can0 000A0001#0000000000000000
(1763085651.620776) can0 000A0002#0000000000000000
(1763085651.621008) can0 2A3#1115161615160F0D
(1763085651.625524) can0 189#4E029F01820100D9
(1763085651.629110) can0 000A0003#FF63FFD710370000
(1763085651.629393) can0 000A0004#FFF8FFDFFFB88E02
(1763085651.631818) can0 382#0000000000000000
(1763085651.634545) can0 682#3D45240432040000
(1763085651.635504) can0 186#CAF74C1D09030000
(1763085651.636078) can0 189#4E029F017A0100D9
(1763085651.636330) can0 1A2#0000BB0D000000
(1763085651.636562) can0 2A1#151617171818160D
(1763085651.637251) can0 482#0000000028340001
(1763085651.637370) can0 701#05
(1763085651.637625) can0 281#0000000000000000
(1763085651.639115) can0 000A0003#FF61FFD410360000
(1763085651.639403) can0 000A0004#FFF8FFDFFFB78E02
(1763085651.642674) can0 181#910132247F00000D
(1763085651.645519) can0 189#4D029F01740100D9
(1763085651.649125) can0 000A0003#FF61FFD410360000
(1763085651.649409) can0 000A0004#FFF8FFDEFFB88E02
(1763085651.650870) can0 1A5#0000940D000000
(1763085651.653559) can0 382#0000000000000000
(1763085651.655534) can0 189#4D02A0016D0100D9
(1763085651.655906) can0 080#
(1763085651.657057) can0 286#6400900100000000
(1763085651.658842) can0 701#05
(1763085651.659132) can0 000A0003#FF61FFD410360000
(1763085651.659417) can0 000A0004#FFF9FFDEFFB88E02
(1763085651.659661) can0 482#0000000028340001
(1763085651.665189) can0 188#0C00A43200000000
(1763085651.665528) can0 189#4F029F01980100D1
(1763085651.665975) can0 288#6029432A00140000
(1763085651.666984) can0 388#2122222122000000
(1763085651.667927) can0 191#999999999998
(1763085651.668933) can0 192#989999999898
(1763085651.669221) can0 000A0003#FF62FFD510370000
(1763085651.669507) can0 000A0004#FFF8FFDFFFB78E02
(1763085651.669907) can0 193#999999999999
(1763085651.670938) can0 194#999999999999
(1763085651.671942) can0 195#989999999999
(1763085651.672596) can0 4C4#04C704C604C004C3
(1763085651.672970) can0 291#0F0F0F0F0F0F
(1763085651.673604) can0 4C5#04B604BF04C404D1
(1763085651.673976) can0 292#0F0F0F10100F
(1763085651.674621) can0 4C6#04C904C504C104B8
(1763085651.674938) can0 293#10100F101010
(1763085651.675386) can0 382#0000000000000000
(1763085651.675621) can0 186#C4F74C1D09040000
(1763085651.675854) can0 4C7#04BF04BB04CA04C7
(1763085651.676086) can0 189#4C029F018E0100D1
(1763085651.676290) can0 294#101010101010
(1763085651.676530) can0 682#3D45240432040000
(1763085651.676773) can0 4C8#04A1000000000000
(1763085651.676973) can0 295#101010111010
(1763085651.679118) can0 000A0003#FF64FFD8103A0000
(1763085651.679405) can0 000A0004#FFF8FFDFFFB78E02
(1763085651.680826) can0 181#910132247F00000D
(1763085651.680946) can0 701#05
(1763085651.681240) can0 281#0000000000000000
(1763085651.681492) can0 482#0000000028340001
(1763085651.685510) can0 189#4E02A2018B0100D1
(1763085651.689116) can0 000A0003#FF65FFD9103B0000
(1763085651.689400) can0 000A0004#FFF7FFDFFFB78E02
(1763085651.695510) can0 189#4D02A3019A0100D9
(1763085651.697322) can0 382#0000000000000000
(1763085651.699116) can0 000A0003#FF66FFDD10400000
(1763085651.699400) can0 000A0004#FFF7FFDFFFB78E02
(1763085651.702651) can0 482#0000000028340001
(1763085651.702768) can0 701#05
(1763085651.705509) can0 189#4E02A301760100D9
(1763085651.705733) can0 1A3#40007A09000000
(1763085651.709122) can0 000A0003#FF68FFDF10450000
(1763085651.709409) can0 000A0004#FFF3FFE0FFB78E02
(1763085651.715495) can0 186#D0F74C1D09050000
(1763085651.716067) can0 189#4D02A301980100D1
(1763085651.716535) can0 682#3D45240432040000
(1763085651.718522) can0 1A0#000000000100
(1763085651.719120) can0 000A0003#FF67FFDE10440000
(1763085651.719408) can0 000A0004#FFF4FFE0FFB88E02
(1763085651.719660) can0 382#0000000000000000
(1763085651.719899) can0 181#910132247F00000D
(1763085651.720198) can0 000A0000#0000000000000000
(1763085651.720498) can0 000A0001#0000000000000000
(1763085651.720798) can0 000A0002#0000000000000000
(1763085651.724272) can0 701#05
(1763085651.724585) can0 281#0000000000000000
(1763085651.724835) can0 482#0000000028340001
(1763085651.725514) can0 189#4D029F01800100D9
(1763085651.726746) can0 1A4#0000120A000000
(1763085651.726978) can0 2A3#1115161615160F0D
(1763085651.729122) can0 000A0003#FF66FFDD10440000
(1763085651.729411) can0 000A0004#FFF4FFE0FFB88E02
(1763085651.735511) can0 189#4F02A301820100D1
(1763085651.737745) can0 4C4#04D204BF04BF04B8
(1763085651.738760) can0 4C5#04B904BE04C304CC
(1763085651.739121) can0 000A0003#FF65FFDB10450000
(1763085651.739403) can0 000A0004#FFF4FFE2FFB88E02
(1763085651.739771) can0 4C6#04C804C404C004B7
(1763085651.740790) can0 4C7#04BE04BA04C404C0
(1763085651.741042) can0 382#0000000000000000
(1763085651.741814) can0 4C8#04A1000000000000
(1763085651.743831) can0 1A2#0000BB0D000000
(1763085651.744063) can0 2A1#151617171818160D
(1763085651.745504) can0 189#4F02A3018A0100D9
(1763085651.746173) can0 701#05
(1763085651.746454) can0 482#0000000028340001
(1763085651.749118) can0 000A0003#FF65FFDA10470000
(1763085651.749406) can0 000A0004#FFF7FFE1FFB98E02
(1763085651.753027) can0 1A5#0000940D000000
(1763085651.755521) can0 186#F0F74C1D09060000
(1763085651.756056) can0 189#5202A301760100D1
(1763085651.756861) can0 080#
(1763085651.757367) can0 181#910132247F00000D
(1763085651.757610) can0 682#3D45240432040000
(1763085651.758055) can0 286#6400900100000000
(1763085651.759170) can0 000A0003#FF64FFD710460000
(1763085651.759410) can0 000A0004#FFF7FFE1FFB98E02
(1763085651.759648) can0 19A#00007E6E707E7D7E
(1763085651.760098) can0 382#0000000000000000
(1763085651.760489) can0 29A#8071838183830000
(1763085651.765219) can0 188#0C00E43200000000
(1763085651.765519) can0 189#5302A4018A0100D1
(1763085651.765996) can0 288#6029432A00140000
(1763085651.766988) can0 388#2122222122000000
(1763085651.767951) can0 191#999999999998
(1763085651.768195) can0 482#0000000028340001
(1763085651.768330) can0 701#05
(1763085651.768585) can0 281#0000000000000000
(1763085651.768931) can0 192#989999999998
(1763085651.769217) can0 000A0003#FF62FFD210460000
(1763085651.769503) can0 000A0004#FFF7FFE1FFB98E02
(1763085651.769931) can0 193#999999999999
(1763085651.770944) can0 194#999999999999
(1763085651.771944) can0 195#999999999999
(1763085651.772945) can0 291#0F0F0F0F0F0F
(1763085651.773966) can0 292#0F0F0F10100F
(1763085651.774949) can0 293#10100F101010
(1763085651.775503) can0 189#5502A4019D0100D1
(1763085651.775959) can0 294#101010101010
(1763085651.776963) can0 295#101010111010
(1763085651.779127) can0 000A0003#FF62FFCF10410000
(1763085651.779412) can0 000A0004#FFF8FFE0FFBA8E02
(1763085651.781822) can0 382#0000000000000000
(1763085651.785503) can0 189#5902AA01930100D1
(1763085651.789171) can0 000A0003#FF63FFCC103C0000
(1763085651.789416) can0 000A0004#FFF8FFE1FFBA8E02
(1763085651.789789) can0 701#05
(1763085651.790152) can0 482#0000000028340001
(1763085651.795471) can0 181#910132247F00000D
(1763085651.795702) can0 186#35F84C1D09070000
(1763085651.796061) can0 189#5902AD018C0100D1
(1763085651.798391) can0 682#3D45240432040000
(1763085651.799123) can0 000A0003#FF63FFCB10370000
(1763085651.799409) can0 000A0004#FFF9FFE1FFBA8E02
(1763085651.802899) can0 4C4#04D204BF04BF04B8
(1763085651.803782) can0 382#0000000000000000
(1763085651.804019) can0 4C5#04B904BE04C304CC
(1763085651.804922) can0 4C6#04C804C404C004B7
(1763085651.805498) can0 189#5E02AF01850100D1
(1763085651.805941) can0 4C7#04BE04BA04BF04C0
(1763085651.806652) can0 1A3#40007A09000000
(1763085651.806965) can0 4C8#04A1000000000000
(1763085651.809129) can0 000A0003#FF63FFC9102F0000
(1763085651.809415) can0 000A0004#FFF8FFE1FFBB8E02
(1763085651.811671) can0 701#05
(1763085651.811924) can0 281#0000000000000000
(1763085651.812175) can0 482#0000000028340001
(1763085651.815508) can0 189#6202B0017F0100D1
(1763085651.818525) can0 1A0#000000000100
(1763085651.819126) can0 000A0003#FF63FFC710270000
(1763085651.819410) can0 000A0004#FFF4FFE2FFBA8E02
(1763085651.820136) can0 000A0000#0000000000000000
(1763085651.820434) can0 000A0001#0000000000000000
(1763085651.820733) can0 000A0002#0000000000000000
(1763085651.825517) can0 382#0000000000000000
(1763085651.825748) can0 189#6602B5017B0100D1
(1763085651.829130) can0 000A0003#FF63FFC5101F0000
(1763085651.829412) can0 000A0004#FFF5FFE2FFBA8E02
(1763085651.833624) can0 1A4#0000120A000000
(1763085651.833855) can0 2A3#1115161615160F0D
(1763085651.834101) can0 482#0000000028340001
(1763085651.834221) can0 701#05
(1763085651.834461) can0 181#910132247F00000D
(1763085651.835489) can0 186#9FF84C1D09080000
(1763085651.836059) can0 189#6A02B701760100D1
(1763085651.839132) can0 000A0003#FF64FFC4101B0000
(1763085651.839417) can0 000A0004#FFF6FFE2FFBA8E02
(1763085651.839659) can0 682#3D45230432040000
(1763085651.845497) can0 189#6F02BB01740100D1
(1763085651.847330) can0 382#0000000000000000
(1763085651.849127) can0 000A0003#FF65FFC310170000
(1763085651.849417) can0 000A0004#FFF6FFE0FFBA8E02
(1763085651.851337) can0 1A2#0000BB0D000000
(1763085651.851565) can0 2A1#151617171818160E
(1763085651.855169) can0 1A5#0000940D000000
(1763085651.855288) can0 701#05
(1763085651.855536) can0 189#7202BC01710100D1
(1763085651.855789) can0 281#0000000000000000
(1763085651.856039) can0 482#0000000028340001
(1763085651.856142) can0 080#
(1763085651.857043) can0 286#6400900100000000
(1763085651.859129) can0 000A0003#FF66FFC310170000
(1763085651.859413) can0 000A0004#FFF6FFE1FFBA8E02
(1763085651.865515) can0 189#7502C0016D0101D1
(1763085651.866510) can0 382#0000000000000000
(1763085651.868058) can0 4C4#04C604C504BF04B8
(1763085651.869072) can0 4C5#04B904BE04C304D0
(1763085651.869362) can0 000A0003#FF67FFC410160000
(1763085651.869646) can0 000A0004#FFF7FFE1FFBB8E02
(1763085651.870084) can0 4C6#04CC04C404BC04BB
(1763085651.871101) can0 4C7#04B604BA04BF04C0
(1763085651.871955) can0 181#910132247F00000D
(1763085651.872197) can0 4C8#04A1000000000000
(1763085651.874177) can0 188#0C00593300000000
(1763085651.874976) can0 288#6029431A00140000
(1763085651.875481) can0 186#1DF94C1D09090000
(1763085651.875982) can0 388#2122222123000000
(1763085651.876214) can0 189#7802C2016A0101D1
(1763085651.876930) can0 191#999999999998
(1763085651.877229) can0 701#05
(1763085651.877551) can0 482#0000000028340001
(1763085651.877941) can0 192#989999999998
(1763085651.878945) can0 193#999999999999
(1763085651.879237) can0 000A0003#FF68FFC410160000
(1763085651.879521) can0 000A0004#FFF6FFE2FFBB8E02
(1763085651.879955) can0 194#999999999999
(1763085651.880253) can0 682#3D45240432040000
(1763085651.880929) can0 195#999999999999
(1763085651.881958) can0 291#0F0F0F0F0F0F
(1763085651.882959) can0 292#0F0F0F10100F
(1763085651.883955) can0 293#10100F101010
(1763085651.884939) can0 294#101010101010
(1763085651.885493) can0 189#7D02C501690101D1
(1763085651.885941) can0 295#101010111010
(1763085651.888272) can0 382#0000000000000000
(1763085651.889140) can0 000A0003#FF68FFC410160000
(1763085651.889424) can0 000A0004#FFF8FFE2FFBB8E02
(1763085651.895491) can0 189#8502CB01690101D1
(1763085651.899136) can0 000A0003#FF6AFFC4101A0000
(1763085651.899425) can0 000A0004#FFF7FFE3FFBA8E02
(1763085651.899671) can0 482#0000000028340001
(1763085651.899801) can0 701#05
(1763085651.900057) can0 281#0000000000000000
(1763085651.905494) can0 189#8902CD01670101D1
(1763085651.907581) can0 382#0000000000000000
(1763085651.907803) can0 1A3#40007A09000000
(1763085651.909131) can0 000A0003#FF6AFFC4101C0000
(1763085651.909420) can0 000A0004#FFF7FFE3FFBA8E02
(1763085651.910101) can0 181#910132247F00000D
(1763085651.915479) can0 186#B9F94C1D090A0000
(1763085651.916080) can0 189#8E02D001660101D1
(1763085651.918528) can0 1A0#000000000100
(1763085651.918773) can0 482#0000000028340001
(1763085651.918907) can0 701#05
(1763085651.919196) can0 000A0003#FF6BFFC610200000
(1763085651.919482) can0 000A0004#FFF8FFE4FFBB8E02
(1763085651.920146) can0 000A0000#0000000000000000
(1763085651.920446) can0 000A0001#0000000000000000
(1763085651.920744) can0 000A0002#0000000000000000
(1763085651.923761) can0 682#3D45240432040000
(1763085651.925492) can0 189#8F02D301650101D1
(1763085651.929138) can0 000A0003#FF6AFFC810240000
(1763085651.929420) can0 000A0004#FFF9FFE4FFBB8E02
(1763085651.929671) can0 382#0000000000000000
(1763085651.933228) can0 4C4#04C704C604BB04BE
(1763085651.934237) can0 4C5#04BA04C304C404D1
(1763085651.935259) can0 4C6#04CD04C504C104BC
(1763085651.935496) can0 189#9302D501640101D1
(1763085651.936269) can0 4C7#04BF04C004CA04C7
(1763085651.937295) can0 4C8#04A1000000000000
(1763085651.939133) can0 000A0003#FF6AFFCA10260000
(1763085651.939421) can0 000A0004#FFF8FFE3FFBB8E02
(1763085651.940116) can0 482#0000000028340001
(1763085651.940237) can0 701#05
(1763085651.940501) can0 1A4#0000120A000000
(1763085651.940732) can0 2A3#1115161616160F0D
(1763085651.942857) can0 281#0000000000000000
(1763085651.945485) can0 189#9502D901650101D1
(1763085651.948396) can0 181#910132247F00000D
(1763085651.948632) can0 19A#00008066727E807F
(1763085651.949134) can0 000A0003#FF6AFFCB10270000
(1763085651.949422) can0 000A0004#FFF7FFE3FFBB8E02
(1763085651.949661) can0 29A#7F70838182830000
(1763085651.951166) can0 382#0000000000000000
(1763085651.955503) can0 186#05FA4C1D090B0000
(1763085651.956040) can0 189#9802DA01640101D1
(1763085651.956906) can0 080#
(1763085651.957300) can0 1A5#0000940D000000
(1763085651.958059) can0 286#6400900100000000
(1763085651.958843) can0 1A2#0000BB0D000000
(1763085651.959073) can0 2A1#151617171818160E
(1763085651.959362) can0 000A0003#FF6AFFCE10290000
(1763085651.959645) can0 000A0004#FFF7FFE2FFBA8E02
(1763085651.961735) can0 701#05
(1763085651.962089) can0 482#0000000028340001
(1763085651.964702) can0 682#3D45240432040000
(1763085651.965239) can0 188#0C00533200000000
(1763085651.965494) can0 189#9902DD01640101D1
(1763085651.965995) can0 288#6129432A00140000
(1763085651.966974) can0 388#2122222123000000
(1763085651.967935) can0 191#999999999998
(1763085651.968947) can0 192#989999999998
(1763085651.969237) can0 000A0003#FF69FFD1102B0000
(1763085651.969525) can0 000A0004#FFF6FFE1FFBA8E02
(1763085651.969963) can0 193#999999999999
(1763085651.970930) can0 194#999999999999
(1763085651.971931) can0 195#999999999999
(1763085651.972960) can0 382#0000000000000000
(1763085651.973172) can0 291#0F0F0F0F0F0F
(1763085651.973974) can0 292#0F0F0F10100F
(1763085651.974960) can0 293#10100F101010
(1763085651.975484) can0 189#9B02DD01640101D1
(1763085651.975942) can0 294#101010101010
(1763085651.976944) can0 295#101010111010
(1763085651.979142) can0 000A0003#FF69FFD2102C0000
(1763085651.979428) can0 000A0004#FFF6FFE2FFBA8E02
(1763085651.983581) can0 701#05
(1763085651.983908) can0 482#0000000028340001
(1763085651.985488) can0 189#9C02DF01640102D1
(1763085651.986595) can0 181#910132247F00000D
(1763085651.986849) can0 281#0000000000000000
(1763085651.989142) can0 000A0003#FF68FFD4102D0000
(1763085651.989429) can0 000A0004#FFF7FFE3FFBA8E02
(1763085651.995476) can0 186#3DFA4C1D090C0000
(1763085651.996069) can0 189#9D02E001650102D1
(1763085651.997551) can0 382#0000000000000000
(1763085651.998380) can0 4C4#04C704C604BB04BE
(1763085651.999145) can0 000A0003#FF68FFD5102E0000
(1763085651.999428) can0 000A0004#FFF8FFE2FFBB8E02
(1763085651.999659) can0 4C5#04BA04C304C404D1
(1763085652.000409) can0 4C6#04CD04C504C104BC
(1763085652.001423) can0 4C7#04BF04C004CA04C7
(1763085652.002451) can0 4C8#04A1000000000000
(1763085652.005481) can0 189#9E02E101640102D1
(1763085652.005728) can0 482#0000000028340001
(1763085652.005849) can0 701#05
(1763085652.006093) can0 682#3D45240432040000
(1763085652.008635) can0 1A3#40007A09000000
(1763085652.009144) can0 000A0003#FF69FFD5102F0000
(1763085652.009432) can0 000A0004#FFF7FFE2FFBB8E02
(1763085652.015531) can0 189#A002E101650102D1
(1763085652.018529) can0 1A0#000000000100
(1763085652.019143) can0 000A0003#FF69FFD5102F0000
