(1763085709.938511) can0 1A2#00000E0E000000
(1763085709.938705) can0 2A1#090B0B0B0B0C0C07
(1763085709.938988) can0 000A0003#FF1CFFF0104B0000
(1763085709.939269) can0 000A0004#FFE6FFCFFF638E02
(1763085709.939490) can0 1A3#40005B0A000000
(1763085709.942400) can0 181#810100207F000009
(1763085709.942645) can0 482#0000000008140001
(1763085709.946926) can0 189#5102AF0175010040
(1763085709.948771) can0 000A0003#FF1CFFF1104A0000
(1763085709.949057) can0 000A0004#FFE6FFD0FF648E02
(1763085709.950368) can0 701#05
(1763085709.954359) can0 1A4#4000EF07000000
(1763085709.954583) can0 2A3#0D12121212120D0A
(1763085709.956915) can0 186#00004C1D01090000
(1763085709.957227) can0 189#4E02AF0175010040
(1763085709.958416) can0 1A0#000000000000
(1763085709.958766) can0 000A0003#FF1CFFF110480000
(1763085709.959051) can0 000A0004#FFE6FFCDFF638E02
(1763085709.959302) can0 281#0000000000000000
(1763085709.959556) can0 382#0000000000000000
(1763085709.959856) can0 000A0000#0000000000000000
(1763085709.960157) can0 000A0001#0000000000000000
(1763085709.960454) can0 000A0002#0000000000000000
(1763085709.960698) can0 188#0C00503300000000
(1763085709.961436) can0 288#5D29241E00140000
(1763085709.962409) can0 388#2121222222000000
(1763085709.963368) can0 191#989999999998
(1763085709.964215) can0 482#0000000008140001
(1763085709.964407) can0 192#989898989898
(1763085709.965296) can0 1A5#0000350C000000
(1763085709.965485) can0 193#989999999899
(1763085709.966382) can0 194#989999999999
(1763085709.966919) can0 189#4E02AD0174010040
(1763085709.967387) can0 195#989999999999
(1763085709.968408) can0 291#0F0F0F100F10
(1763085709.968769) can0 000A0003#FF1DFFF010450000
(1763085709.969055) can0 000A0004#FFE6FFCCFF638E02
(1763085709.969410) can0 292#0F100F101010
(1763085709.970387) can0 293#101010101010
(1763085709.971397) can0 294#101010111010
(1763085709.972180) can0 701#05
(1763085709.972389) can0 295#111111111111
(1763085709.975669) can0 4C4#04B404B304B804BF
(1763085709.976678) can0 4C5#04B104B504BF04B6
(1763085709.976929) can0 189#4F02AE0175010040
(1763085709.977693) can0 4C6#04B704B704B704AE
(1763085709.978013) can0 682#3D44240400000000
(1763085709.978708) can0 4C7#04B604B704AD04B4
(1763085709.978993) can0 000A0003#FF1DFFEF10440000
(1763085709.979280) can0 000A0004#FFE6FFCCFF628E02
(1763085709.979739) can0 4C8#0490000000000000
(1763085709.980631) can0 382#0000000000000000
(1763085709.980904) can0 181#810100207F000009
(1763085709.986152) can0 482#0000000008140001
(1763085709.986923) can0 189#5002AE0174010040
(1763085709.988768) can0 000A0003#FF1CFFEF10440000
(1763085709.989053) can0 000A0004#FFE6FFCCFF628E02
(1763085709.994019) can0 701#05
(1763085709.995820) can0 19A#00007C65837C7C7D
(1763085709.996789) can0 29A#7E71847F86820000
(1763085709.997031) can0 186#00004C1D010A0000
(1763085709.997269) can0 189#5002AE0173010040
(1763085709.998055) can0 080#
(1763085709.998770) can0 000A0003#FF1BFFF010430000
(1763085709.999053) can0 000A0004#FFE6FFCDFF628E02
(1763085709.999299) can0 286#6400900100000000
(1763085710.002435) can0 382#0000000000000000
(1763085710.002689) can0 281#0000000000000000
(1763085710.006677) can0 188#0C00233300000000
(1763085710.006933) can0 189#4F02B00175010040
(1763085710.007443) can0 288#5D29242A00140000
(1763085710.007991) can0 482#0000000008140001
(1763085710.008447) can0 388#2121222222000000
(1763085710.008777) can0 000A0003#FF1DFFF210440000
(1763085710.009060) can0 000A0004#FFE6FFCCFF628E02
(1763085710.009379) can0 191#989999999998
(1763085710.010391) can0 192#989898989898
(1763085710.011396) can0 193#989999999899
(1763085710.012404) can0 194#989999999998
(1763085710.013377) can0 195#989999999999
(1763085710.014402) can0 291#0F0F0F100F10
(1763085710.015405) can0 292#0F100F101010
(1763085710.015868) can0 701#05
(1763085710.016408) can0 293#101010101010
(1763085710.016918) can0 189#4F02AC0173010040
(1763085710.017422) can0 294#101010111010
(1763085710.018383) can0 295#111111111111
(1763085710.018770) can0 000A0003#FF1EFFF310450000
(1763085710.019054) can0 000A0004#FFE6FFCCFF628E02
(1763085710.019300) can0 181#810100207F000009
(1763085710.019569) can0 682#3D44240400000000
(1763085710.024381) can0 382#0000000000000000
(1763085710.026920) can0 189#5102AF0174010040
(1763085710.028783) can0 000A0003#FF1FFFF510470000
(1763085710.029069) can0 000A0004#FFE7FFCBFF628E02
(1763085710.029708) can0 482#0000000008140001
(1763085710.036910) can0 186#00004C1D010B0000
(1763085710.037223) can0 189#5102AF0176010040
(1763085710.037782) can0 701#05
(1763085710.038777) can0 000A0003#FF20FFF610490000
(1763085710.039060) can0 000A0004#FFE7FFCCFF628E02
(1763085710.040502) can0 1A3#40005B0A000000
(1763085710.040847) can0 4C4#04AE04B304BD04BF
(1763085710.041858) can0 4C5#04B504B504BF04BF
(1763085710.042871) can0 4C6#04BB04B704B704B2
(1763085710.043885) can0 4C7#04BA04BC04B204BA
(1763085710.044917) can0 4C8#0490000000000000
(1763085710.046130) can0 382#0000000000000000
(1763085710.046360) can0 1A2#00000E0E000000
(1763085710.046614) can0 281#0000000000000000
(1763085710.046843) can0 2A1#090B0B0B0B0C0C07
(1763085710.047074) can0 189#4E02AF0173010040
(1763085710.048770) can0 000A0003#FF21FFF610490000
(1763085710.049056) can0 000A0004#FFE8FFCCFF628E02
(1763085710.051651) can0 482#0000000008140001
(1763085710.056919) can0 189#5002B00175010040
(1763085710.057163) can0 181#810100207F000009
(1763085710.058421) can0 1A0#000000000000
(1763085710.058780) can0 000A0003#FF22FFF610490000
(1763085710.059063) can0 000A0004#FFE9FFCDFF618E02
(1763085710.059514) can0 701#05
(1763085710.059815) can0 000A0000#0000000000000000
(1763085710.060114) can0 000A0001#0000000000000000
(1763085710.060412) can0 000A0002#0000000000000000
(1763085710.060656) can0 682#3D44240400000000
(1763085710.061508) can0 1A4#4000EF07000000
(1763085710.061732) can0 2A3#0D12121212120D0A
(1763085710.066917) can0 189#4F02AF0173010040
(1763085710.067537) can0 1A5#0000350C000000
(1763085710.067950) can0 382#0000000000000000
(1763085710.068788) can0 000A0003#FF1FFFF810480000
(1763085710.069072) can0 000A0004#FFE9FFCAFF618E02
(1763085710.073429) can0 482#0000000008140001
(1763085710.076912) can0 186#00004C1D010C0000
(1763085710.077230) can0 189#5102AF0175010040
(1763085710.078783) can0 000A0003#FF1EFFF910470000
(1763085710.079069) can0 000A0004#FFE8FFCAFF608E02
(1763085710.081573) can0 701#05
(1763085710.086919) can0 189#5002B00175010040
(1763085710.088777) can0 000A0003#FF1DFFFA10450000
(1763085710.089061) can0 000A0004#FFE8FFCAFF618E02
(1763085710.089766) can0 281#0000000000000000
(1763085710.090018) can0 382#0000000000000000
(1763085710.095213) can0 482#0000000008140001
(1763085710.095459) can0 181#810100207F000009
(1763085710.096931) can0 189#5102AE0173010040
(1763085710.097056) can0 080#
(1763085710.098211) can0 286#6400900100000000
(1763085710.098782) can0 000A0003#FF1DFFFA10440000
(1763085710.099071) can0 000A0004#FFE9FFCBFF618E02
(1763085710.100886) can0 682#3D44240400000000
(1763085710.103177) can0 701#05
(1763085710.106022) can0 4C4#04AE04B304BD04BF
(1763085710.106686) can0 188#0C00233300000000
(1763085710.106924) can0 189#4E02B00175010040
(1763085710.107159) can0 4C5#04B504B504BF04BF
(1763085710.107451) can0 288#5D29242A00140000
(1763085710.108046) can0 4C6#04BB04B704B704B2
(1763085710.108427) can0 388#2121222222000000
(1763085710.108785) can0 000A0003#FF1DFFF810460000
(1763085710.109071) can0 000A0004#FFE9FFCBFF628E02
(1763085710.109323) can0 382#0000000000000000
(1763085710.109511) can0 191#989999999998
(1763085710.109741) can0 4C7#04BA04BC04B204BA
(1763085710.110093) can0 4C8#0490000000000000
(1763085710.110383) can0 192#989898989898
(1763085710.111383) can0 193#989999999899
(1763085710.112379) can0 194#989999999998
(1763085710.113385) can0 195#989999999999
(1763085710.114411) can0 291#0F0F0F100F10
(1763085710.115410) can0 292#0F100F101010
(1763085710.116416) can0 293#101010101010
(1763085710.116904) can0 186#00004C1D010D0000
(1763085710.117181) can0 482#0000000008140001
(1763085710.117412) can0 189#5102AC0172010040
(1763085710.117616) can0 294#101010111010
(1763085710.118374) can0 295#111111111111
(1763085710.118785) can0 000A0003#FF1DFFF810470000
(1763085710.119070) can0 000A0004#FFE8FFCBFF628E02
(1763085710.125015) can0 701#05
(1763085710.126911) can0 189#4F02AF0175010040
(1763085710.128786) can0 000A0003#FF1EFFF810490000
(1763085710.129068) can0 000A0004#FFE9FFCCFF628E02
(1763085710.130823) can0 382#0000000000000000
(1763085710.133453) can0 181#810100207F000009
(1763085710.133749) can0 281#0000000000000000
(1763085710.136912) can0 189#4F02B00175010040
(1763085710.138785) can0 000A0003#FF1EFFF8104C0000
(1763085710.139071) can0 000A0004#FFEAFFCCFF628E02
(1763085710.139319) can0 482#0000000008140001
(1763085710.141581) can0 1A3#40005B0A000000
(1763085710.141826) can0 682#3D44240400000000
(1763085710.146907) can0 189#5102AE0174010040
(1763085710.147023) can0 701#05
(1763085710.148781) can0 000A0003#FF1DFFF710500000
(1763085710.149065) can0 000A0004#FFEAFFCDFF638E02
(1763085710.152565) can0 382#0000000000000000
(1763085710.153787) can0 1A2#00000E0E000000
(1763085710.154015) can0 2A1#090B0B0B0B0C0C07
(1763085710.156900) can0 186#00004C1D010E0000
(1763085710.157217) can0 189#5002AF0173010040
(1763085710.158201) can0 482#0000000008140001
(1763085710.158418) can0 1A0#000000000000
(1763085710.158784) can0 000A0003#FF1CFFF710520000
(1763085710.159068) can0 000A0004#FFE9FFCDFF638E02
(1763085710.159800) can0 000A0000#0000000000000000
(1763085710.160098) can0 000A0001#0000000000000000
(1763085710.160396) can0 000A0002#0000000000000000
(1763085710.166915) can0 189#5002B10177010040
(1763085710.168666) can0 1A4#4000EF07000000
(1763085710.168954) can0 000A0003#FF19FFF610520000
(1763085710.169238) can0 000A0004#FFE5FFCDFF648E02
(1763085710.169466) can0 2A3#0D12121312120D0A
(1763085710.169584) can0 701#05
(1763085710.169808) can0 1A5#0000350C000000
(1763085710.171197) can0 4C4#04B404AD04BD04BF
(1763085710.171651) can0 181#810100207F000009
(1763085710.172211) can0 4C5#04B504BA04BA04B6
(1763085710.173221) can0 4C6#04BB04B704B704B2
(1763085710.174235) can0 4C7#04BA04B704B204BA
(1763085710.174485) can0 382#0000000000000000
(1763085710.175271) can0 4C8#0490000000000000
(1763085710.176909) can0 189#5002AE0173010040
(1763085710.177160) can0 281#0000000000000000
(1763085710.178788) can0 000A0003#FF16FFF410520000
(1763085710.179071) can0 000A0004#FFE5FFCEFF648E02
(1763085710.179867) can0 482#0000000008140001
(1763085710.185302) can0 682#3D44240400000000
(1763085710.186905) can0 189#5102AF0175010040
(1763085710.187983) can0 701#05
(1763085710.188785) can0 000A0003#FF15FFF110540000
(1763085710.189071) can0 000A0004#FFE5FFCAFF668E02
(1763085710.196325) can0 382#0000000000000000
(1763085710.196924) can0 186#00004C1D010F0000
(1763085710.197211) can0 189#5002AF0175010040
(1763085710.198073) can0 080#
(1763085710.198791) can0 000A0003#FF15FFEF10550000
(1763085710.199078) can0 000A0004#FFE5FFCBFF668E02
(1763085710.199321) can0 286#6400900100000000
(1763085710.201689) can0 482#0000000008140001
(1763085710.201927) can0 19A#00007E64797C7C7C
(1763085710.202819) can0 29A#7D64848085810000
(1763085710.206702) can0 188#0C001A3300000000
(1763085710.206937) can0 189#5002B00175010040
(1763085710.207428) can0 288#5D29242A00140000
(1763085710.208433) can0 388#2121222222000000
(1763085710.208793) can0 000A0003#FF14FFEC10550000
(1763085710.209084) can0 000A0004#FFE4FFCBFF678E02
(1763085710.209393) can0 191#989999999998
(1763085710.209624) can0 701#05
(1763085710.209974) can0 181#810100207F000009
(1763085710.210405) can0 192#989998989898
(1763085710.211408) can0 193#989899999899
(1763085710.212387) can0 194#989999999998
(1763085710.213392) can0 195#989899999999
(1763085710.214415) can0 291#0F0F0F100F10
(1763085710.215418) can0 292#0F100F101010
(1763085710.216394) can0 293#101010101010
(1763085710.216900) can0 189#4E02AF0175010040
(1763085710.217402) can0 294#101010111010
(1763085710.218081) can0 382#0000000000000000
(1763085710.218401) can0 295#111111111111
(1763085710.218793) can0 000A0003#FF13FFEA10550000
(1763085710.219077) can0 000A0004#FFE4FFCCFF678E02
(1763085710.220765) can0 281#0000000000000000
(1763085710.223596) can0 482#0000000008140001
(1763085710.226235) can0 682#3D44230400000000
(1763085710.226903) can0 189#4F02AF0175010040
(1763085710.228790) can0 000A0003#FF12FFE810590000
(1763085710.229076) can0 000A0004#FFE4FFCCFF678E02
(1763085710.231454) can0 701#05
(1763085710.236373) can0 4C4#04B404AD04BD04BF
(1763085710.236896) can0 186#00004C1D01000000
(1763085710.237241) can0 189#5002AF0171010040
(1763085710.237472) can0 4C5#04B504BA04BA04B6
(1763085710.238396) can0 4C6#04BB04B704B704B2
(1763085710.238791) can0 000A0003#FF12FFE7105B0000
(1763085710.239081) can0 000A0004#FFE4FFCBFF668E02
(1763085710.239410) can0 4C7#04BA04B704B204BA
(1763085710.239882) can0 382#0000000000000000
(1763085710.240444) can0 4C8#0490000000000000
(1763085710.242668) can0 1A3#40005B0A000000
(1763085710.245367) can0 482#0000000008140001
(1763085710.246901) can0 189#5002AF0175010040
(1763085710.248088) can0 181#810100207F000009
(1763085710.248796) can0 000A0003#FF10FFE8105E0000
(1763085710.249079) can0 000A0004#FFE4FFCCFF668E02
(1763085710.253301) can0 701#05
(1763085710.256901) can0 189#4F02B00174010040
(1763085710.258421) can0 1A0#000000000000
(1763085710.258797) can0 000A0003#FF0FFFE810610000
(1763085710.259083) can0 000A0004#FFE4FFC8FF658E02
(1763085710.259805) can0 000A0000#0000000000000000
(1763085710.260107) can0 000A0001#0000000000000000
(1763085710.260403) can0 000A0002#0000000000000000
(1763085710.261443) can0 1A2#00000E0E000000
(1763085710.261673) can0 2A1#090B0B0B0B0C0C07
(1763085710.261926) can0 382#0000000000000000
(1763085710.264450) can0 281#0000000000000000
(1763085710.266903) can0 189#4E02B00175010040
(1763085710.267153) can0 482#0000000008140001
(1763085710.267402) can0 682#3D44240400000000
(1763085710.268792) can0 000A0003#FF10FFE910630000
(1763085710.269079) can0 000A0004#FFE4FFC8FF658E02
(1763085710.272049) can0 1A5#0000350C000000
(1763085710.275262) can0 701#05
(1763085710.275804) can0 1A4#4000EF07000000
(1763085710.276032) can0 2A3#0D12121312120D0A
(1763085710.276892) can0 186#00004C1D01010000
(1763085710.277248) can0 189#4F02AE0174010040
(1763085710.278795) can0 000A0003#FF11FFE910640000
(1763085710.279078) can0 000A0004#FFE3FFC8FF648E02
(1763085710.283569) can0 382#0000000000000000
(1763085710.286272) can0 181#810100207F000009
(1763085710.286893) can0 189#5102AF0173010040
(1763085710.288798) can0 000A0003#FF11FFEA10630000
(1763085710.289085) can0 000A0004#FFE3FFC9FF648E02
(1763085710.289333) can0 482#0000000008140001
(1763085710.296914) can0 189#5002AF0174010040
(1763085710.297029) can0 701#05
(1763085710.297131) can0 080#
(1763085710.298231) can0 286#6400900100000000
(1763085710.298801) can0 000A0003#FF12FFEA10610000
(1763085710.299089) can0 000A0004#FFE3FFC8FF658E02
(1763085710.301553) can0 4C4#04BA04B304BD04BF
(1763085710.302570) can0 4C5#04B104BE04BA04BB
(1763085710.303580) can0 4C6#04B704B704BC04B7
(1763085710.304592) can0 4C7#04B604B204A804AE
(1763085710.305383) can0 382#0000000000000000
(1763085710.305632) can0 4C8#0490000000000000
(1763085710.306648) can0 188#0C005E3300000000
(1763085710.306901) can0 189#4F02AF0174010040
(1763085710.307416) can0 288#5D29242A00140000
(1763085710.308133) can0 682#3D44240400000000
(1763085710.308416) can0 281#0000000000000000
(1763085710.308652) can0 388#2121222222000000
(1763085710.308940) can0 000A0003#FF12FFED10620000
(1763085710.309225) can0 000A0004#FFE3FFC9FF658E02
(1763085710.309414) can0 191#989999999998
(1763085710.310414) can0 192#989998989898
(1763085710.310918) can0 482#0000000008140001
(1763085710.311386) can0 193#989899999899
(1763085710.312394) can0 194#989999999998
(1763085710.313398) can0 195#989899999999
(1763085710.314423) can0 291#0F0F0F100F10
(1763085710.315396) can0 292#0F100F101010
(1763085710.316398) can0 293#101010101010
(1763085710.316888) can0 186#00004C1D01020000
(1763085710.317222) can0 189#4F02AD0171010040
(1763085710.317428) can0 294#101010111010
(1763085710.318404) can0 295#111111111111
(1763085710.318801) can0 000A0003#FF12FFEF10630000
(1763085710.319087) can0 000A0004#FFE4FFC9FF618E02
(1763085710.319204) can0 701#05
(1763085710.324567) can0 181#810100207F000009
(1763085710.326891) can0 189#5102AE01750100C0
(1763085710.327333) can0 382#0000000000000000
(1763085710.328806) can0 000A0003#FF13FFF410610000
(1763085710.329089) can0 000A0004#FFE4FFCAFF618E02
(1763085710.332654) can0 482#0000000008140001
(1763085710.336895) can0 189#5102AF01730100C0
(1763085710.338815) can0 000A0003#FF13FFF810600000
(1763085710.339098) can0 000A0004#FFE4FFC7FF618E02
(1763085710.340614) can0 701#05
(1763085710.343740) can0 1A3#40005B0A000000
(1763085710.346892) can0 189#5002AF01740100C0
(1763085710.348814) can0 000A0003#FF13FFFA10600000
(1763085710.349101) can0 000A0004#FFE4FFC7FF628E02
(1763085710.349346) can0 682#3D44240400000000
(1763085710.349602) can0 382#0000000000000000
(1763085710.351768) can0 281#0000000000000000
(1763085710.352017) can0 482#0000000008140001
(1763085710.356888) can0 186#00004C1D01030000
(1763085710.357236) can0 189#5002AF01730100C0
(1763085710.358422) can0 1A0#000000000000
(1763085710.358805) can0 000A0003#FF12FFFD10600000
(1763085710.359093) can0 000A0004#FFE4FFC7FF628E02
(1763085710.359822) can0 000A0000#0000000000000000
(1763085710.360120) can0 000A0001#0000000000000000
(1763085710.360419) can0 000A0002#0000000000000000
(1763085710.362450) can0 701#05
(1763085710.362777) can0 181#810100207F000009
(1763085710.366739) can0 4C4#04BA04B804BD04BA
(1763085710.366973) can0 189#5002AF01730100C0
(1763085710.367753) can0 4C5#04B104BE04BA04B6
(1763085710.368803) can0 000A0003#FF11FFFB10630000
(1763085710.369085) can0 000A0004#FFE5FFC4FF638E02
(1763085710.369316) can0 1A2#00000E0E000000
(1763085710.369545) can0 2A1#090B0B0B0B0C0C07
(1763085710.369779) can0 4C6#04BB04BB04B704B2
(1763085710.370010) can0 4C7#04B604BC04B204BA
(1763085710.370833) can0 4C8#0490000000000000
(1763085710.371082) can0 382#0000000000000000
(1763085710.373589) can0 482#0000000008140001
(1763085710.374285) can0 1A5#0000350C000000
(1763085710.376889) can0 189#4F02AF01740100C0
(1763085710.378812) can0 000A0003#FF11FFFA10640000
(1763085710.379097) can0 000A0004#FFE4FFC4FF638E02
(1763085710.382963) can0 1A4#4000EF07000000
(1763085710.383189) can0 2A3#0D12121312120D0A
(1763085710.384300) can0 701#05
(1763085710.386890) can0 189#5002AF01740100C0
(1763085710.388806) can0 000A0003#FF0FFFFA10660000
(1763085710.389090) can0 000A0004#FFE5FFC4FF638E02
(1763085710.389987) can0 682#3D44240400000000
(1763085710.390810) can0 19A#00007D64737F7C7E
(1763085710.391807) can0 29A#7F6D848184800000
(1763085710.392838) can0 382#0000000000000000
(1763085710.395451) can0 281#0000000000000000
(1763085710.395702) can0 482#0000000008140001
(1763085710.396908) can0 186#00004C1D01040000
(1763085710.397225) can0 189#4F02AF01720100C0
(1763085710.398028) can0 080#
(1763085710.398809) can0 000A0003#FF0DFFFA10670000
(1763085710.399090) can0 000A0004#FFE5FFC5FF638E02
(1763085710.399334) can0 286#6400900100000000
(1763085710.400975) can0 181#810100207F000009
(1763085710.406118) can0 701#05
(1763085710.406665) can0 188#0C00B63200000000
(1763085710.406899) can0 189#4F02AF01750100C0
(1763085710.407439) can0 288#5D29242200140000
(1763085710.408449) can0 388#2121222222000000
(1763085710.408805) can0 000A0003#FF0CFFFC10680000
(1763085710.409089) can0 000A0004#FFE5FFC5FF638E02
(1763085710.409391) can0 191#989999999998
(1763085710.410373) can0 192#989898989898
(1763085710.411393) can0 193#989899999899
(1763085710.412400) can0 194#989999999998
(1763085710.413407) can0 195#989899999999
(1763085710.414401) can0 291#0F0F0F100F10
(1763085710.414647) can0 382#0000000000000000
(1763085710.415401) can0 292#0F100F101010
(1763085710.416407) can0 293#101010101010
(1763085710.416885) can0 189#4E02AE01730100C0
(1763085710.417363) can0 482#0000000008140001
(1763085710.417568) can0 294#101010111010
(1763085710.418412) can0 295#111111111111
(1763085710.418824) can0 000A0003#FF0BFFFD10680000
(1763085710.419108) can0 000A0004#FFE5FFC6FF638E02
(1763085710.426884) can0 189#4F02B001750100C0
(1763085710.427955) can0 701#05
(1763085710.428812) can0 000A0003#FF0BFFFF10690000
(1763085710.429096) can0 000A0004#FFE9FFC6FF668E02
(1763085710.430930) can0 682#3D44240400000000
(1763085710.431947) can0 4C4#04BA04B804C204BA
(1763085710.432962) can0 4C5#04B104BE04BA04B6
(1763085710.433977) can0 4C6#04BB04BB04B704B2
(1763085710.434992) can0 4C7#04B604BC04B204BA
(1763085710.436023) can0 4C8#0490000000000000
(1763085710.436387) can0 382#0000000000000000
(1763085710.436876) can0 186#00004C1D01050000
(1763085710.437220) can0 189#4F02AE01720100C0
(1763085710.438817) can0 000A0003#FF0C0000106A0000
(1763085710.439099) can0 000A0004#FFEAFFC6FF678E02
(1763085710.439344) can0 482#0000000008140001
(1763085710.439592) can0 181#810100207F000009
(1763085710.439873) can0 281#0000000000000000
(1763085710.444815) can0 1A3#40005B0A000000
(1763085710.446882) can0 189#5102AF01750100C0
(1763085710.448817) can0 000A0003#FF0C0001106C0000
(1763085710.449101) can0 000A0004#FFEAFFC8FF678E02
(1763085710.449799) can0 701#05
(1763085710.456883) can0 189#5002AF01750100C0
(1763085710.458329) can0 382#0000000000000000
(1763085710.458544) can0 1A0#000000000000
(1763085710.458836) can0 000A0003#FF0C0001106C0000
(1763085710.459118) can0 000A0004#FFE9FFC7FF678E02
(1763085710.459827) can0 000A0000#0000000000000000
(1763085710.460128) can0 000A0001#0000000000000000
(1763085710.460425) can0 000A0002#0000000000000000
(1763085710.461035) can0 482#0000000008140001
(1763085710.466886) can0 189#5102AF01740100C0
(1763085710.468815) can0 000A0003#FF0B0001106E0000
(1763085710.469102) can0 000A0004#FFE5FFC8FF678E02
(1763085710.471620) can0 701#05
(1763085710.471895) can0 682#3D44230400000000
(1763085710.476509) can0 1A5#0000350C000000
(1763085710.476757) can0 1A2#00000E0E000000
(1763085710.477001) can0 186#00004C1D01060000
(1763085710.477229) can0 2A1#090B0B0B0B0C0C07
(1763085710.477473) can0 181#810100207F000009
(1763085710.477708) can0 189#5002AE01730100C0
(1763085710.478823) can0 000A0003#FF0A000110700000
(1763085710.479105) can0 000A0004#FFE5FFC5FF668E02
(1763085710.482769) can0 281#0000000000000000
(1763085710.483021) can0 482#0000000008140001
(1763085710.483319) can0 382#0000000000000000
(1763085710.486883) can0 189#5002AF01740100C0
(1763085710.488820) can0 000A0003#FF09000010700000
(1763085710.489106) can0 000A0004#FFE4FFC4FF668E02
(1763085710.490123) can0 1A4#4000EF07000000
(1763085710.490351) can0 2A3#0D12121312120D0A
(1763085710.493459) can0 701#05
(1763085710.496901) can0 189#5102AF01730100C0
(1763085710.497135) can0 4C4#04B404AD04B804BF
(1763085710.497240) can0 080#
(1763085710.498135) can0 4C5#04B504BA04BF04B6
(1763085710.498380) can0 286#6400900100000000
(1763085710.498827) can0 000A0003#FF09FFFE106F0000
(1763085710.499113) can0 000A0004#FFE4FFC5FF668E02
(1763085710.499346) can0 4C6#04B704B704BC04AE
(1763085710.500166) can0 4C7#04B604B704A804AE
(1763085710.501196) can0 4C8#0490000000000000
(1763085710.504593) can0 482#0000000008140001
(1763085710.504846) can0 382#0000000000000000
(1763085710.506682) can0 188#0C00233300000000
(1763085710.506917) can0 189#5002AF01730100C0
(1763085710.507451) can0 288#5D29242A00140000
(1763085710.508455) can0 388#2121222222000000
(1763085710.508825) can0 000A0003#FF07FFFC106C0000
(1763085710.509109) can0 000A0004#FFE5FFC6FF668E02
(1763085710.509387) can0 191#989999999998
(1763085710.510399) can0 192#989898989898
(1763085710.511401) can0 193#989999999899
(1763085710.512411) can0 194#989999999999
(1763085710.512815) can0 682#3D44240400000000
(1763085710.513385) can0 195#989899999999
(1763085710.514409) can0 291#0F0F0F100F10
(1763085710.515412) can0 292#0F100F101010
(1763085710.515656) can0 181#810100207F000009
(1763085710.515816) can0 701#05
(1763085710.516416) can0 293#101010101010
(1763085710.516872) can0 186#00004C1D01070000
(1763085710.517242) can0 189#4D02AD01730100C0
(1763085710.517446) can0 294#101010111010
(1763085710.518391) can0 295#111111111111
(1763085710.518823) can0 000A0003#FF05FFFA106A0000
(1763085710.519109) can0 000A0004#FFE4FFC7FF668E02
(1763085710.526442) can0 382#0000000000000000
(1763085710.526697) can0 281#0000000000000000
(1763085710.526933) can0 189#5102B001740100C0
(1763085710.527178) can0 482#0000000008140001
(1763085710.528827) can0 000A0003#FF03FFFA10690000
(1763085710.529113) can0 000A0004#FFE4FFC7FF678E02
(1763085710.536878) can0 189#5102AF01740100C0
(1763085710.537125) can0 701#05
(1763085710.538825) can0 000A0003#FF00FFF9106A0000
(1763085710.539112) can0 000A0004#FFE7FFC7FF678E02
(1763085710.545896) can0 1A3#40005B0A000000
(1763085710.546877) can0 189#5002AF01750100C0
(1763085710.548308) can0 482#0000000008140001
(1763085710.548586) can0 382#0000000000000000
(1763085710.548876) can0 000A0003#FEFDFFF810680000
(1763085710.549160) can0 000A0004#FFE8FFC8FF678E02
(1763085710.553743) can0 682#3D44230400000000
(1763085710.553989) can0 181#810100207F000009
(1763085710.556867) can0 186#00004C1D01080000
(1763085710.557255) can0 189#5102AF01730100C0
(1763085710.558427) can0 1A0#000000000000
(1763085710.558832) can0 000A0003#FEFBFFF610640000
(1763085710.559115) can0 000A0004#FFE8FFC8FF678E02
(1763085710.559232) can0 701#05
(1763085710.559840) can0 000A0000#0000000000000000
(1763085710.560139) can0 000A0001#0000000000000000
(1763085710.560438) can0 000A0002#0000000000000000
(1763085710.562304) can0 4C4#04B404AD04B804BF
(1763085710.563312) can0 4C5#04B504BA04BF04B6
(1763085710.564328) can0 4C6#04B704B704BC04AE
(1763085710.565342) can0 4C7#04B604B704A804AE
(1763085710.566376) can0 4C8#0490000000000000
(1763085710.566873) can0 189#4F02AE01720100C0
(1763085710.568850) can0 000A0003#FEFBFFF610640000
(1763085710.569118) can0 000A0004#FFE8FFC9FF678E02
(1763085710.570098) can0 482#0000000008140001
(1763085710.570350) can0 382#0000000000000000
(1763085710.570603) can0 281#0000000000000000
(1763085710.576871) can0 189#5102AE01730100C0
(1763085710.578740) can0 1A5#0000350C000000
(1763085710.579029) can0 000A0003#FEFEFFF610640000
(1763085710.579311) can0 000A0004#FFE8FFC9FF688E02
(1763085710.580805) can0 701#05
(1763085710.584428) can0 1A2#00000E0E000000
(1763085710.584658) can0 2A1#090B0B0B0B0C0B07
(1763085710.586877) can0 189#5002AF01730100C0
(1763085710.588829) can0 000A0003#FF01FFF710640000
(1763085710.589113) can0 000A0004#FFE6FFCAFF688E02
(1763085710.591942) can0 382#0000000000000000
(1763085710.592190) can0 181#810100207F000009
(1763085710.592476) can0 482#0000000008140001
(1763085710.594685) can0 682#3D44240400000000
(1763085710.596801) can0 19A#00008085767F817F
(1763085710.597040) can0 186#00004C1D01090000
(1763085710.597275) can0 189#4D02AF01740100C0
(1763085710.597497) can0 1A4#4000EF07000000
(1763085710.597723) can0 2A3#0E12121312120D0A
(1763085710.597961) can0 29A#8371837F82850000
(1763085710.598077) can0 080#
(1763085710.598843) can0 000A0003#FF03FFF710630000
(1763085710.599129) can0 000A0004#FFE7FFCAFF678E02
(1763085710.599373) can0 286#6400900100000000
(1763085710.602622) can0 701#05
(1763085710.606685) can0 188#0C00113300000000
(1763085710.606917) can0 189#5102AF01740100C0
(1763085710.607455) can0 288#5D29242100140000
(1763085710.608434) can0 388#2121222222000000
(1763085710.608826) can0 000A0003#FF05FFF710610000
(1763085710.609110) can0 000A0004#FFE7FFCCFF688E02
(1763085710.609376) can0 191#989999999998
(1763085710.610388) can0 192#989898989898
(1763085710.611392) can0 193#989999999899
(1763085710.612388) can0 194#989999999999
(1763085710.613392) can0 195#989899999999
(1763085710.613779) can0 281#0000000000000000
(1763085710.614029) can0 482#0000000008140001
(1763085710.614317) can0 382#0000000000000000
(1763085710.614521) can0 291#0F0F0F100F10
(1763085710.615418) can0 292#0F100F101010
(1763085710.616424) can0 293#101010101010
(1763085710.616868) can0 189#4D02AE01740100C0
(1763085710.617386) can0 294#101010111010
(1763085710.618381) can0 295#111111111111
(1763085710.618834) can0 000A0003#FF06FFF810600000
(1763085710.619117) can0 000A0004#FFE7FFCCFF688E02
(1763085710.624456) can0 701#05
(1763085710.626870) can0 189#4F02B001750100C0
(1763085710.627485) can0 4C4#04B404AD04BD04BF
(1763085710.628497) can0 4C5#04B104BA04BA04B6
(1763085710.628835) can0 000A0003#FF06FFF910600000
(1763085710.629119) can0 000A0004#FFE6FFCCFF688E02
(1763085710.629509) can0 4C6#04B204B204BC04B3
(1763085710.630182) can0 181#810100207F000009
(1763085710.630525) can0 4C7#04B604B204B204AE
(1763085710.631558) can0 4C8#0490000000000000
(1763085710.635597) can0 482#0000000008140001
(1763085710.635843) can0 682#3D44240400000000
(1763085710.636097) can0 382#0000000000000000
(1763085710.636861) can0 186#00004C1D010A0000
(1763085710.637243) can0 189#4F02AF01740100C0
(1763085710.638836) can0 000A0003#FF06FFF910610000
(1763085710.639119) can0 000A0004#FFE6FFCDFF688E02
(1763085710.646308) can0 701#05
(1763085710.646867) can0 189#5002AF01740100C0
(1763085710.647091) can0 1A3#40005B0A000000
(1763085710.648839) can0 000A0003#FF06FFF810610000
(1763085710.649123) can0 000A0004#FFE6FFCDFF688E02
(1763085710.656870) can0 189#5002B001740100C0
(1763085710.657449) can0 382#0000000000000000
(1763085710.657705) can0 281#0000000000000000
(1763085710.657977) can0 482#0000000008140001
(1763085710.658426) can0 1A0#000000000000
(1763085710.658834) can0 000A0003#FF06FFF710620000
(1763085710.659117) can0 000A0004#FFE5FFCDFF688E02
(1763085710.659843) can0 000A0000#0000000000000000
(1763085710.660143) can0 000A0001#0000000000000000
(1763085710.660442) can0 000A0002#0000000000000000
(1763085710.666869) can0 189#5002AF01730100C0
(1763085710.668120) can0 701#05
(1763085710.668471) can0 181#810100207F000009
(1763085710.668840) can0 000A0003#FF08FFF610610000
(1763085710.669122) can0 000A0004#FFE5FFCCFF688E02
(1763085710.676562) can0 682#3D44240400000000
(1763085710.676871) can0 186#00004C1D010B0000
(1763085710.677266) can0 189#4F02AF01730100C0
(1763085710.678838) can0 000A0003#FF0AFFF610610000
(1763085710.679121) can0 000A0004#FFE5FFD1FF698E02
(1763085710.679388) can0 482#0000000008140001
(1763085710.679643) can0 382#0000000000000000
(1763085710.680975) can0 1A5#0000350C000000
(1763085710.686866) can0 189#5002B001750100C0
(1763085710.688843) can0 000A0003#FF0CFFF6105F0000
(1763085710.689129) can0 000A0004#FFE4FFD1FF6A8E02
(1763085710.689962) can0 701#05
(1763085710.692063) can0 1A2#00000E0E000000
(1763085710.692294) can0 2A1#090B0C0B0B0C0B07
(1763085710.692656) can0 4C4#04B404B304B804BA
(1763085710.693674) can0 4C5#04AC04BA04BF04B6
(1763085710.694687) can0 4C6#04B704BB04B704B3
(1763085710.695696) can0 4C7#04B604B704B204B4
(1763085710.696732) can0 4C8#0490000000000000
(1763085710.696968) can0 189#4E02B001740100C0
(1763085710.697076) can0 080#
(1763085710.698231) can0 286#6400900100000000
(1763085710.698835) can0 000A0003#FF0EFFF6105B0000
(1763085710.699118) can0 000A0004#FFE9FFD2FF6A8E02
(1763085710.701133) can0 482#0000000008140001
(1763085710.701421) can0 382#0000000000000000
(1763085710.701677) can0 281#0000000000000000
(1763085710.704393) can0 1A4#4000EF07000000
(1763085710.704619) can0 2A3#0E12121312120E0A
(1763085710.706589) can0 181#810100207F000009
(1763085710.706832) can0 188#0C00353300000000
(1763085710.707068) can0 189#5002AF01730100C0
(1763085710.707434) can0 288#5D29242A00140000
(1763085710.708440) can0 388#2121222222000000
(1763085710.708840) can0 000A0003#FF0FFFF610580000
(1763085710.709124) can0 000A0004#FFE9FFD2FF6A8E02
(1763085710.709402) can0 191#989999999998
(1763085710.710412) can0 192#989898989898
(1763085710.711416) can0 193#989899999899
(1763085710.711810) can0 701#05
(1763085710.712394) can0 194#989999999999
(1763085710.713399) can0 195#989999999999
(1763085710.714424) can0 291#0F0F0F100F10
(1763085710.715424) can0 292#0F100F101010
(1763085710.716401) can0 293#101010101010
(1763085710.716853) can0 186#00004C1D010C0000
(1763085710.717229) can0 189#4F02AD01710100C0
(1763085710.717433) can0 294#101010111010
(1763085710.717677) can0 682#3D44240400000000
(1763085710.718407) can0 295#111111111111
(1763085710.718841) can0 000A0003#FF10FFF410530000
(1763085710.719125) can0 000A0004#FFE8FFD1FF698E02
(1763085710.722944) can0 382#0000000000000000
(1763085710.723193) can0 482#0000000008140001
(1763085710.726860) can0 189#4E02AF0173010040
(1763085710.728843) can0 000A0003#FF11FFF310500000
(1763085710.729129) can0 000A0004#FFE7FFD1FF698E02
(1763085710.733624) can0 701#05
(1763085710.736861) can0 189#4F02B00174010040
(1763085710.738844) can0 000A0003#FF11FFF0104F0000
(1763085710.739128) can0 000A0004#FFE7FFD2FF6A8E02
(1763085710.744780) can0 181#810100207F000009
(1763085710.745034) can0 281#0000000000000000
(1763085710.745312) can0 482#0000000008140001
(1763085710.745566) can0 382#0000000000000000
(1763085710.746859) can0 189#4F02AF0173010040
(1763085710.748047) can0 1A3#40005B0A000000
(1763085710.748849) can0 000A0003#FF11FFEF104E0000
(1763085710.749132) can0 000A0004#FFE8FFD1FF698E02
(1763085710.755464) can0 701#05
(1763085710.756849) can0 186#00004C1D010D0000
(1763085710.757237) can0 189#4F02AF0173010040
(1763085710.757829) can0 4C4#04BA04B304B804BA
(1763085710.758429) can0 1A0#000000000000
(1763085710.758671) can0 682#3D44240400000000
(1763085710.758957) can0 000A0003#FF10FFED104E0000
(1763085710.759241) can0 000A0004#FFE8FFD1FF698E02
(1763085710.759474) can0 4C5#04AC04BA04BA04B2
(1763085710.759856) can0 000A0000#0000000000000000
(1763085710.760155) can0 000A0001#0000000000000000
(1763085710.760453) can0 000A0002#0000000000000000
(1763085710.760688) can0 4C6#04BB04BF04B304AE
(1763085710.760918) can0 4C7#04BA04B704B204BA
(1763085710.761923) can0 4C8#0490000000000000
(1763085710.766596) can0 482#0000000008140001
(1763085710.766850) can0 382#0000000000000000
(1763085710.767083) can0 189#5002AF0173010040
(1763085710.768853) can0 000A0003#FF11FFEC104E0000
(1763085710.769137) can0 000A0004#FFE4FFD0FF698E02
(1763085710.776859) can0 189#5002AF0173010040
(1763085710.777317) can0 701#05
(1763085710.778840) can0 000A0003#FF14FFEE10510000
(1763085710.779127) can0 000A0004#FFE4FFCFFF698E02
(1763085710.783074) can0 181#810100207F000009
(1763085710.783297) can0 1A5#0000350C000000
(1763085710.786857) can0 189#5002AF0173010040
(1763085710.788445) can0 382#0000000000000000
(1763085710.788701) can0 281#0000000000000000
(1763085710.788987) can0 000A0003#FF16FFEF10520000
(1763085710.789275) can0 000A0004#FFE4FFCFFF698E02
(1763085710.789521) can0 482#0000000008140001
(1763085710.796874) can0 186#00004C1D010E0000
(1763085710.797229) can0 189#4F02AE0175010040
(1763085710.798091) can0 080#
(1763085710.798846) can0 000A0003#FF16FFF110520000
(1763085710.799133) can0 000A0004#FFE4FFCFFF698E02
(1763085710.799377) can0 286#6400900100000000
(1763085710.799493) can0 701#05
(1763085710.799724) can0 1A2#00000E0E000000
(1763085710.799955) can0 2A1#090B0C0B0B0C0B07
(1763085710.800200) can0 682#3D44240400000000
(1763085710.802801) can0 19A#00007F70627F8080
(1763085710.803805) can0 29A#8279838381830000
(1763085710.806858) can0 189#4E02B00175010040
(1763085710.808844) can0 000A0003#FF17FFF210510000
(1763085710.809130) can0 000A0004#FFE2FFCFFF698E02
(1763085710.810313) can0 482#0000000008140001
(1763085710.810591) can0 382#0000000000000000
(1763085710.811550) can0 1A4#4000EF07000000
(1763085710.811780) can0 2A3#0D12121312120E0A
(1763085710.815725) can0 188#0C00083300000000
(1763085710.816431) can0 288#5D29241E00140000
(1763085710.816853) can0 189#4F02AE0174010040
(1763085710.817433) can0 388#2121222222000000
(1763085710.818257) can0 701#05
(1763085710.818446) can0 191#989999999998
(1763085710.818850) can0 000A0003#FF17FFF310500000
(1763085710.819138) can0 000A0004#FFDFFFD1FF6A8E02
(1763085710.819390) can0 192#989898989898
(1763085710.820396) can0 193#989899999899
(1763085710.821223) can0 181#810100207F000009
(1763085710.821415) can0 194#989999999999
(1763085710.822412) can0 195#989999999999
(1763085710.823031) can0 4C4#04AE04B304B804BA
(1763085710.823433) can0 291#0F0F0F100F10
(1763085710.824045) can0 4C5#04B504B504BA04B2
(1763085710.824405) can0 292#0F100F101010
(1763085710.825064) can0 4C6#04B204B204B704AE
(1763085710.825409) can0 293#101010101010
(1763085710.826073) can0 4C7#04B104B704AD04BA
(1763085710.826423) can0 294#101010111010
(1763085710.826850) can0 189#4D02AB0171010040
(1763085710.827108) can0 4C8#0490000000000000
(1763085710.827414) can0 295#111111111111
(1763085710.828846) can0 000A0003#FF18FFF310500000
(1763085710.829130) can0 000A0004#FFDEFFD1FF6A8E02
(1763085710.832099) can0 482#0000000008140001
(1763085710.832352) can0 382#0000000000000000
(1763085710.832608) can0 281#0000000000000000
(1763085710.836846) can0 186#00004C1D010F0000
(1763085710.837258) can0 189#4F02AF0172010040
(1763085710.838854) can0 000A0003#FF16FFF3104C0000
(1763085710.839135) can0 000A0004#FFDEFFD1FF698E02
(1763085710.842809) can0 701#05
(1763085710.843157) can0 682#3D44240400000000
(1763085710.846853) can0 189#4F02B10173010040
(1763085710.848854) can0 000A0003#FF14FFF2104A0000
(1763085710.849136) can0 000A0004#FFDEFFD1FF688E02
(1763085710.849360) can0 1A3#40005B0A000000
(1763085710.853945) can0 382#0000000000000000
(1763085710.854196) can0 482#0000000008140001
(1763085710.856849) can0 189#4F02B00174010040
(1763085710.858430) can0 1A0#000000000000
(1763085710.858857) can0 000A0003#FF13FFF110480000
(1763085710.859140) can0 000A0004#FFDEFFD1FF6C8E02
(1763085710.859415) can0 181#810100207F000009
(1763085710.859867) can0 000A0000#0000000000000000
(1763085710.860167) can0 000A0001#0000000000000000
(1763085710.860465) can0 000A0002#0000000000000000
(1763085710.864626) can0 701#05
(1763085710.866852) can0 189#5002AF0171010040
(1763085710.868857) can0 000A0003#FF12FFEF10470000
(1763085710.869141) can0 000A0004#FFDEFFD2FF6D8E02
(1763085710.875776) can0 281#0000000000000000
(1763085710.876024) can0 482#0000000008140001
(1763085710.876318) can0 382#0000000000000000
(1763085710.876844) can0 186#00004C1D01000000
(1763085710.877236) can0 189#5002AE0173010040
(1763085710.878853) can0 000A0003#FF0EFFEE10440000
(1763085710.879138) can0 000A0004#FFDFFFD2FF6D8E02
(1763085710.884072) can0 682#3D44240400000000
(1763085710.885468) can0 1A5#0000350C000000
(1763085710.886468) can0 701#05
(1763085710.886845) can0 189#4F02AF0175010040
(1763085710.888199) can0 4C4#04AE04B304B804BA
(1763085710.888853) can0 000A0003#FF0AFFED10430000
(1763085710.889139) can0 000A0004#FFDFFFD2FF6C8E02
(1763085710.889371) can0 4C5#04B504B504BA04B2
(1763085710.890234) can0 4C6#04B204B204B704AE
(1763085710.891241) can0 4C7#04B104B704AD04BA
(1763085710.892278) can0 4C8#0490000000000000
(1763085710.896867) can0 189#5002B00175010040
(1763085710.897093) can0 080#
(1763085710.897614) can0 482#0000000008140001
(1763085710.897868) can0 382#0000000000000000
(1763085710.898144) can0 181#810100207F000009
(1763085710.898389) can0 286#6400900100000000
(1763085710.898851) can0 000A0003#FF0AFFEB10420000
(1763085710.899137) can0 000A0004#FFDFFFD2FF6C8E02
(1763085710.906662) can0 188#0C00743300000000
(1763085710.906898) can0 189#5002B00175010040
(1763085710.907383) can0 1A2#00000E0E000000
(1763085710.907618) can0 288#5D29242A00140000
(1763085710.907851) can0 2A1#090B0C0B0B0C0B07
(1763085710.908452) can0 388#2121222222000000
(1763085710.908569) can0 701#05
(1763085710.908857) can0 000A0003#FF0AFFE910420000
(1763085710.909142) can0 000A0004#FFDEFFD2FF6C8E02
(1763085710.909412) can0 191#989999999998
(1763085710.910395) can0 192#989898989898
(1763085710.911408) can0 193#989899999899
(1763085710.912417) can0 194#989999999998
(1763085710.913411) can0 195#989999999999
(1763085710.914404) can0 291#0F0F0F100F10
(1763085710.915407) can0 292#0F100F101010
(1763085710.916413) can0 293#101010101010
(1763085710.916835) can0 186#00004C1D01010000
(1763085710.917081) can0 482#0000000008140001
(1763085710.917315) can0 189#4F02AF0172010040
(1763085710.917519) can0 294#101010111010
(1763085710.918417) can0 295#111111111111
(1763085710.918705) can0 1A4#4000EF07000000
(1763085710.918992) can0 000A0003#FF09FFE910420000
(1763085710.919279) can0 000A0004#FFDEFFD2FF6B8E02
(1763085710.919506) can0 2A3#0D12121212120E0A
(1763085710.919757) can0 382#0000000000000000
(1763085710.920013) can0 281#0000000000000000
(1763085710.925042) can0 682#3D44240400000000
(1763085710.926846) can0 189#5002AF0172010040
(1763085710.928864) can0 000A0003#FF09FFE910420000
(1763085710.929148) can0 000A0004#FFDDFFD3FF6B8E02
(1763085710.930124) can0 701#05
(1763085710.935841) can0 181#810100207F000009
(1763085710.936840) can0 189#5102AF0173010040
(1763085710.938538) can0 482#0000000008140001
(1763085710.938858) can0 000A0003#FF0AFFE910410000
(1763085710.939144) can0 000A0004#FFDEFFD3FF6B8E02
(1763085710.941395) can0 382#0000000000000000
(1763085710.946844) can0 189#5102B00174010040
(1763085710.948858) can0 000A0003#FF0CFFE9103F0000
(1763085710.949144) can0 000A0004#FFDEFFD3FF6A8E02
(1763085710.950191) can0 1A3#40005B0A000000
(1763085710.951965) can0 701#05
(1763085710.953382) can0 4C4#04AE04B304BD04BA
(1763085710.954398) can0 4C5#04B104BA04BA04B6
(1763085710.955412) can0 4C6#04BB04B704B704B3
(1763085710.956426) can0 4C7#04BA04B204AD04B4
(1763085710.956836) can0 186#00004C1D01020000
(1763085710.957252) can0 189#4E02AF0171010040
(1763085710.957501) can0 4C8#0490000000000000
(1763085710.958001) can0 482#0000000008140001
(1763085710.958430) can0 1A0#000000000000
(1763085710.958859) can0 000A0003#FF0FFFE9103D0000
(1763085710.959145) can0 000A0004#FFDEFFD3FF6A8E02
(1763085710.959871) can0 000A0000#0000000000000000
(1763085710.960171) can0 000A0001#0000000000000000
(1763085710.960469) can0 000A0002#0000000000000000
(1763085710.963138) can0 382#0000000000000000
(1763085710.963427) can0 281#0000000000000000
(1763085710.966098) can0 682#3D44240400000000
(1763085710.966855) can0 189#4F02AF0172010040
(1763085710.968878) can0 000A0003#FF10FFE8103D0000
(1763085710.969153) can0 000A0004#FFDEFFD2FF6A8E02
(1763085710.974082) can0 181#810100207F000009
(1763085710.974155) can0 701#05
(1763085710.976863) can0 189#4F02AF0174010040
(1763085710.978874) can0 000A0003#FF11FFE7103D0000
(1763085710.979150) can0 000A0004#FFDEFFD3FF698E02
(1763085710.979473) can0 482#0000000008140001
(1763085710.984943) can0 382#0000000000000000
(1763085710.986835) can0 189#4F02AF0174010040
(1763085710.987721) can0 1A5#0000350C000000
(1763085710.988864) can0 000A0003#FF10FFE6103D0000
(1763085710.989151) can0 000A0004#FFDFFFD3FF698E02
(1763085710.991824) can0 19A#00007F75747E817E
(1763085710.992798) can0 29A#806E837F83830000
(1763085710.992914) can0 701#05
(1763085710.996857) can0 186#00004C1D01030000
(1763085710.997246) can0 189#5002AE0173010040
(1763085710.998078) can0 080#
(1763085710.998863) can0 000A0003#FF10FFE6103D0000
(1763085710.999146) can0 000A0004#FFDEFFD2FF698E02
(1763085710.999390) can0 286#6400900100000000
(1763085711.001447) can0 482#0000000008140001
(1763085711.006668) can0 188#0C00083300000000
(1763085711.006898) can0 189#5002AF0175010040
(1763085711.007151) can0 281#0000000000000000
(1763085711.007427) can0 682#3D44240400000000
(1763085711.007663) can0 288#5D29242A00140000
(1763085711.007913) can0 382#0000000000000000
(1763085711.008441) can0 388#2121222222000000
(1763085711.008865) can0 000A0003#FF10FFE6103D0000
(1763085711.009149) can0 000A0004#FFDEFFD2FF698E02
(1763085711.009373) can0 191#989999999998
(1763085711.010382) can0 192#989898989898
(1763085711.011407) can0 193#989899999899
(1763085711.012331) can0 181#810100207F000009
(1763085711.012522) can0 194#989999999998
(1763085711.013388) can0 195#989999999999
(1763085711.014412) can0 291#0F0F0F100F10
(1763085711.015039) can0 1A2#00000E0E000000
(1763085711.015266) can0 2A1#090B0B0B0B0C0B07
(1763085711.015468) can0 292#0F100F101010
(1763085711.016399) can0 293#101010101010
(1763085711.016828) can0 189#4F02AD0171010040
(1763085711.017410) can0 294#101010111010
(1763085711.017527) can0 701#05
(1763085711.018378) can0 295#111111111111
(1763085711.018608) can0 4C4#04AE04B304BD04BA
(1763085711.018893) can0 000A0003#FF12FFE6103D0000
(1763085711.019179) can0 000A0004#FFDEFFD3FF6A8E02
(1763085711.019585) can0 4C5#04B104BA04BA04B6
(1763085711.020593) can0 4C6#04BB04B704BC04B3
(1763085711.021605) can0 4C7#04B604B704B204BA
(1763085711.022640) can0 4C8#0490000000000000
(1763085711.023240) can0 482#0000000008140001
(1763085711.025852) can0 1A4#4000EF07000000
(1763085711.026078) can0 2A3#0D12121212120E0A
(1763085711.026831) can0 189#4E02AF0174010040
(1763085711.028638) can0 382#0000000000000000
(1763085711.028925) can0 000A0003#FF14FFE6103E0000
(1763085711.029210) can0 000A0004#FFDEFFD3FF6A8E02
(1763085711.036562) can0 701#05
(1763085711.036843) can0 186#00004C1D01040000
(1763085711.037241) can0 189#5002AF0173010040
(1763085711.038878) can0 000A0003#FF16FFE4103D0000
(1763085711.039163) can0 000A0004#FFDEFFD3FF6A8E02
(1763085711.044977) can0 482#0000000008140001
(1763085711.046832) can0 189#4F02B00174010040
(1763085711.048864) can0 000A0003#FF18FFE2103C0000
(1763085711.049150) can0 000A0004#FFDEFFD2FF698E02
(1763085711.050449) can0 382#0000000000000000
(1763085711.050692) can0 181#810100207F000009
(1763085711.050944) can0 281#0000000000000000
(1763085711.051207) can0 682#3D44240400000000
(1763085711.051432) can0 1A3#40005B0A000000
(1763085711.056832) can0 189#5002B00173010040
(1763085711.058429) can0 1A0#000000000000
(1763085711.058544) can0 701#05
(1763085711.058874) can0 000A0003#FF17FFE1103E0000
(1763085711.059162) can0 000A0004#FFDFFFD3FF688E02
(1763085711.059878) can0 000A0000#0000000000000000
(1763085711.060178) can0 000A0001#0000000000000000
(1763085711.060478) can0 000A0002#0000000000000000
(1763085711.066829) can0 189#5002AF0172010040
(1763085711.067074) can0 482#0000000008140001
(1763085711.068878) can0 000A0003#FF14FFE010400000
(1763085711.069169) can0 000A0004#FFE0FFD3FF698E02
(1763085711.072393) can0 382#0000000000000000
(1763085711.076824) can0 186#00004C1D01050000
(1763085711.077254) can0 189#5002B00175010040
(1763085711.078878) can0 000A0003#FF13FFE010400000
(1763085711.079166) can0 000A0004#FFDFFFD3FF688E02
(1763085711.080249) can0 701#05
(1763085711.083743) can0 4C4#04B404B304B804BA
(1763085711.084754) can0 4C5#04B104BA04B604B2
(1763085711.085767) can0 4C6#04BB04B704BC04AE
(1763085711.086782) can0 4C7#04B104B704B804B4
(1763085711.087016) can0 189#4F02AF0175010040
(1763085711.087817) can0 4C8#0490000000000000
(1763085711.088664) can0 181#810100207F000009
(1763085711.088954) can0 000A0003#FF12FFE0103F0000
(1763085711.089248) can0 000A0004#FFE0FFD3FF688E02
(1763085711.089496) can0 482#0000000008140001
(1763085711.089969) can0 1A5#0000350C000000
(1763085711.091507) can0 682#3D44240400000000
(1763085711.094138) can0 382#0000000000000000
(1763085711.094428) can0 281#0000000000000000
(1763085711.096840) can0 189#4E02AF0173010040
(1763085711.097078) can0 080#
(1763085711.098230) can0 286#6400900100000000
(1763085711.098875) can0 000A0003#FF12FFDF103F0000
(1763085711.099164) can0 000A0004#FFE0FFD3FF698E02
(1763085711.104812) can0 701#05
(1763085711.106685) can0 188#0C000C3300000000
(1763085711.106917) can0 189#4F02AF0174010040
(1763085711.107459) can0 288#5D29242200140000
(1763085711.108435) can0 388#2121222222000000
(1763085711.108876) can0 000A0003#FF13FFDE103F0000
(1763085711.109165) can0 000A0004#FFDFFFD3FF698E02
(1763085711.109398) can0 191#989999999998
(1763085711.110412) can0 192#989998989898
(1763085711.110656) can0 482#0000000008140001
(1763085711.111413) can0 193#989899999899
(1763085711.112390) can0 194#989999999998
(1763085711.113396) can0 195#989999999999
(1763085711.114420) can0 291#0F0F0F100F10
(1763085711.115423) can0 292#0F100F101010
(1763085711.115954) can0 382#0000000000000000
(1763085711.116426) can0 293#101010101010
(1763085711.116816) can0 186#00004C1D01060000
(1763085711.117258) can0 189#4E02AE0171010040
(1763085711.117460) can0 294#101010111010
(1763085711.118403) can0 295#111111111111
(1763085711.118883) can0 000A0003#FF13FFE010400000
(1763085711.119172) can0 000A0004#FFDFFFD3FF698E02
(1763085711.122692) can0 1A2#00000E0E000000
(1763085711.122920) can0 2A1#090B0B0B0B0C0C07
(1763085711.126626) can0 701#05
(1763085711.126864) can0 189#5002B00174010040
(1763085711.127107) can0 181#810100207F000009
(1763085711.128875) can0 000A0003#FF13FFE310410000
(1763085711.129163) can0 000A0004#FFE0FFCFFF6B8E02
(1763085711.132418) can0 482#0000000008140001
(1763085711.132661) can0 682#3D44230400000000
(1763085711.132991) can0 1A4#4000EF07000000
(1763085711.133218) can0 2A3#0D12121212120E0A
(1763085711.136824) can0 189#5102B00173010040
(1763085711.137784) can0 281#0000000000000000
(1763085711.138038) can0 382#0000000000000000
(1763085711.138876) can0 000A0003#FF12FFE510420000
(1763085711.139165) can0 000A0004#FFE0FFD0FF6B8E02
(1763085711.146825) can0 189#4F02B00175010040
(1763085711.148465) can0 701#05
(1763085711.148871) can0 000A0003#FF11FFE610420000
(1763085711.149161) can0 000A0004#FFE0FFD1FF6A8E02
(1763085711.149392) can0 4C4#04BA04B304B804BA
(1763085711.149931) can0 4C5#04AC04B504B104B6
(1763085711.150948) can0 4C6#04BB04B704B704AE
(1763085711.151967) can0 4C7#04B604B204AD04B4
(1763085711.152287) can0 1A3#40005B0A000000
(1763085711.152996) can0 4C8#0490000000000000
(1763085711.154240) can0 482#0000000008140001
(1763085711.156814) can0 186#00004C1D01070000
(1763085711.157235) can0 189#4F02AE0172010040
(1763085711.158431) can0 1A0#000000000000
(1763085711.158883) can0 000A0003#FF11FFE810440000
(1763085711.159172) can0 000A0004#FFDFFFD1FF6A8E02
(1763085711.159723) can0 382#0000000000000000
(1763085711.160023) can0 000A0000#0000000000000000
(1763085711.160323) can0 000A0001#0000000000000000
(1763085711.160623) can0 000A0002#0000000000000000
(1763085711.165093) can0 181#810100207F000009
(1763085711.166824) can0 189#5002B00174010040
(1763085711.167576) can0 701#05
(1763085711.168882) can0 000A0003#FF12FFE910450000
(1763085711.169170) can0 000A0004#FFDFFFD1FF6A8E02
(1763085711.173379) can0 682#3D44240400000000
(1763085711.175976) can0 482#0000000008140001
(1763085711.176817) can0 189#4F02AF0174010040
(1763085711.178882) can0 000A0003#FF12FFEA10480000
(1763085711.179168) can0 000A0004#FFE0FFD1FF6A8E02
(1763085711.181446) can0 382#0000000000000000
(1763085711.181704) can0 281#0000000000000000
(1763085711.186820) can0 189#4F02AF0173010040
(1763085711.188876) can0 000A0003#FF12FFEB104B0000
(1763085711.189164) can0 000A0004#FFE0FFD0FF6A8E02
(1763085711.192105) can0 701#05
(1763085711.192327) can0 1A5#0000350C000000
(1763085711.196837) can0 186#00004C1D01080000
(1763085711.197231) can0 189#4F02AF0175010040
(1763085711.197821) can0 19A#00007F71747E7F7F
(1763085711.198065) can0 482#0000000008140001
(1763085711.198182) can0 080#
(1763085711.198821) can0 29A#8074848084830000
(1763085711.199107) can0 000A0003#FF13FFEB104D0000
(1763085711.199389) can0 000A0004#FFE1FFD1FF6A8E02
(1763085711.199633) can0 286#6400900100000000
(1763085711.203285) can0 181#810100207F000009
(1763085711.203540) can0 382#0000000000000000
(1763085711.206673) can0 188#0C00353300000000
(1763085711.206906) can0 189#5002AF0174010040
(1763085711.207590) can0 288#5D29242A00140000
(1763085711.208445) can0 388#2121222222000000
(1763085711.208886) can0 000A0003#FF13FFE8104F0000
(1763085711.209171) can0 000A0004#FFE1FFD0FF6A8E02
(1763085711.209406) can0 191#989999999998
(1763085711.210419) can0 192#989998989898
(1763085711.211261) can0 701#05
(1763085711.211450) can0 193#989899999899
(1763085711.212381) can0 194#989999999998
(1763085711.213386) can0 195#989999999999
(1763085711.214100) can0 4C4#04BA04B304B804BA
(1763085711.214348) can0 682#3D44240400000000
(1763085711.214552) can0 291#0F0F0F100F10
(1763085711.215115) can0 4C5#04AC04B504B104B6
(1763085711.215427) can0 292#0F100F101010
(1763085711.216128) can0 4C6#04BB04B704B704AE
(1763085711.216404) can0 293#101010101010
(1763085711.216813) can0 189#4D02AD0171010040
(1763085711.217146) can0 4C7#04B604B204AD04B4
(1763085711.217414) can0 294#101010111010
(1763085711.218191) can0 4C8#0490000000000000
(1763085711.218410) can0 295#111111111111
(1763085711.218881) can0 000A0003#FF13FFE5104F0000
(1763085711.219164) can0 000A0004#FFE2FFD1FF6B8E02
(1763085711.219691) can0 482#0000000008140001
(1763085711.225142) can0 382#0000000000000000
(1763085711.225429) can0 281#0000000000000000
(1763085711.226813) can0 189#4F02AF0174010040
(1763085711.228883) can0 000A0003#FF13FFE310500000
(1763085711.229169) can0 000A0004#FFE2FFD1FF6B8E02
(1763085711.230350) can0 1A2#00000E0E000000
(1763085711.230577) can0 2A1#090B0B0B0B0C0C07
(1763085711.233066) can0 701#05
(1763085711.236807) can0 186#00004C1D01090000
(1763085711.237258) can0 189#5102AE0173010040
(1763085711.238886) can0 000A0003#FF12FFE0104F0000
(1763085711.239171) can0 000A0004#FFE2FFD0FF6B8E02
(1763085711.240147) can0 1A4#4000EF07000000
(1763085711.240373) can0 2A3#0D12121212120E0A
(1763085711.241482) can0 482#0000000008140001
(1763085711.241731) can0 181#810100207F000009
(1763085711.246814) can0 189#5102AE0174010040
(1763085711.247061) can0 382#0000000000000000
(1763085711.248883) can0 000A0003#FF10FFDD104F0000
(1763085711.249167) can0 000A0004#FFE2FFD0FF6A8E02
(1763085711.253356) can0 1A3#40005B0A000000
(1763085711.254906) can0 701#05
(1763085711.255283) can0 682#3D44240400000000
(1763085711.256809) can0 189#4E02AF0175010040
(1763085711.258435) can0 1A0#000000000000
(1763085711.258885) can0 000A0003#FF0FFFDD104E0000
(1763085711.259169) can0 000A0004#FFE2FFD0FF6A8E02
(1763085711.259897) can0 000A0000#0000000000000000
(1763085711.260199) can0 000A0001#0000000000000000
(1763085711.260495) can0 000A0002#0000000000000000
(1763085711.263419) can0 482#0000000008140001
(1763085711.266816) can0 189#5102AF0174010040
(1763085711.268778) can0 281#0000000000000000
(1763085711.269064) can0 000A0003#FF0DFFDF104C0000
(1763085711.269352) can0 000A0004#FFE2FFCFFF6A8E02
(1763085711.269602) can0 382#0000000000000000
(1763085711.276807) can0 186#00004C1D010A0000
(1763085711.277058) can0 701#05
(1763085711.277294) can0 189#5102AF0174010040
(1763085711.278889) can0 000A0003#FF0CFFDF104C0000
(1763085711.279174) can0 000A0004#FFE2FFD0FF6A8E02
(1763085711.279406) can0 4C4#04B404AD04B804BA
(1763085711.279726) can0 181#810100207F000009
(1763085711.280299) can0 4C5#04AC04BA04B604B2
(1763085711.281316) can0 4C6#04BB04BB04BC04AE
(1763085711.282328) can0 4C7#04B104B204B204AE
(1763085711.283359) can0 4C8#0490000000000000
(1763085711.285191) can0 482#0000000008140001
(1763085711.286812) can0 189#4F02AF0175010040
(1763085711.288893) can0 000A0003#FF0CFFDF104C0000
(1763085711.289177) can0 000A0004#FFE3FFD0FF6B8E02
(1763085711.290642) can0 382#0000000000000000
(1763085711.294461) can0 1A5#0000350C000000
(1763085711.296197) can0 682#3D44240400000000
(1763085711.296824) can0 189#5002AE0174010040
(1763085711.297095) can0 080#
(1763085711.298248) can0 286#6400900100000000
(1763085711.298667) can0 701#05
(1763085711.298957) can0 000A0003#FF0CFFE0104D0000
(1763085711.299241) can0 000A0004#FFE3FFD1FF6A8E02
(1763085711.306661) can0 188#0C00623300000000
(1763085711.306897) can0 189#5002B00175010040
(1763085711.307143) can0 482#0000000008140001
(1763085711.307445) can0 288#5D29242A00140000
(1763085711.308452) can0 388#2121222222000000
(1763085711.308895) can0 000A0003#FF0BFFE1104F0000
(1763085711.309181) can0 000A0004#FFE3FFD0FF6A8E02
(1763085711.309413) can0 191#989999999998
(1763085711.310424) can0 192#989898989898
(1763085711.311397) can0 193#989899999899
(1763085711.312456) can0 382#0000000000000000
(1763085711.312648) can0 194#989999999999
(1763085711.312902) can0 281#0000000000000000
(1763085711.313411) can0 195#989999999999
(1763085711.314435) can0 291#0F0F0F100F10
(1763085711.315405) can0 292#0F100F101010
(1763085711.316412) can0 293#101010101010
(1763085711.316796) can0 186#00004C1D010B0000
(1763085711.317245) can0 189#4D02AE0175010040
(1763085711.317449) can0 294#101010111010
(1763085711.318027) can0 181#810100207F000009
(1763085711.318417) can0 295#111111111111
(1763085711.318895) can0 000A0003#FF0AFFE210500000
(1763085711.319182) can0 000A0004#FFE3FFD0FF6A8E02
(1763085711.320408) can0 701#05
(1763085711.326809) can0 189#5002B10175010040
(1763085711.328904) can0 000A0003#FF07FFE310500000
(1763085711.329189) can0 000A0004#FFE2FFD0FF6A8E02
(1763085711.329436) can0 482#0000000008140001
(1763085711.334399) can0 382#0000000000000000
(1763085711.336810) can0 189#5002B00174010040
(1763085711.337140) can0 682#3D44240400000000
(1763085711.338000) can0 1A2#00000E0E000000
(1763085711.338229) can0 2A1#090B0B0B0B0C0C07
(1763085711.338896) can0 000A0003#FF07FFE410500000
(1763085711.339184) can0 000A0004#FFE2FFCFFF6A8E02
(1763085711.342257) can0 701#05
(1763085711.344464) can0 4C4#04B404AD04B804BA
(1763085711.345476) can0 4C5#04AC04BA04B604B2
(1763085711.346496) can0 4C6#04BB04BB04BC04AE
(1763085711.346831) can0 189#5102AF0175010040
(1763085711.347268) can0 1A4#4000EF07000000
(1763085711.347496) can0 2A3#0E12121312120E0A
(1763085711.347728) can0 4C7#04B104B204B204AE
(1763085711.348540) can0 4C8#0490000000000000
(1763085711.348896) can0 000A0003#FF07FFE610500000
(1763085711.349180) can0 000A0004#FFE2FFD0FF6A8E02
(1763085711.350693) can0 482#0000000008140001
(1763085711.354423) can0 1A3#40005B0A000000
(1763085711.356140) can0 382#0000000000000000
(1763085711.356422) can0 181#810100207F000009
(1763085711.356679) can0 281#0000000000000000
(1763085711.356922) can0 186#00004C1D010C0000
(1763085711.357260) can0 189#4D02AF0174010040
(1763085711.358435) can0 1A0#000000000000
(1763085711.358902) can0 000A0003#FF08FFE810500000
(1763085711.359187) can0 000A0004#FFE2FFD0FF6A8E02
(1763085711.359909) can0 000A0000#0000000000000000
(1763085711.360209) can0 000A0001#0000000000000000
(1763085711.360507) can0 000A0002#0000000000000000
(1763085711.366804) can0 189#4E02AF0175010040
(1763085711.366917) can0 701#05
(1763085711.368898) can0 000A0003#FF0AFFEA104F0000
(1763085711.369183) can0 000A0004#FFE1FFD1FF6A8E02
(1763085711.372480) can0 482#0000000008140001
(1763085711.376803) can0 189#5102AF0176010040
(1763085711.377957) can0 382#0000000000000000
(1763085711.378203) can0 682#3D44240400000000
(1763085711.378905) can0 000A0003#FF0BFFED104E0000
(1763085711.379188) can0 000A0004#FFE1FFD1FF6A8E02
(1763085711.386804) can0 189#5002B10176010040
(1763085711.388629) can0 701#05
(1763085711.388919) can0 000A0003#FF0BFFEF104C0000
(1763085711.389205) can0 000A0004#FFE0FFD1FF6A8E02
(1763085711.391634) can0 482#0000000008140001
(1763085711.394345) can0 181#810100207F000009
(1763085711.396710) can0 1A5#0000350C000000
(1763085711.396949) can0 186#00004C1D010D0000
(1763085711.397244) can0 189#4E02AF0174010040
(1763085711.398109) can0 080#
(1763085711.398902) can0 000A0003#FF0BFFF1104A0000
(1763085711.399187) can0 000A0004#FFE0FFD1FF6A8E02
(1763085711.399431) can0 286#6400900100000000
(1763085711.399916) can0 281#0000000000000000
(1763085711.400210) can0 382#0000000000000000
(1763085711.403811) can0 19A#00007F70727E847F
(1763085711.404817) can0 29A#806C838183830000
(1763085711.406710) can0 188#0C00313300000000
(1763085711.406945) can0 189#5002AF0175010040
(1763085711.407452) can0 288#5D29242A00140000
(1763085711.408458) can0 388#2121222222000000
(1763085711.408904) can0 000A0003#FF0BFFF310490000
(1763085711.409193) can0 000A0004#FFE0FFD0FF6A8E02
(1763085711.409420) can0 191#989999999998
(1763085711.409654) can0 4C4#04B404AD04B804BA
(1763085711.410399) can0 192#989898989898
(1763085711.410515) can0 701#05
(1763085711.410748) can0 4C5#04AC04B504B604B6
(1763085711.411402) can0 193#989899999899
(1763085711.411662) can0 4C6#04BB04B704B704B3
(1763085711.412413) can0 194#989999999998
(1763085711.412674) can0 4C7#04B604B204AD04BA
(1763085711.413438) can0 482#0000000008140001
(1763085711.413625) can0 195#989899999999
(1763085711.413873) can0 4C8#0490000000000000
(1763085711.414411) can0 291#0F0F0F100F10
(1763085711.415412) can0 292#0F100F101010
(1763085711.416418) can0 293#101010101010
(1763085711.416800) can0 189#4D02AF0172010040
(1763085711.417428) can0 294#101010111010
(1763085711.418424) can0 295#111111111111
(1763085711.418898) can0 000A0003#FF0BFFF410480000
(1763085711.419186) can0 000A0004#FFE1FFD0FF6A8E02
(1763085711.419428) can0 682#3D44240400000000
(1763085711.421642) can0 382#0000000000000000
(1763085711.426802) can0 189#4F02B00175010040
(1763085711.428904) can0 000A0003#FF09FFF410460000
(1763085711.429186) can0 000A0004#FFE2FFCDFF6A8E02
(1763085711.432538) can0 181#810100207F000009
(1763085711.432656) can0 701#05
(1763085711.435361) can0 482#0000000008140001
(1763085711.436786) can0 186#00004C1D010E0000
(1763085711.437242) can0 189#5002AF0174010040
(1763085711.438908) can0 000A0003#FF07FFF210430000
(1763085711.439192) can0 000A0004#FFE3FFCDFF6A8E02
(1763085711.443453) can0 382#0000000000000000
(1763085711.443707) can0 281#0000000000000000
(1763085711.445660) can0 1A2#00000E0E000000
(1763085711.445891) can0 2A1#090B0B0B0B0C0C07
(1763085711.446795) can0 189#4F02AF0174010040
(1763085711.448913) can0 000A0003#FF07FFF010430000
(1763085711.449199) can0 000A0004#FFE3FFCDFF6B8E02
(1763085711.454104) can0 701#05
(1763085711.454372) can0 1A4#4000EF07000000
(1763085711.454599) can0 2A3#0E12121312120E0A
(1763085711.455478) can0 1A3#40005B0A000000
(1763085711.456794) can0 189#4E02AF0175010040
(1763085711.457183) can0 482#0000000008140001
(1763085711.458436) can0 1A0#000000000000
(1763085711.458904) can0 000A0003#FF06FFED10420000
(1763085711.459189) can0 000A0004#FFE3FFCDFF6A8E02
(1763085711.459921) can0 000A0000#0000000000000000
(1763085711.460221) can0 000A0001#0000000000000000
(1763085711.460519) can0 000A0002#0000000000000000
(1763085711.460765) can0 682#3D44240400000000
(1763085711.465400) can0 382#0000000000000000
(1763085711.466799) can0 189#4F02B00175010040
(1763085711.468906) can0 000A0003#FF06FFEB10440000
(1763085711.469192) can0 000A0004#FFE3FFCDFF6A8E02
(1763085711.470827) can0 181#810100207F000009
(1763085711.473256) can0 701#05
(1763085711.474818) can0 4C4#04B404B804B804BF
(1763085711.475830) can0 4C5#04B504BA04BA04B6
(1763085711.476786) can0 186#00004C1D010F0000
(1763085711.477016) can0 4C6#04B204BB04B704AE
(1763085711.477259) can0 189#4F02AF0175010040
(1763085711.477858) can0 4C7#04BA04B704AD04B4
(1763085711.478914) can0 000A0003#FF07FFE910450000
(1763085711.479197) can0 000A0004#FFE2FFCDFF6A8E02
(1763085711.479443) can0 482#0000000008140001
(1763085711.479692) can0 4C8#0490000000000000
(1763085711.486798) can0 189#5002B00175010040
(1763085711.487151) can0 382#0000000000000000
(1763085711.487431) can0 281#0000000000000000
(1763085711.488911) can0 000A0003#FF0AFFEA10460000
(1763085711.489195) can0 000A0004#FFE3FFCEFF6B8E02
(1763085711.495072) can0 701#05
(1763085711.496807) can0 189#5102B00175010040
(1763085711.497109) can0 080#
(1763085711.498231) can0 286#6400900100000000
(1763085711.498912) can0 000A0003#FF0EFFEB10480000
(1763085711.499197) can0 000A0004#FFE3FFCEFF6B8E02
(1763085711.499425) can0 1A5#0000350C000000
(1763085711.500901) can0 482#0000000008140001
(1763085711.501181) can0 682#3D44230400000000
(1763085711.506689) can0 188#0C00353300000000
(1763085711.506922) can0 189#5002AF0176010040
(1763085711.507460) can0 288#5D29242A00140000
(1763085711.508465) can0 388#2121222222000000
(1763085711.508925) can0 000A0003#FF11FFEC104A0000
(1763085711.509212) can0 000A0004#FFE3FFCFFF6A8E02
(1763085711.509401) can0 191#989999999998
(1763085711.509651) can0 382#0000000000000000
(1763085711.509942) can0 181#810100207F000009
(1763085711.510409) can0 192#989898989898
(1763085711.511410) can0 193#989899999899
(1763085711.512420) can0 194#989999999998
(1763085711.513394) can0 195#989899999999
(1763085711.514419) can0 291#0F0F0F100F10
(1763085711.515420) can0 292#0F100F101010
(1763085711.516424) can0 293#101010101010
(1763085711.516792) can0 186#00004C1D01000000
(1763085711.517006) can0 701#05
(1763085711.517254) can0 189#4E02AE0173010040
(1763085711.517458) can0 294#101010111010
(1763085711.518400) can0 295#111111111111
(1763085711.518910) can0 000A0003#FF13FFED104B0000
(1763085711.519194) can0 000A0004#FFE3FFD0FF6A8E02
(1763085711.522636) can0 482#0000000008140001
(1763085711.526791) can0 189#4F02AF0175010040
(1763085711.528913) can0 000A0003#FF14FFEF104E0000
(1763085711.529197) can0 000A0004#FFE3FFCFFF6A8E02
(1763085711.530784) can0 281#0000000000000000
(1763085711.531036) can0 382#0000000000000000
(1763085711.536791) can0 189#4F02B10175010040
(1763085711.538916) can0 000A0003#FF16FFF210500000
(1763085711.539201) can0 000A0004#FFE4FFCFFF6B8E02
(1763085711.539318) can0 701#05
(1763085711.539995) can0 4C4#04B404B804B804BF
(1763085711.541005) can0 4C5#04B504BA04BA04B6
(1763085711.541828) can0 682#3D44240400000000
(1763085711.542058) can0 4C6#04B204BB04B704AE
(1763085711.543036) can0 4C7#04BA04B704AD04B4
(1763085711.544067) can0 4C8#0490000000000000
(1763085711.544427) can0 482#0000000008140001
(1763085711.546789) can0 189#4F02AF0175010040
(1763085711.547171) can0 181#810100207F000009
(1763085711.548914) can0 000A0003#FF16FFF410540000
(1763085711.549200) can0 000A0004#FFE3FFCFFF6C8E02
(1763085711.552643) can0 382#0000000000000000
(1763085711.553337) can0 1A2#00000E0E000000
(1763085711.553566) can0 2A1#090B0B0B0B0C0C07
(1763085711.556564) can0 1A3#40005B0A000000
(1763085711.556806) can0 186#00004C1D01010000
(1763085711.557285) can0 189#5002B00174010040
(1763085711.558435) can0 1A0#000000000000
(1763085711.558918) can0 000A0003#FF17FFF510560000
(1763085711.559202) can0 000A0004#FFE3FFD0FF6C8E02
(1763085711.559924) can0 000A0000#0000000000000000
(1763085711.560222) can0 000A0001#0000000000000000
(1763085711.560520) can0 000A0002#0000000000000000
(1763085711.560637) can0 701#05
(1763085711.561508) can0 1A4#4000EF07000000
(1763085711.561735) can0 2A3#0E12121312120E0A
(1763085711.566361) can0 482#0000000008140001
(1763085711.566785) can0 189#4F02B00174010040
(1763085711.568915) can0 000A0003#FF18FFF610570000
(1763085711.569197) can0 000A0004#FFE2FFD0FF6C8E02
(1763085711.574452) can0 382#0000000000000000
(1763085711.574707) can0 281#0000000000000000
(1763085711.576786) can0 189#4F02AF0175010040
(1763085711.578914) can0 000A0003#FF19FFF710580000
(1763085711.579196) can0 000A0004#FFE3FFCCFF6C8E02
(1763085711.582412) can0 701#05
(1763085711.582790) can0 682#3D44240400000000
(1763085711.585455) can0 181#810100207F000009
(1763085711.586781) can0 189#5102AE0177010040
(1763085711.588136) can0 482#0000000008140001
(1763085711.588916) can0 000A0003#FF1BFFF710590000
(1763085711.589199) can0 000A0004#FFE3FFCCFF6C8E02
(1763085711.592808) can0 19A#00008171767E807F
(1763085711.593808) can0 29A#8176847F84830000
(1763085711.596404) can0 382#0000000000000000
(1763085711.596803) can0 186#00004C1D01020000
(1763085711.597231) can0 189#4E02AF0173010040
(1763085711.598093) can0 080#
(1763085711.598919) can0 000A0003#FF1DFFF710590000
(1763085711.599204) can0 000A0004#FFE7FFCDFF6D8E02
(1763085711.599445) can0 286#6400900100000000
(1763085711.601209) can0 1A5#0000350C000000
(1763085711.604260) can0 701#05
(1763085711.605171) can0 4C4#04AE04B304B804BF
(1763085711.606205) can0 4C5#04B104B004B604B6
(1763085711.606784) can0 189#4F02AF0174010040
(1763085711.607196) can0 4C6#04B704B704B304AE
(1763085711.608209) can0 4C7#04BA04B204AD04BA
(1763085711.608917) can0 000A0003#FF1BFFF7105A0000
(1763085711.609201) can0 000A0004#FFE8FFCEFF6D8E02
(1763085711.609451) can0 4C8#0490000000000000
(1763085711.609928) can0 482#0000000008140001
(1763085711.616783) can0 189#5002AF0175010040
(1763085711.618146) can0 382#0000000000000000
(1763085711.618435) can0 281#0000000000000000
(1763085711.618925) can0 000A0003#FF1AFFF8105C0000
(1763085711.619211) can0 000A0004#FFE7FFCFFF6D8E02
(1763085711.623599) can0 181#810100207F000009
(1763085711.623885) can0 682#3D44240400000000
(1763085711.626279) can0 701#05
(1763085711.626778) can0 189#4F02AF0174010040
(1763085711.628932) can0 000A0003#FF1BFFF8105B0000
(1763085711.629220) can0 000A0004#FFE6FFCFFF6D8E02
(1763085711.631861) can0 482#0000000008140001
(1763085711.636777) can0 186#00004C1D01030000
(1763085711.637257) can0 189#4F02B00174010040
(1763085711.638923) can0 000A0003#FF1CFFF8105B0000
(1763085711.639205) can0 000A0004#FFEAFFD0FF6D8E02
(1763085711.639953) can0 382#0000000000000000
(1763085711.646781) can0 189#4E02B00173010040
(1763085711.647913) can0 701#05
(1763085711.648922) can0 000A0003#FF1AFFF8105A0000
(1763085711.649206) can0 000A0004#FFE9FFD0FF6C8E02
(1763085711.653638) can0 482#0000000008140001
(1763085711.656784) can0 189#5002B00175010040
(1763085711.657629) can0 1A3#40005B0A000000
(1763085711.658436) can0 1A0#000000000000
(1763085711.658929) can0 000A0003#FF18FFF810590000
(1763085711.659214) can0 000A0004#FFE9FFD1FF6D8E02
(1763085711.659941) can0 000A0000#0000000000000000
(1763085711.660241) can0 000A0001#0000000000000000
(1763085711.660539) can0 000A0002#0000000000000000
(1763085711.660784) can0 188#0C00083300000000
(1763085711.661013) can0 1A2#00000E0E000000
(1763085711.661243) can0 2A1#090B0B0B0B0C0C07
(1763085711.661485) can0 288#5D29241E00140000
(1763085711.661825) can0 181#810100207F000009
(1763085711.662101) can0 281#0000000000000000
(1763085711.662356) can0 382#0000000000000000
(1763085711.662593) can0 388#2121222222000000
(1763085711.663404) can0 191#989999999998
(1763085711.664383) can0 192#989898989898
(1763085711.664652) can0 682#3D44240400000000
(1763085711.665404) can0 193#989899999899
(1763085711.666417) can0 194#989999999998
(1763085711.666776) can0 189#4E02AE0173010040
(1763085711.667418) can0 195#989899999999
(1763085711.668440) can0 291#0F0F0F100F10
(1763085711.668663) can0 1A4#4000EF07000000
(1763085711.668950) can0 000A0003#FF17FFFA105A0000
(1763085711.669234) can0 000A0004#FFE8FFD1FF6D8E02
(1763085711.669436) can0 292#0F100F101010
(1763085711.669666) can0 2A3#0E12121312120E0A
(1763085711.669781) can0 701#05
(1763085711.670343) can0 4C4#04AE04B304B804BF
(1763085711.670541) can0 293#101010101010
(1763085711.671355) can0 4C5#04B104B004B604B6
(1763085711.671557) can0 294#101010111010
(1763085711.672368) can0 4C6#04B704B704B304AE
(1763085711.672558) can0 295#111111111111
(1763085711.673381) can0 4C7#04BA04B204AD04BA
(1763085711.674416) can0 4C8#0490000000000000
(1763085711.675429) can0 482#0000000008140001
(1763085711.676771) can0 186#00004C1D01040000
(1763085711.677268) can0 189#4F02AE0171010040
(1763085711.678928) can0 000A0003#FF15FFFC105B0000
(1763085711.679213) can0 000A0004#FFE9FFD3FF6D8E02
(1763085711.683647) can0 382#0000000000000000
(1763085711.686779) can0 189#4F02B00175010040
(1763085711.688931) can0 000A0003#FF14FFFE105B0000
(1763085711.689216) can0 000A0004#FFE8FFD7FF6D8E02
(1763085711.691573) can0 701#05
(1763085711.696794) can0 189#5002B10175010040
(1763085711.697095) can0 080#
(1763085711.697377) can0 482#0000000008140001
(1763085711.698246) can0 286#6400900100000000
(1763085711.698925) can0 000A0003#FF14FFFF105C0000
(1763085711.699209) can0 000A0004#FFE8FFD7FF6C8E02
(1763085711.700118) can0 181#810100207F000009
(1763085711.702843) can0 382#0000000000000000
(1763085711.703461) can0 1A5#0000350C000000
(1763085711.705468) can0 281#0000000000000000
(1763085711.705716) can0 682#3D44240400000000
(1763085711.706715) can0 188#0C002C3300000000
(1763085711.706947) can0 189#4F02AF0174010040
(1763085711.707444) can0 288#5D29242A00140000
(1763085711.708450) can0 388#2121222222000000
(1763085711.708930) can0 000A0003#FF150000105D0000
(1763085711.709217) can0 000A0004#FFE8FFD7FF6C8E02
(1763085711.709410) can0 191#989999999998
(1763085711.710422) can0 192#989898989898
(1763085711.711426) can0 193#989899999899
(1763085711.712405) can0 194#989999999999
(1763085711.713408) can0 195#989999999999
(1763085711.713523) can0 701#05
(1763085711.714433) can0 291#0F0F0F100F10
(1763085711.715435) can0 292#0F100F101010
(1763085711.716410) can0 293#101010101010
(1763085711.716776) can0 186#00004C1D01050000
(1763085711.717230) can0 189#4E02AE0174010040
(1763085711.717435) can0 294#101010111010
(1763085711.718415) can0 295#111111111111
(1763085711.718925) can0 000A0003#FF170002105E0000
(1763085711.719212) can0 000A0004#FFE6FFD7FF6C8E02
(1763085711.719459) can0 482#0000000008140001
(1763085711.724586) can0 382#0000000000000000
(1763085711.726770) can0 189#4E02AF01750100C0
(1763085711.728925) can0 000A0003#FF190002105A0000
(1763085711.729213) can0 000A0004#FFE7FFD6FF6C8E02
(1763085711.735261) can0 701#05
(1763085711.735511) can0 4C4#04B404B304B804BF
(1763085711.736523) can0 4C5#04B104B504B604B6
(1763085711.736777) can0 189#5102AF01740100C0
(1763085711.737537) can0 4C6#04B204B704B304AE
(1763085711.738232) can0 181#810100207F000009
(1763085711.738556) can0 4C7#04B604B204B204BA
(1763085711.738933) can0 000A0003#FF1B000210580000
(1763085711.739216) can0 000A0004#FFE7FFD5FF6C8E02
(1763085711.739589) can0 4C8#0490000000000000
(1763085711.740923) can0 482#0000000008140001
(1763085711.746398) can0 382#0000000000000000
(1763085711.746639) can0 682#3D44240400000000
(1763085711.746870) can0 189#4F02AE01750100C0
(1763085711.747123) can0 281#0000000000000000
(1763085711.748936) can0 000A0003#FF1B000010540000
(1763085711.749218) can0 000A0004#FFE6FFD5FF6C8E02
(1763085711.756763) can0 186#00004C1D01060000
(1763085711.757256) can0 189#4F02B001750100C0
(1763085711.757374) can0 701#05
(1763085711.758438) can0 1A0#000000000000
(1763085711.758691) can0 1A3#40005B0A000000
(1763085711.758980) can0 000A0003#FF1BFFFE10510000
(1763085711.759266) can0 000A0004#FFE5FFD6FF6D8E02
(1763085711.759947) can0 000A0000#0000000000000000
(1763085711.760246) can0 000A0001#0000000000000000
(1763085711.760545) can0 000A0002#0000000000000000
(1763085711.762870) can0 482#0000000008140001
(1763085711.766767) can0 189#5102AF01750100C0
(1763085711.768344) can0 382#0000000000000000
(1763085711.768636) can0 1A2#00000E0E000000
(1763085711.768863) can0 2A1#090B0B0B0B0C0C07
(1763085711.769150) can0 000A0003#FF1AFFFE104F0000
(1763085711.769433) can0 000A0004#FFE5FFD6FF6D8E02
(1763085711.775807) can0 1A4#4000EF07000000
(1763085711.776027) can0 2A3#0E12121312120E0A
(1763085711.776430) can0 181#810100207F000009
(1763085711.776770) can0 189#5002AE01750100C0
(1763085711.778940) can0 000A0003#FF1AFFFE104F0000
(1763085711.779224) can0 000A0004#FFE5FFD7FF6E8E02
(1763085711.779338) can0 701#05
(1763085711.784638) can0 482#0000000008140001
(1763085711.786769) can0 189#5102AF01740100C0
(1763085711.787458) can0 682#3D44240400000000
(1763085711.788939) can0 000A0003#FF1AFFFC104D0000
(1763085711.789222) can0 000A0004#FFE5FFD6FF6D8E02
(1763085711.790096) can0 382#0000000000000000
(1763085711.790380) can0 281#0000000000000000
(1763085711.796785) can0 186#00004C1D01070000
(1763085711.797247) can0 189#5002AF01750100C0
(1763085711.798110) can0 080#
(1763085711.798802) can0 19A#00007F6C6E7F7F80
(1763085711.799088) can0 000A0003#FF1BFFF9104C0000
(1763085711.799373) can0 000A0004#FFE6FFD6FF6D8E02
(1763085711.799617) can0 286#6400900100000000
(1763085711.799858) can0 29A#8079818082820000
(1763085711.800699) can0 4C4#04AE04B304BD04BF
(1763085711.800851) can0 701#05
(1763085711.801708) can0 4C5#04AC04BE04B604B6
(1763085711.802730) can0 4C6#04B704BB04BC04B3
(1763085711.803739) can0 4C7#04BA04BC04AD04BA
(1763085711.804773) can0 4C8#0490000000000000
(1763085711.805729) can0 1A5#0000350C000000
(1763085711.806433) can0 482#0000000008140001
(1763085711.806694) can0 188#0C00153300000000
(1763085711.806926) can0 189#5102AE01750100C0
(1763085711.807450) can0 288#5D29242A00140000
(1763085711.808459) can0 388#2121222222000000
(1763085711.808940) can0 000A0003#FF1BFFF7104C0000
(1763085711.809223) can0 000A0004#FFE6FFD6FF6E8E02
(1763085711.809414) can0 191#989999999998
(1763085711.809665) can0 382#0000000000000000
(1763085711.810412) can0 192#989898989898
(1763085711.811384) can0 193#989899999899
(1763085711.812410) can0 194#989999999999
(1763085711.813418) can0 195#989999999999
(1763085711.814439) can0 291#0F0F0F100F10
(1763085711.814724) can0 181#810100207F000009
(1763085711.815410) can0 292#0F100F101010
(1763085711.816418) can0 293#101010101010
(1763085711.816760) can0 189#4E02AD01740100C0
(1763085711.817410) can0 294#101010111010
(1763085711.818404) can0 295#111111111111
(1763085711.818936) can0 000A0003#FF1CFFF7104C0000
(1763085711.819220) can0 000A0004#FFE7FFD7FF6E8E02
(1763085711.822576) can0 701#05
(1763085711.826763) can0 189#4F02AF01750100C0
(1763085711.828364) can0 482#0000000008140001
(1763085711.828611) can0 682#3D44240400000000
(1763085711.828943) can0 000A0003#FF1DFFF7104F0000
(1763085711.829229) can0 000A0004#FFE3FFD6FF6E8E02
(1763085711.831025) can0 382#0000000000000000
(1763085711.833725) can0 281#0000000000000000
(1763085711.836752) can0 186#00004C1D01080000
(1763085711.837274) can0 189#5002AE01730100C0
(1763085711.838946) can0 000A0003#FF1EFFF710550000
(1763085711.839229) can0 000A0004#FFE4FFD6FF6E8E02
(1763085711.844415) can0 701#05
(1763085711.846767) can0 189#5002AE01750100C0
(1763085711.848945) can0 000A0003#FF1FFFF810580000
(1763085711.849229) can0 000A0004#FFE4FFD6FF6E8E02
(1763085711.850138) can0 482#0000000008140001
(1763085711.852834) can0 382#0000000000000000
(1763085711.853083) can0 181#810100207F000009
(1763085711.856767) can0 189#5002B001750100C0
(1763085711.858440) can0 1A0#000000000000
(1763085711.858945) can0 000A0003#FF22FFF9105C0000
(1763085711.859232) can0 000A0004#FFE4FFD6FF6E8E02
(1763085711.859769) can0 1A3#40005B0A000000
(1763085711.860069) can0 000A0000#0000000000000000
(1763085711.860369) can0 000A0001#0000000000000000
(1763085711.860669) can0 000A0002#0000000000000000
(1763085711.865885) can0 4C4#04AE04B304BD04BF
(1763085711.866283) can0 701#05
(1763085711.866758) can0 189#4F02AE01720100C0
(1763085711.866990) can0 4C5#04AC04BE04B604B6
(1763085711.867910) can0 4C6#04B704BB04BC04B3
(1763085711.868946) can0 000A0003#FF23FFFA105D0000
(1763085711.869229) can0 000A0004#FFE4FFD5FF6E8E02
(1763085711.869458) can0 4C7#04BA04BC04AD04BA
(1763085711.869703) can0 682#3D44240400000000
(1763085711.869956) can0 4C8#0490000000000000
(1763085711.871925) can0 482#0000000008140001
(1763085711.874780) can0 382#0000000000000000
(1763085711.876263) can0 1A2#00000E0E000000
(1763085711.876493) can0 2A1#090B0B0B0B0C0C07
(1763085711.876766) can0 186#00004C1D01090000
(1763085711.877254) can0 189#5002AD01750100C0
(1763085711.877532) can0 281#0000000000000000
(1763085711.878952) can0 000A0003#FF24FFF9105E0000
(1763085711.879234) can0 000A0004#FFE3FFD5FF6F8E02
(1763085711.882946) can0 1A4#4000EF07000000
(1763085711.883172) can0 2A3#0E12121312120E0A
(1763085711.886761) can0 189#4F02AF01750100C0
(1763085711.888069) can0 701#05
(1763085711.888947) can0 000A0003#FF25FFF8105F0000
(1763085711.889231) can0 000A0004#FFE3FFD5FF6E8E02
(1763085711.891044) can0 181#810100207F000009
(1763085711.893864) can0 482#0000000008140001
(1763085711.896525) can0 382#0000000000000000
(1763085711.896783) can0 189#5002AF01750100C0
(1763085711.897113) can0 080#
(1763085711.898262) can0 286#6400900100000000
(1763085711.898941) can0 000A0003#FF26FFF610610000
(1763085711.899225) can0 000A0004#FFE3FFD4FF6E8E02
(1763085711.906674) can0 188#0C002C3300000000
(1763085711.906905) can0 189#4F02AF01750100C0
(1763085711.907458) can0 288#5D29242A00140000
(1763085711.907963) can0 1A5#0000350C000000
(1763085711.908464) can0 388#2121222222000000
(1763085711.908952) can0 000A0003#FF28FFF610640000
(1763085711.909237) can0 000A0004#FFE2FFD4FF6E8E02
(1763085711.909427) can0 191#989999999998
(1763085711.909923) can0 701#05
(1763085711.910342) can0 682#3D44240400000000
(1763085711.910534) can0 192#989898989898
(1763085711.911410) can0 193#989999999899
(1763085711.912419) can0 194#989999999999
(1763085711.913424) can0 195#989999999999
(1763085711.914418) can0 291#0F0F0F100F10
(1763085711.915415) can0 292#0F100F101010
(1763085711.915697) can0 482#0000000008140001
(1763085711.916421) can0 293#101010101010
(1763085711.916789) can0 186#00004C1D010A0000
(1763085711.917241) can0 189#4D02AE01730100C0
(1763085711.917447) can0 294#101010111010
(1763085711.918430) can0 295#111111111111
(1763085711.918678) can0 382#0000000000000000
(1763085711.918967) can0 000A0003#FF29FFF710660000
(1763085711.919252) can0 000A0004#FFE2FFD9FF6E8E02
(1763085711.921100) can0 281#0000000000000000
(1763085711.926758) can0 189#5002B001750100C0
(1763085711.928950) can0 000A0003#FF2BFFF810690000
(1763085711.929237) can0 000A0004#FFE2FFD9FF6D8E02
(1763085711.929480) can0 181#810100207F000009
(1763085711.929600) can0 701#05
(1763085711.931064) can0 4C4#04B404B304B804BA
(1763085711.932076) can0 4C5#04B104BE04B604B2
(1763085711.933089) can0 4C6#04B704BB04B704AE
(1763085711.934103) can0 4C7#04BA04B204A804AE
(1763085711.935138) can0 4C8#0490000000000000
(1763085711.936754) can0 189#5002AF01750100C0
(1763085711.938956) can0 000A0003#FF2BFFFC106C0000
(1763085711.939240) can0 000A0004#FFE3FFD9FF6D8E02
(1763085711.940200) can0 482#0000000008140001
(1763085711.940480) can0 382#0000000000000000
(1763085711.946753) can0 189#5002AC01750100C0
(1763085711.948952) can0 000A0003#FF2B0001106D0000
(1763085711.949236) can0 000A0004#FFE3FFD9FF6E8E02
(1763085711.950853) can0 701#05
(1763085711.951228) can0 682#3D44240400000000
(1763085711.956743) can0 186#00004C1D010B0000
(1763085711.957270) can0 189#5102AE01750100C0
(1763085711.958442) can0 1A0#000000000000
(1763085711.958950) can0 000A0003#FF2B0003106D0000
(1763085711.959234) can0 000A0004#FFE2FFDDFF6E8E02
(1763085711.959964) can0 000A0000#0000000000000000
(1763085711.960265) can0 000A0001#0000000000000000
(1763085711.960562) can0 000A0002#0000000000000000
(1763085711.960839) can0 1A3#40005B0A000000
(1763085711.961991) can0 482#0000000008140001
(1763085711.962247) can0 382#0000000000000000
(1763085711.964728) can0 281#0000000000000000
(1763085711.966760) can0 189#4E02AD01750100C0
(1763085711.967486) can0 181#810100207F000009
(1763085711.968954) can0 000A0003#FF2A0008106B0000
(1763085711.969238) can0 000A0004#FFE2FFDDFF6E8E02
(1763085711.972700) can0 701#05
(1763085711.976754) can0 189#5002AE01750100C0
(1763085711.978959) can0 000A0003#FF28000B10670000
(1763085711.979243) can0 000A0004#FFE2FFDDFF6D8E02
(1763085711.983832) can0 382#0000000000000000
(1763085711.984061) can0 1A2#00000E0E000000
(1763085711.984291) can0 2A1#090B0B0B0B0C0C07
(1763085711.984538) can0 482#0000000008140001
(1763085711.986751) can0 189#4F02AE01750100C0
(1763085711.988957) can0 000A0003#FF26000D10640000
(1763085711.989241) can0 000A0004#FFE1FFD8FF6D8E02
(1763085711.990086) can0 1A4#4000EF07000000
(1763085711.990318) can0 2A3#0E12121312120E0A
(1763085711.992137) can0 682#3D44230400000000
(1763085711.994506) can0 701#05
(1763085711.996228) can0 4C4#04B404B304B804BA
(1763085711.996768) can0 186#00004C1D010C0000
(1763085711.997240) can0 4C5#04B104BE04B604B2
(1763085711.997474) can0 189#5002AD01730100C0
(1763085711.998096) can0 080#
(1763085711.998330) can0 4C6#04B704BB04B704AE
(1763085711.998950) can0 000A0003#FF24000E10630000
(1763085711.999234) can0 000A0004#FFE1FFD8FF6D8E02
(1763085711.999478) can0 286#6400900100000000
(1763085711.999710) can0 4C7#04BA04B204A804AE
(1763085712.000302) can0 4C8#0490000000000000
(1763085712.004829) can0 19A#000080756E7E8180
(1763085712.005803) can0 29A#8276838283830000
(1763085712.006050) can0 482#0000000008140001
(1763085712.006681) can0 188#0C003E3300000000
(1763085712.006912) can0 189#4E02AD01740100C0
(1763085712.007447) can0 288#5D29242A00140000
(1763085712.008407) can0 382#0000000000000000
(1763085712.008650) can0 181#810100207F000009
(1763085712.008902) can0 281#0000000000000000
(1763085712.009191) can0 000A0003#FF20000E10610000
(1763085712.009478) can0 000A0004#FFE1FFD7FF6D8E02
(1763085712.009667) can0 191#989999999998
(1763085712.009902) can0 388#2121222222000000
(1763085712.010215) can0 1A5#0000350C000000
(1763085712.010412) can0 192#989898989898
(1763085712.011417) can0 193#989999999899
(1763085712.012425) can0 194#989999999999
(1763085712.013401) can0 195#989999999999
(1763085712.014426) can0 291#0F0F0F100F10
(1763085712.015424) can0 292#0F100F101010
(1763085712.016431) can0 293#101010101010
(1763085712.016547) can0 701#05
(1763085712.016788) can0 189#4D02AD01740100C0
(1763085712.017441) can0 294#101010111010
(1763085712.018407) can0 295#111111111111
(1763085712.018955) can0 000A0003#FF1E000C105E0000
(1763085712.019246) can0 000A0004#FFE2FFD7FF6D8E02
(1763085712.026748) can0 189#5002AE01750100C0
(1763085712.027493) can0 482#0000000008140001
(1763085712.028956) can0 000A0003#FF1C000B105D0000
(1763085712.029243) can0 000A0004#FFE2FFD3FF6D8E02
(1763085712.030347) can0 382#0000000000000000
(1763085712.033077) can0 682#3D44240400000000
(1763085712.036737) can0 186#00004C1D010D0000
(1763085712.037267) can0 189#5002AE01750100C0
(1763085712.038283) can0 701#05
(1763085712.038958) can0 000A0003#FF1D000A105E0000
(1763085712.039242) can0 000A0004#FFE2FFD4FF6D8E02
(1763085712.046613) can0 181#810100207F000009
(1763085712.046843) can0 189#5002AF01750100C0
(1763085712.048963) can0 000A0003#FF1E0008105F0000
(1763085712.049247) can0 000A0004#FFE2FFD4FF6D8E02
(1763085712.049495) can0 482#0000000008140001
(1763085712.052092) can0 382#0000000000000000
(1763085712.052377) can0 281#0000000000000000
(1763085712.056744) can0 189#4F02AF01750100C0
(1763085712.058443) can0 1A0#000000000000
(1763085712.058965) can0 000A0003#FF1F0006105E0000
(1763085712.059248) can0 000A0004#FFE2FFD4FF6D8E02
(1763085712.059971) can0 000A0000#0000000000000000
(1763085712.060272) can0 000A0001#0000000000000000
(1763085712.060569) can0 000A0002#0000000000000000
(1763085712.060685) can0 701#05
(1763085712.061409) can0 4C4#04B404B804BD04C4
(1763085712.061935) can0 1A3#40005B0A000000
(1763085712.062425) can0 4C5#04B504B504BA04B6
(1763085712.063439) can0 4C6#04B704B204BC04AE
(1763085712.064452) can0 4C7#04B604B204B204B4
(1763085712.065487) can0 4C8#0490000000000000
(1763085712.066742) can0 189#4E02AD01740100C0
(1763085712.068960) can0 000A0003#FF1F0005105E0000
(1763085712.069244) can0 000A0004#FFE2FFD4FF6D8E02
(1763085712.071205) can0 482#0000000008140001
(1763085712.073898) can0 382#0000000000000000
(1763085712.074145) can0 682#3D44240400000000
(1763085712.076734) can0 186#00004C1D010E0000
(1763085712.077272) can0 189#5002AD01730100C0
(1763085712.078972) can0 000A0003#FF200004105D0000
(1763085712.079254) can0 000A0004#FFE2FFD4FF6D8E02
(1763085712.081847) can0 701#05
(1763085712.084904) can0 181#810100207F000009
(1763085712.086743) can0 189#5002AE01750100C0
(1763085712.088966) can0 000A0003#FF1F0004105C0000
(1763085712.089253) can0 000A0004#FFE1FFD3FF6D8E02
(1763085712.091526) can0 1A2#00000E0E000000
(1763085712.091751) can0 2A1#090B0B0B0B0C0B07
(1763085712.095729) can0 281#0000000000000000
(1763085712.095977) can0 482#0000000008140001
(1763085712.096271) can0 382#0000000000000000
(1763085712.096753) can0 189#4F02AD01740100C0
(1763085712.097095) can0 080#
(1763085712.097318) can0 1A4#4000EF07000000
(1763085712.097547) can0 2A3#0E12121312120E0A
(1763085712.098248) can0 286#6400900100000000
(1763085712.098980) can0 000A0003#FF1F0003105E0000
(1763085712.099268) can0 000A0004#FFE1FFD3FF6C8E02
(1763085712.103704) can0 701#05
(1763085712.106697) can0 188#0C00ED3200000000
(1763085712.106932) can0 189#5002AE01750100C0
(1763085712.107468) can0 288#5D29242100140000
(1763085712.108450) can0 388#2121222222000000
(1763085712.108964) can0 000A0003#FF1E0003105E0000
(1763085712.109250) can0 000A0004#FFE1FFD4FF6D8E02
(1763085712.109440) can0 191#989999999998
(1763085712.110404) can0 192#989898989898
(1763085712.111423) can0 193#989899999899
(1763085712.112402) can0 194#989899999998
(1763085712.112628) can0 1A5#0000350C000000
(1763085712.113408) can0 195#989999999999
(1763085712.114429) can0 291#0F0F0F100F10
(1763085712.114961) can0 682#3D44240400000000
(1763085712.115433) can0 292#0F100F101010
(1763085712.116438) can0 293#101010101010
(1763085712.116755) can0 186#00004C1D010F0000
(1763085712.117291) can0 189#4E02AC01740100C0
(1763085712.117495) can0 294#101010111010
(1763085712.117743) can0 482#0000000008140001
(1763085712.117996) can0 382#0000000000000000
(1763085712.118414) can0 295#111111111111
(1763085712.118964) can0 000A0003#FF1E0005105D0000
(1763085712.119249) can0 000A0004#FFE2FFD4FF6D8E02
(1763085712.123043) can0 181#810100207F000009
(1763085712.125516) can0 701#05
(1763085712.126612) can0 4C4#04BA04B304BD04BF
(1763085712.126847) can0 189#4F02AF01750100C0
(1763085712.127621) can0 4C5#04B104B504BA04B6
(1763085712.128634) can0 4C6#04BB04B704BC04AE
(1763085712.128969) can0 000A0003#FF1E0007105C0000
(1763085712.129258) can0 000A0004#FFE1FFD4FF6C8E02
(1763085712.129649) can0 4C7#04BA04B704B804B4
(1763085712.130679) can0 4C8#0490000000000000
(1763085712.136736) can0 189#5102AD01750100C0
(1763085712.138977) can0 000A0003#FF1E0008105D0000
(1763085712.139263) can0 000A0004#FFE1FFD4FF6C8E02
(1763085712.139513) can0 382#0000000000000000
(1763085712.139769) can0 281#0000000000000000
(1763085712.140047) can0 482#0000000008140001
(1763085712.146734) can0 189#5102AE01750100C0
(1763085712.147360) can0 701#05
(1763085712.148968) can0 000A0003#FF1F000A105D0000
(1763085712.149253) can0 000A0004#FFE2FFD4FF6C8E02
(1763085712.155894) can0 682#3D44240400000000
(1763085712.156728) can0 186#00004C1D01000000
(1763085712.157255) can0 189#4E02AE01750100C0
(1763085712.158442) can0 1A0#000000000000
(1763085712.158969) can0 000A0003#FF1F000C105B0000
(1763085712.159255) can0 000A0004#FFDEFFD4FF688E02
(1763085712.159987) can0 000A0000#0000000000000000
(1763085712.160288) can0 000A0001#0000000000000000
(1763085712.160585) can0 000A0002#0000000000000000
(1763085712.161235) can0 181#810100207F000009
(1763085712.161486) can0 482#0000000008140001
(1763085712.161772) can0 382#0000000000000000
(1763085712.163016) can0 1A3#40005B0A000000
(1763085712.166733) can0 189#4E02AE01750100C0
(1763085712.168975) can0 000A0003#FF1E000E105A0000
(1763085712.169262) can0 000A0004#FFDEFFD3FF698E02
(1763085712.169376) can0 701#05
(1763085712.176736) can0 189#5002AE01750100C0
(1763085712.178972) can0 000A0003#FF1D000E105A0000
(1763085712.179259) can0 000A0004#FFDEFFD3FF698E02
(1763085712.183055) can0 482#0000000008140001
(1763085712.183306) can0 382#0000000000000000
(1763085712.183562) can0 281#0000000000000000
(1763085712.186735) can0 189#5002AF01750100C0
(1763085712.188976) can0 000A0003#FF1C000F10590000
(1763085712.189263) can0 000A0004#FFDFFFD3FF698E02
(1763085712.191795) can0 4C4#04BA04AD04B804BF
(1763085712.192807) can0 4C5#04B104B504BA04B6
(1763085712.193826) can0 19A#00007D706F7F8182
(1763085712.194056) can0 4C6#04BB04B704BC04AE
(1763085712.194193) can0 701#05
(1763085712.194832) can0 29A#8276838182830000
(1763085712.195059) can0 4C7#04BA04B704B804B4
(1763085712.195869) can0 4C8#0490000000000000
(1763085712.196751) can0 186#00004C1D01010000
(1763085712.196997) can0 682#3D44240400000000
(1763085712.197259) can0 189#4E02AB01740100C0
(1763085712.198111) can0 080#
(1763085712.198973) can0 000A0003#FF1B000E10570000
(1763085712.199261) can0 000A0004#FFDFFFD3FF6A8E02
(1763085712.199489) can0 1A2#00000E0E000000
(1763085712.199734) can0 181#810100207F000009
(1763085712.199978) can0 286#6400900100000000
(1763085712.200208) can0 2A1#090B0B0B0B0C0B07
(1763085712.204338) can0 1A4#4000EF07000000
(1763085712.204564) can0 2A3#0E12121312120E0A
(1763085712.204917) can0 382#0000000000000000
(1763085712.205206) can0 482#0000000008140001
(1763085712.206721) can0 188#0C00FF3200000000
(1763085712.206955) can0 189#5002AC01740100C0
(1763085712.207449) can0 288#5D29242A00140000
(1763085712.208456) can0 388#2121222222000000
(1763085712.208979) can0 000A0003#FF19000D10550000
(1763085712.209267) can0 000A0004#FFDFFFD3FF6A8E02
(1763085712.209457) can0 191#989999999998
(1763085712.210429) can0 192#989898989898
(1763085712.211431) can0 193#989899999899
(1763085712.212409) can0 194#989899999998
(1763085712.213413) can0 195#989999999999
(1763085712.214440) can0 291#0F0F0F100F10
(1763085712.214699) can0 1A5#0000350C000000
(1763085712.215439) can0 292#0F100F101010
(1763085712.215595) can0 701#05
(1763085712.216414) can0 293#101010101010
(1763085712.216761) can0 189#4E02AB01740100C0
(1763085712.217425) can0 294#101010111010
(1763085712.218420) can0 295#111111111111
(1763085712.218975) can0 000A0003#FF17000D10550000
(1763085712.219262) can0 000A0004#FFDFFFD3FF698E02
(1763085712.226733) can0 281#0000000000000000
(1763085712.226966) can0 189#5002AF01760100C0
(1763085712.227213) can0 482#0000000008140001
(1763085712.227498) can0 382#0000000000000000
(1763085712.228976) can0 000A0003#FF13000C10540000
(1763085712.229264) can0 000A0004#FFDFFFD3FF6A8E02
(1763085712.236724) can0 186#00004C1D01020000
(1763085712.237277) can0 189#5002AF01750100C0
(1763085712.237525) can0 701#05
(1763085712.237846) can0 181#810100207F000009
(1763085712.238095) can0 682#3D44240400000000
(1763085712.238979) can0 000A0003#FF13000A10570000
(1763085712.239266) can0 000A0004#FFDFFFD3FF6A8E02
(1763085712.246725) can0 189#5102AF01750100C0
(1763085712.248555) can0 482#0000000008140001
(1763085712.248807) can0 382#0000000000000000
(1763085712.249094) can0 000A0003#FF12000910590000
(1763085712.249382) can0 000A0004#FFDFFFD3FF698E02
(1763085712.256729) can0 189#5002AF01740100C0
(1763085712.256965) can0 4C4#04B404AD04B804B5
(1763085712.257979) can0 4C5#04AC04B504B604B6
(1763085712.258444) can0 1A0#000000000000
(1763085712.258989) can0 000A0003#FF120008105A0000
(1763085712.259275) can0 000A0004#FFDFFFD3FF698E02
(1763085712.259505) can0 4C6#04BB04B704B704AE
(1763085712.259622) can0 701#05
(1763085712.259995) can0 000A0000#0000000000000000
(1763085712.260294) can0 000A0001#0000000000000000
(1763085712.260591) can0 000A0002#0000000000000000
(1763085712.260822) can0 4C7#04BA04B704AD04B4
(1763085712.261071) can0 4C8#0490000000000000
(1763085712.264068) can0 1A3#40005B0A000000
(1763085712.266728) can0 189#5002AD01730100C0
(1763085712.268984) can0 000A0003#FF130007105B0000
(1763085712.269271) can0 000A0004#FFDFFFD3FF698E02
(1763085712.270402) can0 382#0000000000000000
(1763085712.270657) can0 281#0000000000000000
(1763085712.270934) can0 482#0000000008140001
(1763085712.275866) can0 181#810100207F000009
(1763085712.276720) can0 186#00004C1D01030000
(1763085712.277284) can0 189#5002AD01730100C0
(1763085712.278994) can0 000A0003#FF150007105D0000
(1763085712.279282) can0 000A0004#FFE0FFD3FF6A8E02
(1763085712.281078) can0 701#05
(1763085712.281399) can0 682#3D44240400000000
(1763085712.286724) can0 189#5002AF01740100C0
(1763085712.288980) can0 000A0003#FF150007105E0000
(1763085712.289268) can0 000A0004#FFE1FFD3FF6A8E02
(1763085712.292274) can0 482#0000000008140001
(1763085712.292546) can0 382#0000000000000000
(1763085712.296740) can0 189#5102AE01750100C0
(1763085712.297112) can0 080#
(1763085712.298265) can0 286#6400900100000000
(1763085712.298982) can0 000A0003#FF16000910610000
(1763085712.299271) can0 000A0004#FFE0FFD3FF6A8E02
(1763085712.302921) can0 701#05
(1763085712.306681) can0 188#0C00FF3200000000
(1763085712.306912) can0 189#5102AD01740100C0
(1763085712.307143) can0 1A2#00000E0E000000
(1763085712.307369) can0 2A1#090B0B0B0B0C0B07
(1763085712.307605) can0 288#5D29242200140000
(1763085712.308462) can0 388#2121222222000000
(1763085712.308985) can0 000A0003#FF17000A10650000
(1763085712.309272) can0 000A0004#FFDFFFD4FF6A8E02
(1763085712.309462) can0 191#989999999998
(1763085712.310417) can0 192#989898989898
(1763085712.311391) can0 193#989899999899
(1763085712.311612) can0 1A4#4000EF07000000
(1763085712.311840) can0 2A3#0E12121312120E0A
(1763085712.312416) can0 194#989899999998
(1763085712.313423) can0 195#989999999999
(1763085712.314061) can0 482#0000000008140001
(1763085712.314317) can0 382#0000000000000000
(1763085712.314521) can0 291#0F0F0F100F10
(1763085712.314766) can0 181#810100207F000009
(1763085712.315061) can0 281#0000000000000000
(1763085712.315415) can0 292#0F100F101010
(1763085712.316423) can0 293#101010101010
(1763085712.316741) can0 186#00004C1D01040000
(1763085712.316965) can0 1A5#0000350C000000
(1763085712.317297) can0 189#4E02AB01710100C0
(1763085712.317502) can0 294#101010111010
(1763085712.318411) can0 295#111111111111
(1763085712.318984) can0 000A0003#FF17000D10680000
(1763085712.319272) can0 000A0004#FFE0FFD4FF6A8E02
(1763085712.322156) can0 4C4#04B404AD04B804B5
(1763085712.322402) can0 682#3D44230400000000
(1763085712.323173) can0 4C5#04AC04B504B604B6
(1763085712.324183) can0 4C6#04BB04B704B704AE
(1763085712.324776) can0 701#05
(1763085712.325199) can0 4C7#04BA04B704AD04B4
(1763085712.326233) can0 4C8#0490000000000000
(1763085712.326717) can0 189#4D02AC01730100C0
(1763085712.328986) can0 000A0003#FF17000E106B0000
(1763085712.329275) can0 000A0004#FFE0FFD4FF6A8E02
(1763085712.335902) can0 382#0000000000000000
(1763085712.336151) can0 482#0000000008140001
(1763085712.336715) can0 189#4F02AC01740100C0
(1763085712.338987) can0 000A0003#FF17000E106C0000
(1763085712.339271) can0 000A0004#FFE1FFD5FF6A8E02
(1763085712.346580) can0 701#05
(1763085712.346818) can0 189#5002AF01730100C0
(1763085712.348984) can0 000A0003#FF19000D106E0000
(1763085712.349270) can0 000A0004#FFE5FFD5FF6A8E02
(1763085712.352298) can0 181#810100207F000009
(1763085712.356712) can0 186#00004C1D01050000
(1763085712.357276) can0 189#5002AE01740100C0
(1763085712.357837) can0 281#0000000000000000
(1763085712.358086) can0 482#0000000008140001
(1763085712.358342) can0 382#0000000000000000
(1763085712.358554) can0 1A0#000000000000
(1763085712.358989) can0 000A0003#FF18000D106F0000
(1763085712.359275) can0 000A0004#FFE5FFD5FF6A8E02
(1763085712.360001) can0 000A0000#0000000000000000
(1763085712.360302) can0 000A0001#0000000000000000
(1763085712.360599) can0 000A0002#0000000000000000
(1763085712.363208) can0 682#3D44240400000000
(1763085712.365110) can0 1A3#40005B0A000000
(1763085712.366717) can0 189#4F02AE01750100C0
(1763085712.368419) can0 701#05
(1763085712.369005) can0 000A0003#FF17000C10700000
(1763085712.369279) can0 000A0004#FFE6FFD5FF6B8E02
(1763085712.376717) can0 189#5102AD01730100C0
(1763085712.378987) can0 000A0003#FF16000A106E0000
(1763085712.379273) can0 000A0004#FFE5FFD5FF6B8E02
(1763085712.379553) can0 482#0000000008140001
(1763085712.379809) can0 382#0000000000000000
(1763085712.386717) can0 189#5002AF01730100C0
(1763085712.387323) can0 4C4#04B404B304B804BA
(1763085712.388336) can0 4C5#04B104BA04BA04B6
(1763085712.388991) can0 000A0003#FF150008106C0000
(1763085712.389275) can0 000A0004#FFE4FFD5FF6C8E02
(1763085712.389507) can0 4C6#04B204B204BC04AE
(1763085712.390365) can0 4C7#04BA04B704AD04B4
(1763085712.390609) can0 181#810100207F000009
(1763085712.390728) can0 701#05
(1763085712.391398) can0 4C8#0490000000000000
(1763085712.396769) can0 186#00004C1D01060000
(1763085712.397268) can0 189#4F02AD01730100C0
(1763085712.398067) can0 080#
(1763085712.398990) can0 000A0003#FF150007106D0000
(1763085712.399269) can0 000A0004#FFE5FFD5FF6C8E02
(1763085712.399514) can0 286#6400900100000000
(1763085712.399815) can0 19A#000081756E7E807D
(1763085712.400819) can0 29A#7E6F837F84840000
(1763085712.401486) can0 382#0000000000000000
(1763085712.401744) can0 281#0000000000000000
(1763085712.401993) can0 482#0000000008140001
(1763085712.404140) can0 682#3D44240400000000
(1763085712.406706) can0 188#0C00B63200000000
(1763085712.406938) can0 189#5002AF01740100C0
(1763085712.407460) can0 288#5D29242A00140000
(1763085712.408467) can0 388#2121222222000000
(1763085712.408991) can0 000A0003#FF150006106E0000
(1763085712.409276) can0 000A0004#FFE4FFD6FF6D8E02
(1763085712.409464) can0 191#989999999998
(1763085712.410407) can0 192#989898989898
(1763085712.411416) can0 193#989899999899
(1763085712.412086) can0 701#05
(1763085712.412424) can0 194#989999999999
(1763085712.413428) can0 195#989999999999
(1763085712.414420) can0 291#0F0F0F100F10
(1763085712.414652) can0 1A2#00000E0E000000
(1763085712.414879) can0 2A1#090B0B0B0B0C0B07
(1763085712.415424) can0 292#0F100F101010
(1763085712.416430) can0 293#101010101010
(1763085712.416735) can0 189#4F02AB01710100C0
(1763085712.417440) can0 294#101010111010
(1763085712.418436) can0 295#111111111111
(1763085712.418657) can0 1A4#4000EF07000000
(1763085712.418885) can0 2A3#0E12121312120E0A
(1763085712.419174) can0 000A0003#FF180004106E0000
(1763085712.419458) can0 000A0004#FFE4FFD6FF6D8E02
(1763085712.419684) can0 1A5#0000350C000000
(1763085712.423323) can0 482#0000000008140001
(1763085712.423581) can0 382#0000000000000000
(1763085712.426753) can0 189#5102AF01730100C0
