(1763085226.349797) can0 191#999999999999
(1763085226.350793) can0 192#999999999999
(1763085226.351779) can0 193#999999999999
(1763085226.352743) can0 194#999999999999
(1763085226.353744) can0 195#999999999999
(1763085226.353991) can0 482#0000000008140001
(1763085226.354773) can0 291#0F0F0F0F0F0F
(1763085226.355061) can0 000A0003#FED4FFCA101B0000
(1763085226.355347) can0 000A0004#FFF4FFE5FFA68E02
(1763085226.355781) can0 292#0F0F0F0F100F
(1763085226.356759) can0 382#0000000000000000
(1763085226.356976) can0 293#0F0F0F0F0F0F
(1763085226.357756) can0 294#0F1010100F0F
(1763085226.358651) can0 189#46029C0154010040
(1763085226.358849) can0 295#100F0F101010
(1763085226.361860) can0 701#05
(1763085226.362207) can0 181#810100207F000009
(1763085226.365020) can0 000A0003#FED6FFCC101E0000
(1763085226.365303) can0 000A0004#FFF3FFE5FFA68E02
(1763085226.367646) can0 4C4#04DC04D304C704C5
(1763085226.368649) can0 189#48029E0156010040
(1763085226.368879) can0 4C5#04C504CD04C504BD
(1763085226.369674) can0 4C6#04BE04BE04C204BE
(1763085226.370687) can0 4C7#04C504D504FD04FF
(1763085226.371552) can0 1A3#00006513000000
(1763085226.371800) can0 4C8#049F000000000000
(1763085226.373018) can0 281#0000000000000000
(1763085226.375017) can0 000A0003#FED6FFCD10200000
(1763085226.375305) can0 000A0004#FFF3FFE4FFA68E02
(1763085226.375842) can0 482#0000000008140001
(1763085226.378486) can0 682#3E45250400000000
(1763085226.378731) can0 186#00004C1D01000000
(1763085226.378980) can0 382#0000000000000000
(1763085226.379229) can0 189#46029D0156010040
(1763085226.379443) can0 1A4#00007612000000
(1763085226.379670) can0 2A3#262522221C1B140F
(1763085226.383703) can0 701#05
(1763085226.385020) can0 000A0003#FED5FFCD10220000
(1763085226.385307) can0 000A0004#FFF3FFE3FFA78E02
(1763085226.386440) can0 1A2#00008313000000
(1763085226.386675) can0 2A1#191C1C1C1C1C190D
(1763085226.388649) can0 189#47029E0155010040
(1763085226.391631) can0 1A5#0000FF12000000
(1763085226.395019) can0 000A0003#FED5FFCE10250000
(1763085226.395302) can0 000A0004#FFF3FFE4FFA78E02
(1763085226.397616) can0 482#0000000008140001
(1763085226.398648) can0 189#47029E0156010040
(1763085226.400312) can0 382#0000000000000000
(1763085226.400556) can0 181#810100207F000009
(1763085226.404671) can0 1A0#000000000100
(1763085226.405020) can0 000A0003#FED8FFD010290000
(1763085226.405307) can0 000A0004#FFF3FFE5FFA78E02
(1763085226.405558) can0 701#05
(1763085226.406026) can0 000A0000#0000000000000000
(1763085226.406327) can0 000A0001#0000000000000000
(1763085226.406626) can0 000A0002#0000000000000000
(1763085226.408651) can0 189#46029D0155010040
(1763085226.415019) can0 000A0003#FEDAFFD1102C0000
(1763085226.415301) can0 000A0004#FFF3FFE4FFA78E02
(1763085226.416703) can0 281#0000000000000000
(1763085226.418644) can0 186#00004C1D01010000
(1763085226.418996) can0 189#49029E0155010040
(1763085226.419516) can0 482#0000000008140001
(1763085226.419765) can0 682#3E45240400000000
(1763085226.422260) can0 382#0000000000000000
(1763085226.425019) can0 000A0003#FEDAFFD1102D0000
(1763085226.425306) can0 000A0004#FFF4FFE3FFA88E02
(1763085226.427366) can0 701#05
(1763085226.428648) can0 189#47029F0154010040
(1763085226.432820) can0 4C4#04E304D304C204C5
(1763085226.433832) can0 4C5#04C004C504BD04BD
(1763085226.434850) can0 4C6#04C204C204C704C2
(1763085226.435139) can0 000A0003#FED9FFD210300000
(1763085226.435429) can0 000A0004#FFF3FFE3FFA78E02
(1763085226.435862) can0 4C7#04C104D904F304F4
(1763085226.436897) can0 4C8#049F000000000000
(1763085226.438524) can0 181#810100207F000009
(1763085226.438759) can0 189#45029F0155010040
(1763085226.438861) can0 080#
(1763085226.439981) can0 286#6400900100000000
(1763085226.441385) can0 482#0000000008140001
(1763085226.444006) can0 382#0000000000000000
(1763085226.445020) can0 000A0003#FED7FFD410320000
(1763085226.445308) can0 000A0004#FFF4FFDFFFA78E02
(1763085226.446495) can0 701#05
(1763085226.446999) can0 188#0C00893200000000
(1763085226.447772) can0 288#6829FB2A00140000
(1763085226.448646) can0 189#45029E0154010040
(1763085226.448885) can0 388#2021212020000000
(1763085226.449755) can0 191#999999999999
(1763085226.450765) can0 192#999999999999
(1763085226.451743) can0 193#999999999999
(1763085226.452749) can0 194#999999999999
(1763085226.453753) can0 195#999999999999
(1763085226.454783) can0 291#0F0F0F0F0F0F
(1763085226.455071) can0 000A0003#FED6FFD510340000
(1763085226.455358) can0 000A0004#FFF3FFE0FFA68E02
(1763085226.455759) can0 292#0F0F0F0F100F
(1763085226.456769) can0 293#0F0F0F0F0F0F
(1763085226.457764) can0 294#0F1010100F0F
(1763085226.458641) can0 186#00004C1D01020000
(1763085226.458839) can0 295#100F0F101010
(1763085226.459071) can0 189#45029C0154010040
(1763085226.460450) can0 682#3E45250400000000
(1763085226.460703) can0 281#0000000000000000
(1763085226.463114) can0 482#0000000008140001
(1763085226.465028) can0 000A0003#FED7FFD810370000
(1763085226.465319) can0 000A0004#FFF6FFDFFFA78E02
(1763085226.465816) can0 382#0000000000000000
(1763085226.468644) can0 189#47029E0154010040
(1763085226.471057) can0 701#05
(1763085226.472519) can0 1A3#00006513000000
(1763085226.475023) can0 000A0003#FED7FFDB10390000
(1763085226.475316) can0 000A0004#FFF6FFDFFFA78E02
(1763085226.476819) can0 181#810100207F000009
(1763085226.478643) can0 189#47029E0154010040
(1763085226.482288) can0 482#0000000008140001
(1763085226.485033) can0 000A0003#FED9FFDC103A0000
(1763085226.485317) can0 000A0004#FFF5FFE0FFA78E02
(1763085226.485939) can0 1A4#00007612000000
(1763085226.486169) can0 2A3#282523231C1B140F
(1763085226.487775) can0 382#0000000000000000
(1763085226.488643) can0 189#46029F0154010040
(1763085226.492878) can0 701#05
(1763085226.493726) can0 1A5#0000FF12000000
(1763085226.493982) can0 1A2#00008313000000
(1763085226.494218) can0 2A1#191C1C1C1C1C190D
(1763085226.495026) can0 000A0003#FED9FFDC103A0000
(1763085226.495311) can0 000A0004#FFF5FFE1FFA78E02
(1763085226.497989) can0 4C4#04E304D304C204C5
(1763085226.498638) can0 186#00004C1D01030000
(1763085226.498988) can0 189#46029E0154010040
(1763085226.499221) can0 4C5#04C004C504BD04BD
(1763085226.500019) can0 4C6#04C204C204C704C2
(1763085226.501037) can0 4C7#04C104D904EF04F4
(1763085226.501401) can0 682#3E45240400000000
(1763085226.502066) can0 4C8#049F000000000000
(1763085226.504027) can0 281#0000000000000000
(1763085226.504276) can0 482#0000000008140001
(1763085226.504670) can0 1A0#000000000100
(1763085226.505028) can0 000A0003#FEDAFFDC10370000
(1763085226.505314) can0 000A0004#FFF6FFE1FFA88E02
(1763085226.506038) can0 000A0000#0000000000000000
(1763085226.506340) can0 000A0001#0000000000000000
(1763085226.506636) can0 000A0002#0000000000000000
(1763085226.508640) can0 189#45029D0154010040
(1763085226.509522) can0 382#0000000000000000
(1763085226.514719) can0 701#05
(1763085226.515028) can0 000A0003#FEDAFFDC10340000
(1763085226.515314) can0 000A0004#FFF6FFE1FFA88E02
(1763085226.515558) can0 181#810100207F000009
(1763085226.518641) can0 189#47029F0155010040
(1763085226.525030) can0 000A0003#FED8FFDB10310000
(1763085226.525314) can0 000A0004#FFF6FFE1FFA88E02
(1763085226.525846) can0 482#0000000008140001
(1763085226.528641) can0 189#47029F0155010040
(1763085226.529730) can0 19A#0000816F6A7D7E7F
(1763085226.530742) can0 29A#816F828083820000
(1763085226.531333) can0 382#0000000000000000
(1763085226.533820) can0 701#05
(1763085226.535029) can0 000A0003#FED8FFDA102F0000
(1763085226.535319) can0 000A0004#FFF6FFE1FFA78E02
(1763085226.538656) can0 186#00004C1D01040000
(1763085226.538979) can0 189#45029E0155010040
(1763085226.539782) can0 080#
(1763085226.540960) can0 286#6400900100000000
(1763085226.542331) can0 682#3E45240400000000
(1763085226.545029) can0 000A0003#FED8FFDB102D0000
(1763085226.545314) can0 000A0004#FFF6FFE1FFA78E02
(1763085226.547038) can0 188#0C00113300000000
(1763085226.547724) can0 281#0000000000000000
(1763085226.547964) can0 288#6829FB2A00140000
(1763085226.548209) can0 482#0000000008140001
(1763085226.548637) can0 189#46029E0154010040
(1763085226.548879) can0 388#2021212020000000
(1763085226.549746) can0 191#999999999999
(1763085226.550725) can0 192#999999999999
(1763085226.551746) can0 193#999999999999
(1763085226.552757) can0 194#999999999999
(1763085226.553173) can0 181#810100207F000009
(1763085226.553426) can0 382#0000000000000000
(1763085226.553760) can0 195#999999999999
(1763085226.554760) can0 291#0F0F0F0F0F0F
(1763085226.555047) can0 000A0003#FED8FFDA102C0000
(1763085226.555334) can0 000A0004#FFF6FFE1FFA78E02
(1763085226.555768) can0 292#0F0F0F0F100F
(1763085226.556776) can0 293#0F0F0F0F0F0F
(1763085226.557771) can0 294#0F100F100F0F
(1763085226.558390) can0 701#05
(1763085226.558644) can0 189#45029C0153010040
(1763085226.558842) can0 295#100F0F101010
(1763085226.563180) can0 4C4#04E404D404C304C6
(1763085226.564187) can0 4C5#04C104CA04C204C3
(1763085226.565034) can0 000A0003#FED7FFD8102F0000
(1763085226.565322) can0 000A0004#FFF6FFE1FFA78E02
(1763085226.565556) can0 4C6#04C304C704C304BF
(1763085226.566210) can0 4C7#04C204D604F504F5
(1763085226.567245) can0 4C8#04A0000000000000
(1763085226.568630) can0 189#47029E0154010040
(1763085226.569579) can0 482#0000000008140001
(1763085226.573500) can0 1A3#00006513000000
(1763085226.575033) can0 000A0003#FED6FFD610310000
(1763085226.575318) can0 000A0004#FFF6FFE2FFA78E02
(1763085226.575569) can0 382#0000000000000000
(1763085226.578628) can0 186#00004C1D01050000
(1763085226.578973) can0 189#47029E0154010040
(1763085226.580302) can0 701#05
(1763085226.583206) can0 682#3E45240400000000
(1763085226.585034) can0 000A0003#FED6FFD9102F0000
(1763085226.585320) can0 000A0004#FFF6FFE5FFA78E02
(1763085226.588635) can0 189#47029F0155010040
(1763085226.591361) can0 482#0000000008140001
(1763085226.591607) can0 181#810100207F000009
(1763085226.591864) can0 281#0000000000000000
(1763085226.592840) can0 1A4#00007612000000
(1763085226.593067) can0 2A3#282523231B1B130D
(1763085226.595033) can0 000A0003#FED6FFDA102C0000
(1763085226.595321) can0 000A0004#FFF6FFE6FFA78E02
(1763085226.595827) can0 1A5#0000FF12000000
(1763085226.596842) can0 382#0000000000000000
(1763085226.598636) can0 189#46029F0155010040
(1763085226.601540) can0 1A2#00008313000000
(1763085226.601775) can0 2A1#191C1C1C1C1C190D
(1763085226.602091) can0 701#05
(1763085226.604672) can0 1A0#000000000100
(1763085226.605035) can0 000A0003#FED8FFDA102B0000
(1763085226.605319) can0 000A0004#FFF5FFE6FFA78E02
(1763085226.606049) can0 000A0000#0000000000000000
(1763085226.606347) can0 000A0001#0000000000000000
(1763085226.606645) can0 000A0002#0000000000000000
(1763085226.608633) can0 189#47029F0154010040
(1763085226.613305) can0 482#0000000008140001
(1763085226.615039) can0 000A0003#FEDAFFDA10280000
(1763085226.615325) can0 000A0004#FFF4FFE6FFA78E02
(1763085226.618624) can0 186#00004C1D01060000
(1763085226.618876) can0 382#0000000000000000
(1763085226.619109) can0 189#47029F0155010040
(1763085226.623890) can0 701#05
(1763085226.624165) can0 682#3E45250400000000
(1763085226.625044) can0 000A0003#FED9FFD910250000
(1763085226.625329) can0 000A0004#FFF6FFE5FFA78E02
(1763085226.628328) can0 4C4#04E304D304C704C5
(1763085226.628669) can0 189#4702A00155010040
(1763085226.629341) can0 4C5#04C004C904BD04C6
(1763085226.629624) can0 181#810100207F000009
(1763085226.630360) can0 4C6#04C604BE04BE04C2
(1763085226.631374) can0 4C7#04C104D9050204F9
(1763085226.632403) can0 4C8#049F000000000000
(1763085226.635042) can0 000A0003#FED8FFD810230000
(1763085226.635333) can0 000A0004#FFF6FFE7FFA68E02
(1763085226.635584) can0 281#0000000000000000
(1763085226.635837) can0 482#0000000008140001
(1763085226.638648) can0 189#46029F0155010040
(1763085226.638841) can0 080#
(1763085226.639964) can0 286#6400900100000000
(1763085226.640629) can0 382#0000000000000000
(1763085226.643225) can0 701#05
(1763085226.645039) can0 000A0003#FED6FFD910220000
(1763085226.645322) can0 000A0004#FFF6FFE6FFA58E02
(1763085226.647046) can0 188#0C00353300000000
(1763085226.647807) can0 288#6829FB2A00140000
(1763085226.648627) can0 189#45029E0155010040
(1763085226.648868) can0 388#2021212020000000
(1763085226.649740) can0 191#999999999999
(1763085226.650751) can0 192#999999999999
(1763085226.651754) can0 193#999999999999
(1763085226.652765) can0 194#999999999999
(1763085226.653738) can0 195#999999999999
(1763085226.654766) can0 291#0F0F0F0F0F0F
(1763085226.655052) can0 000A0003#FED4FFDA10220000
(1763085226.655341) can0 000A0004#FFF6FFE4FFA68E02
(1763085226.655776) can0 292#0F0F0F0F100F
(1763085226.656782) can0 293#0F0F0F0F0F0F
(1763085226.657028) can0 482#0000000008140001
(1763085226.657776) can0 294#0F100F100F0F
(1763085226.658623) can0 186#00004C1D01070000
(1763085226.658819) can0 295#100F0F101010
(1763085226.659052) can0 189#45029C0154010040
(1763085226.662342) can0 382#0000000000000000
(1763085226.664837) can0 701#05
(1763085226.665121) can0 000A0003#FED2FFD710230000
(1763085226.665408) can0 000A0004#FFF6FFE3FFA68E02
(1763085226.665652) can0 682#3E45250400000000
(1763085226.667806) can0 181#810100207F000009
(1763085226.668626) can0 189#46029E0154010040
(1763085226.674473) can0 1A3#00006513000000
(1763085226.675046) can0 000A0003#FED0FFD510230000
(1763085226.675331) can0 000A0004#FFF4FFE4FFA68E02
(1763085226.678627) can0 189#47029F0155010040
(1763085226.678879) can0 281#0000000000000000
(1763085226.679141) can0 482#0000000008140001
(1763085226.684295) can0 382#0000000000000000
(1763085226.685043) can0 000A0003#FECFFFD510240000
(1763085226.685331) can0 000A0004#FFF4FFE3FFA78E02
(1763085226.686676) can0 701#05
(1763085226.688630) can0 189#47029F0155010040
(1763085226.693487) can0 4C4#04E304D304C704C5
(1763085226.694502) can0 4C5#04C004C904BD04C6
(1763085226.695047) can0 000A0003#FECEFFD310250000
(1763085226.695337) can0 000A0004#FFF4FFE3FFA78E02
(1763085226.695572) can0 4C6#04C604BE04BE04C2
(1763085226.696533) can0 4C7#04C104D9050204F9
(1763085226.697559) can0 4C8#049F000000000000
(1763085226.697925) can0 1A5#0000FF12000000
(1763085226.698615) can0 186#00004C1D01080000
(1763085226.699003) can0 189#46029E0154010040
(1763085226.699741) can0 1A4#00007612000000
(1763085226.699967) can0 2A3#292524231B1B130D
(1763085226.700684) can0 482#0000000008140001
(1763085226.704674) can0 1A0#000000000100
(1763085226.705047) can0 000A0003#FECFFFD110260000
(1763085226.705336) can0 000A0004#FFF5FFE3FFA78E02
(1763085226.706056) can0 000A0000#0000000000000000
(1763085226.706357) can0 000A0001#0000000000000000
(1763085226.706654) can0 000A0002#0000000000000000
(1763085226.706900) can0 682#3E45240400000000
(1763085226.707153) can0 382#0000000000000000
(1763085226.707402) can0 181#810100207F000009
(1763085226.708622) can0 189#45029D0154010040
(1763085226.708739) can0 701#05
(1763085226.709088) can0 1A2#00008313000000
(1763085226.709324) can0 2A1#191C1C1C1C1C190D
(1763085226.715047) can0 000A0003#FECFFFD010270000
(1763085226.715336) can0 000A0004#FFF5FFE3FFA78E02
(1763085226.718621) can0 189#47029F0154010040
(1763085226.722375) can0 482#0000000008140001
(1763085226.722634) can0 281#0000000000000000
(1763085226.725052) can0 000A0003#FED0FFCF102B0000
(1763085226.725334) can0 000A0004#FFF1FFE4FFA78E02
(1763085226.727848) can0 382#0000000000000000
(1763085226.728621) can0 189#48029E0155010040
(1763085226.733066) can0 701#05
(1763085226.735048) can0 000A0003#FED0FFCE102E0000
(1763085226.735335) can0 000A0004#FFF2FFE4FFA78E02
(1763085226.735733) can0 19A#00007F78727E807F
(1763085226.736732) can0 29A#7F6D838083850000
(1763085226.738634) can0 186#00004C1D01090000
(1763085226.738962) can0 189#46029E0155010040
(1763085226.739828) can0 080#
(1763085226.740980) can0 286#6400900100000000
(1763085226.741855) can0 482#0000000008140001
(1763085226.745053) can0 000A0003#FECFFFD010310000
(1763085226.745340) can0 000A0004#FFF2FFE3FFA78E02
(1763085226.746969) can0 682#3E45240400000000
(1763085226.747231) can0 188#0C004A3200000000
(1763085226.747455) can0 181#810100207F000009
(1763085226.747810) can0 288#6829FB2A00140000
(1763085226.748619) can0 189#45029E0155010040
(1763085226.748860) can0 388#2021212020000000
(1763085226.749728) can0 191#999999999999
(1763085226.750740) can0 192#999999999999
(1763085226.751745) can0 193#999999999999
(1763085226.752422) can0 382#0000000000000000
(1763085226.752543) can0 701#05
(1763085226.752741) can0 194#999999999999
(1763085226.753745) can0 195#999999999999
(1763085226.754775) can0 291#0F0F0F0F0F0F
(1763085226.755061) can0 000A0003#FECFFFD210330000
(1763085226.755351) can0 000A0004#FFF1FFE3FFA78E02
(1763085226.755782) can0 292#0F0F0F0F100F
(1763085226.756791) can0 293#0F0F0F0F0F0F
(1763085226.757735) can0 294#0F100F100F0F
(1763085226.758617) can0 189#45029D0154010040
(1763085226.758817) can0 295#100F0F101010
(1763085226.759051) can0 4C4#04DC04D304C704C5
(1763085226.759695) can0 4C5#04CA04C904C104C6
(1763085226.760711) can0 4C6#04C604BE04C204BE
(1763085226.761727) can0 4C7#04CA04D504F804F4
(1763085226.762755) can0 4C8#049F000000000000
(1763085226.763327) can0 482#0000000008140001
(1763085226.765053) can0 000A0003#FECDFFD310350000
(1763085226.765338) can0 000A0004#FFF2FFE4FFA88E02
(1763085226.766055) can0 281#0000000000000000
(1763085226.768618) can0 189#46029E0156010040
(1763085226.774033) can0 701#05
(1763085226.774395) can0 382#0000000000000000
(1763085226.775052) can0 000A0003#FECCFFD310350000
(1763085226.775339) can0 000A0004#FFF1FFE4FFA78E02
(1763085226.775562) can0 1A3#00006513000000
(1763085226.778613) can0 186#00004C1D010A0000
(1763085226.778991) can0 189#46029F0156010040
(1763085226.785059) can0 000A0003#FECDFFD310350000
(1763085226.785343) can0 000A0004#FFF1FFDFFFA88E02
(1763085226.785589) can0 181#810100207F000009
(1763085226.785838) can0 482#0000000008140001
(1763085226.787908) can0 682#3E45250400000000
(1763085226.788619) can0 189#47029F0154010040
(1763085226.795053) can0 000A0003#FECEFFD210350000
(1763085226.795335) can0 000A0004#FFF1FFDFFFA88E02
(1763085226.795850) can0 701#05
(1763085226.796182) can0 382#0000000000000000
(1763085226.798619) can0 189#48029F0155010040
(1763085226.800030) can0 1A5#0000FF12000000
(1763085226.804676) can0 1A0#000000000100
(1763085226.805054) can0 000A0003#FECDFFD010340000
(1763085226.805344) can0 000A0004#FFF1FFDFFFA78E02
(1763085226.806064) can0 000A0000#0000000000000000
(1763085226.806364) can0 000A0001#0000000000000000
(1763085226.806662) can0 000A0002#0000000000000000
(1763085226.806890) can0 1A4#00007612000000
(1763085226.807114) can0 2A3#292524241A1B110D
(1763085226.807361) can0 482#0000000008140001
(1763085226.808613) can0 189#46029D0154010040
(1763085226.809755) can0 281#0000000000000000
(1763085226.815058) can0 000A0003#FECCFFCD10320000
(1763085226.815344) can0 000A0004#FFF1FFDEFFA88E02
(1763085226.816620) can0 1A2#00008313000000
(1763085226.816857) can0 2A1#191C1C1C1C1C190D
(1763085226.817929) can0 382#0000000000000000
(1763085226.818049) can0 701#05
(1763085226.818605) can0 186#00004C1D010B0000
(1763085226.819001) can0 189#45029E0154010040
(1763085226.823387) can0 181#810100207F000009
(1763085226.823885) can0 4C4#04DC04D304C704C5
(1763085226.824897) can0 4C5#04CA04C904C104C6
(1763085226.825186) can0 000A0003#FECDFFCD10320000
(1763085226.825471) can0 000A0004#FFF1FFDFFFA88E02
(1763085226.825913) can0 4C6#04C604BE04C204BE
(1763085226.826927) can0 4C7#04CA04D504F804F4
(1763085226.827963) can0 4C8#049F000000000000
(1763085226.828613) can0 189#46029E0154010040
(1763085226.828860) can0 482#0000000008140001
(1763085226.829146) can0 682#3E45250400000000
(1763085226.835057) can0 000A0003#FECFFFCE10320000
(1763085226.835341) can0 000A0004#FFF2FFDFFFA88E02
(1763085226.838632) can0 189#49029F0155010040
(1763085226.838829) can0 080#
(1763085226.839534) can0 701#05
(1763085226.839958) can0 382#0000000000000000
(1763085226.840203) can0 286#6400900100000000
(1763085226.845062) can0 000A0003#FECEFFCD10310000
(1763085226.845351) can0 000A0004#FFF1FFDFFFA78E02
(1763085226.847047) can0 188#0C00D23200000000
(1763085226.847789) can0 288#6829FB2A00140000
(1763085226.848609) can0 189#47029E0155010040
(1763085226.848853) can0 388#2021212020000000
(1763085226.849753) can0 191#999999999999
(1763085226.850777) can0 482#0000000008140001
(1763085226.850970) can0 192#999999999999
(1763085226.851770) can0 193#999999999999
(1763085226.852748) can0 194#999999999999
(1763085226.853449) can0 281#0000000000000000
(1763085226.853751) can0 195#999999999999
(1763085226.854783) can0 291#0F0F0F0F0F0F
(1763085226.855069) can0 000A0003#FECDFFCD10300000
(1763085226.855356) can0 000A0004#FFF2FFE4FFA78E02
(1763085226.855789) can0 292#0F0F0F0F100F
(1763085226.856769) can0 293#0F0F0F0F0F0F
(1763085226.857761) can0 294#0F1010100F0F
(1763085226.858603) can0 186#00004C1D010C0000
(1763085226.858801) can0 295#100F0F101010
(1763085226.859035) can0 189#45029E0154010040
(1763085226.859149) can0 701#05
(1763085226.861619) can0 382#0000000000000000
(1763085226.861900) can0 181#810100207F000009
(1763085226.865068) can0 000A0003#FECBFFCD102F0000
(1763085226.865350) can0 000A0004#FFF2FFE4FFA78E02
(1763085226.868612) can0 189#47029F0155010040
(1763085226.869800) can0 682#3E45240400000000
(1763085226.872552) can0 482#0000000008140001
(1763085226.875061) can0 000A0003#FEC9FFCE102F0000
(1763085226.875345) can0 000A0004#FFF3FFE4FFA88E02
(1763085226.876407) can0 1A3#00006513000000
(1763085226.878610) can0 189#48029F0155010040
(1763085226.880481) can0 701#05
(1763085226.883431) can0 382#0000000000000000
(1763085226.885070) can0 000A0003#FEC7FFCD10300000
(1763085226.885358) can0 000A0004#FFF3FFE3FFA88E02
(1763085226.888610) can0 189#48029F0156010040
(1763085226.889077) can0 4C4#04E304CE04C204C0
(1763085226.890088) can0 4C5#04C004C904C104C6
(1763085226.891110) can0 4C6#04C204C204C204BE
(1763085226.892121) can0 4C7#04C504D504F804F9
(1763085226.893149) can0 4C8#049F000000000000
(1763085226.894342) can0 482#0000000008140001
(1763085226.895070) can0 000A0003#FEC4FFCC10330000
(1763085226.895352) can0 000A0004#FFF3FFE4FFA78E02
(1763085226.897073) can0 281#0000000000000000
(1763085226.898598) can0 186#00004C1D010D0000
(1763085226.898988) can0 189#47029E0154010040
(1763085226.899935) can0 181#810100207F000009
(1763085226.902122) can0 1A5#0000FF12000000
(1763085226.902304) can0 701#05
(1763085226.904678) can0 1A0#000000000100
(1763085226.905064) can0 000A0003#FEC8FFCC10330000
(1763085226.905348) can0 000A0004#FFF3FFE4FFA78E02
(1763085226.905598) can0 382#0000000000000000
(1763085226.906078) can0 000A0000#0000000000000000
(1763085226.906376) can0 000A0001#0000000000000000
(1763085226.906674) can0 000A0002#0000000000000000
(1763085226.908607) can0 189#46029F0154010040
(1763085226.910738) can0 682#3E45240400000000
(1763085226.913527) can0 1A4#00007612000000
(1763085226.913751) can0 2A3#2A2624241A1B110D
(1763085226.915063) can0 000A0003#FEC9FFCB10330000
(1763085226.915349) can0 000A0004#FFF6FFE4FFA78E02
(1763085226.916276) can0 482#0000000008140001
(1763085226.918602) can0 189#46029E0155010040
(1763085226.924158) can0 1A2#00008313000000
(1763085226.924394) can0 2A1#191C1C1C1C1C190D
(1763085226.924508) can0 701#05
(1763085226.925065) can0 000A0003#FEC9FFCB10320000
(1763085226.925352) can0 000A0004#FFF6FFE3FFA78E02
(1763085226.927128) can0 382#0000000000000000
(1763085226.928607) can0 189#46029F0154010040
(1763085226.935069) can0 000A0003#FEC8FFCB10320000
(1763085226.935351) can0 000A0004#FFF6FFE2FFA88E02
(1763085226.938023) can0 181#810100207F000009
(1763085226.938272) can0 482#0000000008140001
(1763085226.938650) can0 186#00004C1D010E0000
(1763085226.938978) can0 189#45029E0154010040
(1763085226.939848) can0 080#
(1763085226.940845) can0 281#0000000000000000
(1763085226.941090) can0 286#6400900100000000
(1763085226.941724) can0 19A#00007F6A797E807C
(1763085226.942729) can0 29A#816E838083820000
(1763085226.945079) can0 000A0003#FEC7FFC910300000
(1763085226.945358) can0 000A0004#FFF5FFE2FFA78E02
(1763085226.945987) can0 701#05
(1763085226.948615) can0 189#4602A10155010040
(1763085226.948946) can0 382#0000000000000000
(1763085226.951676) can0 682#3E45250400000000
(1763085226.954260) can0 4C4#04DD04CE04C204C5
(1763085226.955065) can0 000A0003#FEC6FFC6102D0000
(1763085226.955351) can0 000A0004#FFF5FFE2FFA78E02
(1763085226.955583) can0 4C5#04C504C904C104C2
(1763085226.956069) can0 188#0C00083300000000
(1763085226.956309) can0 4C6#04BE04C604C704BE
(1763085226.956776) can0 288#6829FB1C00140000
(1763085226.957308) can0 4C7#04C104D904FD04FF
(1763085226.957788) can0 388#2021212020000000
(1763085226.958337) can0 4C8#049F000000000000
(1763085226.958614) can0 189#45029E0154010040
(1763085226.958804) can0 191#999999999999
(1763085226.959740) can0 192#999999999999
(1763085226.959989) can0 482#0000000008140001
(1763085226.960744) can0 193#999999999999
(1763085226.961755) can0 194#999999999999
(1763085226.962758) can0 195#999999999999
(1763085226.963791) can0 291#0F0F0F0F0F0F
(1763085226.964765) can0 292#0F0F0F0F100F
(1763085226.965067) can0 000A0003#FEC5FFC510290000
(1763085226.965350) can0 000A0004#FFF4FFE2FFA78E02
(1763085226.965776) can0 293#0F0F0F0F0F0F
(1763085226.966770) can0 294#0F1010100F0F
(1763085226.967776) can0 295#100F0F101010
(1763085226.967890) can0 701#05
(1763085226.968603) can0 189#45029C0153010040
(1763085226.970888) can0 382#0000000000000000
(1763085226.975079) can0 000A0003#FEC4FFC410260000
(1763085226.975361) can0 000A0004#FFF3FFE2FFA78E02
(1763085226.976319) can0 181#810100207F000009
(1763085226.977383) can0 1A3#00006513000000
(1763085226.978593) can0 186#00004C1D010F0000
(1763085226.979007) can0 189#46029E0154010040
(1763085226.981790) can0 482#0000000008140001
(1763085226.984460) can0 281#0000000000000000
(1763085226.985078) can0 000A0003#FEC4FFC410240000
(1763085226.985368) can0 000A0004#FFF3FFE3FFA78E02
(1763085226.988603) can0 189#45029F0155010040
(1763085226.989645) can0 701#05
(1763085226.992622) can0 682#3E45240400000000
(1763085226.992875) can0 382#0000000000000000
(1763085226.995074) can0 000A0003#FEC5FFC210230000
(1763085226.995362) can0 000A0004#FFF2FFE3FFA78E02
(1763085226.998599) can0 189#48029F0154010040
(1763085227.003565) can0 482#0000000008140001
(1763085227.004228) can0 1A5#0000FF12000000
(1763085227.004677) can0 1A0#000000000100
(1763085227.005077) can0 000A0003#FEC6FFC110230000
(1763085227.005365) can0 000A0004#FFF2FFE5FFA68E02
(1763085227.006094) can0 000A0000#0000000000000000
(1763085227.006392) can0 000A0001#0000000000000000
(1763085227.006691) can0 000A0002#0000000000000000
(1763085227.008602) can0 189#46029E0154010040
(1763085227.011629) can0 701#05
(1763085227.014445) can0 382#0000000000000000
(1763085227.014693) can0 181#810100207F000009
(1763085227.015075) can0 000A0003#FEC6FFC010230000
(1763085227.015364) can0 000A0004#FFF1FFE4FFA68E02
(1763085227.018591) can0 186#00004C1D01000000
(1763085227.018985) can0 189#46029F0154010040
(1763085227.019455) can0 4C4#04DD04CE04C204C5
(1763085227.020422) can0 1A4#00007612000000
(1763085227.020649) can0 2A3#2A2624241A1B110D
(1763085227.020880) can0 4C5#04C504C904C104C2
(1763085227.021493) can0 4C6#04BE04C604C704BE
(1763085227.022504) can0 4C7#04C104D904FD04FF
(1763085227.023534) can0 4C8#049F000000000000
(1763085227.025079) can0 000A0003#FEC7FFBE10230000
(1763085227.025366) can0 000A0004#FFF0FFE3FFA78E02
(1763085227.025610) can0 482#0000000008140001
(1763085227.028088) can0 281#0000000000000000
(1763085227.028593) can0 189#46029E0155010040
(1763085227.031711) can0 1A2#00008313000000
(1763085227.031943) can0 2A1#191C1C1C1C1C190D
(1763085227.033311) can0 701#05
(1763085227.033587) can0 682#3E45240400000000
(1763085227.035085) can0 000A0003#FEC7FFBE10240000
(1763085227.035370) can0 000A0004#FFF0FFE3FFA78E02
(1763085227.036387) can0 382#0000000000000000
(1763085227.038615) can0 189#47029F0155010040
(1763085227.038846) can0 080#
(1763085227.039998) can0 286#6400900100000000
(1763085227.045076) can0 000A0003#FEC8FFBE10250000
(1763085227.045363) can0 000A0004#FFEFFFE3FFA78E02
(1763085227.047034) can0 188#0C00ED3200000000
(1763085227.047299) can0 482#0000000008140001
(1763085227.047801) can0 288#6829FB2A00140000
(1763085227.048591) can0 189#45029E0155010040
(1763085227.048835) can0 388#2021212020000000
(1763085227.049767) can0 191#999999999999
(1763085227.050747) can0 192#999999999999
(1763085227.051753) can0 193#999999999999
(1763085227.052672) can0 181#810100207F000009
(1763085227.052864) can0 194#999999999999
(1763085227.053765) can0 195#999999999999
(1763085227.054764) can0 291#0F0F0F0F0F0F
(1763085227.055078) can0 000A0003#FECAFFBE10260000
(1763085227.055363) can0 000A0004#FFEFFFE4FFA68E02
(1763085227.055773) can0 292#0F0F0F0F100F
(1763085227.056781) can0 293#0F0F0F0F0F0F
(1763085227.057776) can0 294#0F100F100F0F
(1763085227.058149) can0 382#0000000000000000
(1763085227.058589) can0 186#00004C1D01010000
(1763085227.058787) can0 295#100F0F101010
(1763085227.059021) can0 189#45029C0154010040
(1763085227.065073) can0 000A0003#FECCFFBF10280000
(1763085227.065362) can0 000A0004#FFF0FFE3FFA68E02
(1763085227.068594) can0 189#48029E0155010040
(1763085227.069121) can0 482#0000000008140001
(1763085227.071776) can0 281#0000000000000000
(1763085227.074256) can0 701#05
(1763085227.074574) can0 682#3E45240400000000
(1763085227.075085) can0 000A0003#FECEFFC3102A0000
(1763085227.075370) can0 000A0004#FFF0FFE3FFA78E02
(1763085227.078360) can0 1A3#00006513000000
(1763085227.078598) can0 189#46029F0157010040
(1763085227.079955) can0 382#0000000000000000
(1763085227.084605) can0 4C4#04DD04D904BD04C5
(1763085227.085082) can0 000A0003#FECEFFC4102B0000
(1763085227.085370) can0 000A0004#FFEFFFE3FFA78E02
(1763085227.085622) can0 4C5#04C504C504C504BD
(1763085227.086636) can0 4C6#04BE04BE04C704C2
(1763085227.087650) can0 4C7#04CA04D504FD04F4
(1763085227.088239) can0 482#0000000008140001
(1763085227.088589) can0 189#47029E0157010040
(1763085227.088835) can0 4C8#049F000000000000
(1763085227.090956) can0 181#810100207F000009
(1763085227.095089) can0 000A0003#FECEFFC4102B0000
(1763085227.095376) can0 000A0004#FFF0FFE3FFA78E02
(1763085227.096098) can0 701#05
(1763085227.098584) can0 186#00004C1D01020000
(1763085227.099003) can0 189#46029E0155010040
(1763085227.101907) can0 382#0000000000000000
(1763085227.104680) can0 1A0#000000000100
(1763085227.105084) can0 000A0003#FECEFFC4102B0000
(1763085227.105370) can0 000A0004#FFF1FFE4FFA78E02
(1763085227.106100) can0 000A0000#0000000000000000
(1763085227.106398) can0 000A0001#0000000000000000
(1763085227.106696) can0 000A0002#0000000000000000
(1763085227.106920) can0 1A5#0000FF12000000
(1763085227.108592) can0 189#47029E0154010040
(1763085227.110010) can0 482#0000000008140001
(1763085227.115085) can0 000A0003#FECEFFC2102B0000
(1763085227.115372) can0 000A0004#FFF1FFE4FFA68E02
(1763085227.115616) can0 682#3E45240400000000
(1763085227.115871) can0 281#0000000000000000
(1763085227.117944) can0 701#05
(1763085227.118585) can0 189#46029E0155010040
(1763085227.123652) can0 382#0000000000000000
(1763085227.125087) can0 000A0003#FECDFFC0102B0000
(1763085227.125377) can0 000A0004#FFF1FFE3FFA78E02
(1763085227.127310) can0 1A4#00007612000000
(1763085227.127538) can0 2A3#2A2624241A1B100D
(1763085227.128585) can0 189#47029E0155010040
(1763085227.129112) can0 181#810100207F000009
(1763085227.130749) can0 19A#00007F74777E817F
(1763085227.131727) can0 29A#8073827F81830000
(1763085227.131970) can0 482#0000000008140001
(1763085227.135086) can0 000A0003#FECDFFBD102B0000
(1763085227.135372) can0 000A0004#FFF1FFE4FFA78E02
(1763085227.138609) can0 186#00004C1D01030000
(1763085227.138995) can0 189#46029F0154010040
(1763085227.139248) can0 1A2#00008313000000
(1763085227.139482) can0 2A1#191C1C1C1C1C190D
(1763085227.139829) can0 080#
(1763085227.139944) can0 701#05
(1763085227.140978) can0 286#6400900100000000
(1763085227.145085) can0 000A0003#FECDFFBA102A0000
(1763085227.145374) can0 000A0004#FFF1FFE5FFA68E02
(1763085227.145622) can0 382#0000000000000000
(1763085227.147036) can0 188#0C00E43200000000
(1763085227.147791) can0 288#6829FB2A00140000
(1763085227.148586) can0 189#46029E0154010040
(1763085227.148826) can0 388#2021212020000000
(1763085227.149756) can0 4C4#04DD04D904BD04C5
(1763085227.149947) can0 191#999999999999
(1763085227.150772) can0 4C5#04C504C504C504BD
(1763085227.150965) can0 192#999999999999
(1763085227.151790) can0 4C6#04BE04BE04C704C2
(1763085227.151979) can0 193#999999999999
(1763085227.152802) can0 4C7#04CA04D504FD04F4
(1763085227.152995) can0 194#999999999999
(1763085227.153756) can0 482#0000000008140001
(1763085227.153946) can0 195#999999999999
(1763085227.154196) can0 4C8#049F000000000000
(1763085227.154772) can0 291#0F0F0F0F0F0F
(1763085227.155086) can0 000A0003#FECDFFB910290000
(1763085227.155373) can0 000A0004#FFF2FFE4FFA78E02
(1763085227.155782) can0 292#0F0F0F0F100F
(1763085227.156397) can0 682#3E45240400000000
(1763085227.156771) can0 293#0F0F0F0F0F0F
(1763085227.157763) can0 294#0F100F100F0F
(1763085227.158585) can0 189#45029C0153010040
(1763085227.158781) can0 295#100F0F101010
(1763085227.159118) can0 281#0000000000000000
(1763085227.159240) can0 701#05
(1763085227.165096) can0 000A0003#FECEFFB810280000
(1763085227.165378) can0 000A0004#FFF2FFE4FFA78E02
(1763085227.167431) can0 181#810100207F000009
(1763085227.168583) can0 189#47029E0155010040
(1763085227.170024) can0 382#0000000000000000
(1763085227.175091) can0 000A0003#FED0FFB910270000
(1763085227.175373) can0 000A0004#FFF2FFE4FFA88E02
(1763085227.175619) can0 482#0000000008140001
(1763085227.178578) can0 186#00004C1D01040000
(1763085227.178993) can0 189#47029F0155010040
(1763085227.179348) can0 1A3#00006513000000
(1763085227.180739) can0 701#05
(1763085227.185096) can0 000A0003#FED3FFBA10260000
(1763085227.185379) can0 000A0004#FFF2FFE5FFA88E02
(1763085227.188584) can0 189#47029F0155010040
(1763085227.191976) can0 382#0000000000000000
(1763085227.195086) can0 000A0003#FED6FFB910250000
(1763085227.195371) can0 000A0004#FFF1FFE5FFA88E02
(1763085227.197303) can0 482#0000000008140001
(1763085227.197551) can0 682#3E45240400000000
(1763085227.198582) can0 189#47029F0155010040
(1763085227.202548) can0 701#05
(1763085227.202820) can0 281#0000000000000000
(1763085227.204679) can0 1A0#000000000100
(1763085227.205095) can0 000A0003#FED9FFB710240000
(1763085227.205380) can0 000A0004#FFF2FFE5FFA88E02
(1763085227.206106) can0 000A0000#0000000000000000
(1763085227.206406) can0 000A0001#0000000000000000
(1763085227.206705) can0 000A0002#0000000000000000
(1763085227.208240) can0 181#810100207F000009
(1763085227.208462) can0 1A5#0000FF12000000
(1763085227.208694) can0 189#46029E0155010040
(1763085227.213721) can0 382#0000000000000000
(1763085227.214920) can0 4C4#04E404DA04C304C1
(1763085227.215226) can0 000A0003#FEDAFFB410230000
(1763085227.215495) can0 000A0004#FFF2FFE5FFA88E02
(1763085227.215936) can0 4C5#04C604CA04BE04C3
(1763085227.216647) can0 482#0000000008140001
(1763085227.216947) can0 4C6#04C304C304C304C3
(1763085227.217963) can0 4C7#04C604D104FE04F5
(1763085227.218573) can0 186#00004C1D01050000
(1763085227.218998) can0 4C8#04A0000000000000
(1763085227.219231) can0 189#45029E0153010040
(1763085227.224391) can0 701#05
(1763085227.225095) can0 000A0003#FEDCFFB210230000
(1763085227.225377) can0 000A0004#FFF4FFE4FFA88E02
(1763085227.228581) can0 189#48029F0157010040
(1763085227.234209) can0 1A4#00007612000000
(1763085227.234436) can0 2A3#2A2524231A1B100D
(1763085227.235091) can0 000A0003#FEDDFFB110230000
(1763085227.235376) can0 000A0004#FFF3FFE4FFA88E02
(1763085227.235625) can0 382#0000000000000000
(1763085227.238250) can0 482#0000000008140001
(1763085227.238496) can0 682#3E45250400000000
(1763085227.238729) can0 189#47029D0156010040
(1763085227.238831) can0 080#
(1763085227.239984) can0 286#6400900100000000
(1763085227.245101) can0 000A0003#FEE0FFB110230000
(1763085227.245383) can0 000A0004#FFF2FFE4FFA88E02
(1763085227.246781) can0 1A2#00008313000000
(1763085227.247020) can0 2A1#191C1C1C1C1C1A0D
(1763085227.247262) can0 188#0C00A43200000000
(1763085227.247817) can0 288#6829FB2A00140000
(1763085227.248575) can0 189#47029C0154010040
(1763085227.248819) can0 388#2021212020000000
(1763085227.249200) can0 181#810100207F000009
(1763085227.249358) can0 701#05
(1763085227.249614) can0 281#0000000000000000
(1763085227.249806) can0 191#999999999999
(1763085227.250762) can0 192#999999999999
(1763085227.251767) can0 193#999999999999
(1763085227.252747) can0 194#999999999999
(1763085227.253750) can0 195#999999999999
(1763085227.254780) can0 291#0F0F0F0F0F0F
(1763085227.255096) can0 000A0003#FEE1FFB210240000
(1763085227.255385) can0 000A0004#FFF2FFE3FFA98E02
(1763085227.255788) can0 292#0F0F0F0F100F
(1763085227.256796) can0 293#0F0F0F0F0F0F
(1763085227.257489) can0 382#0000000000000000
(1763085227.257757) can0 294#0F100F100F0F
(1763085227.258570) can0 186#00004C1D01060000
(1763085227.258767) can0 295#100F0F101010
(1763085227.259017) can0 189#45029C0154010040
(1763085227.260238) can0 482#0000000008140001
(1763085227.265102) can0 000A0003#FEE1FFB310240000
(1763085227.265384) can0 000A0004#FFF1FFE3FFA98E02
(1763085227.268576) can0 189#47029F0155010040
(1763085227.270777) can0 701#05
(1763085227.275102) can0 000A0003#FEE2FFB710260000
(1763085227.275385) can0 000A0004#FFF0FFE5FFA88E02
(1763085227.278571) can0 189#47029E0156010040
(1763085227.279224) can0 682#3E45240400000000
(1763085227.279518) can0 382#0000000000000000
(1763085227.280068) can0 4C4#04DE04D404C804C1
(1763085227.280336) can0 1A3#00006513000000
(1763085227.281080) can0 4C5#04C604CA04C204BE
(1763085227.282021) can0 482#0000000008140001
(1763085227.282251) can0 4C6#04C304C304BF04C7
(1763085227.283108) can0 4C7#04C204D6050304F5
(1763085227.284143) can0 4C8#04A0000000000000
(1763085227.285103) can0 000A0003#FEE3FFBB10290000
(1763085227.285390) can0 000A0004#FFF0FFE5FFA98E02
(1763085227.287480) can0 181#810100207F000009
(1763085227.288574) can0 189#46029F0154010040
(1763085227.292618) can0 701#05
(1763085227.292893) can0 281#0000000000000000
(1763085227.295113) can0 000A0003#FEE9FFC1102C0000
(1763085227.295402) can0 000A0004#FFEFFFE5FFA98E02
(1763085227.298566) can0 186#00004C1D01070000
(1763085227.298989) can0 189#47029F0154010040
(1763085227.301075) can0 382#0000000000000000
(1763085227.303758) can0 482#0000000008140001
(1763085227.304682) can0 1A0#000000000100
(1763085227.305101) can0 000A0003#FEEDFFC4102D0000
(1763085227.305387) can0 000A0004#FFEFFFE4FFA98E02
(1763085227.306112) can0 000A0000#0000000000000000
(1763085227.306414) can0 000A0001#0000000000000000
(1763085227.306710) can0 000A0002#0000000000000000
(1763085227.308574) can0 189#46029F0155010040
(1763085227.310478) can0 1A5#0000FF12000000
(1763085227.314513) can0 701#05
(1763085227.315114) can0 000A0003#FEF2FFC7102C0000
(1763085227.315397) can0 000A0004#FFEFFFE4FFA98E02
(1763085227.318569) can0 189#48029F0156010040
(1763085227.320161) can0 682#3E45240400000000
(1763085227.322992) can0 382#0000000000000000
(1763085227.325103) can0 000A0003#FEF7FFCA102B0000
(1763085227.325386) can0 000A0004#FFEFFFE4FFA98E02
(1763085227.325631) can0 181#810100207F000009
(1763085227.325913) can0 482#0000000008140001
(1763085227.328568) can0 189#47029E0155010040
(1763085227.335106) can0 000A0003#FEF9FFCB10280000
(1763085227.335393) can0 000A0004#FFF0FFE1FFA98E02
(1763085227.336287) can0 701#05
(1763085227.336629) can0 281#0000000000000000
(1763085227.336869) can0 19A#000080676E807E7E
(1763085227.337747) can0 29A#8176838185800000
(1763085227.338581) can0 186#00004C1D01080000
(1763085227.338982) can0 189#46029C0154010040
(1763085227.339845) can0 080#
(1763085227.340997) can0 286#6400900100000000
(1763085227.341221) can0 1A4#00007612000000
(1763085227.341450) can0 2A3#2A2524231A1B100D
(1763085227.344737) can0 382#0000000000000000
(1763085227.345112) can0 000A0003#FEF9FFCC10260000
(1763085227.345400) can0 000A0004#FFF0FFE0FFA98E02
(1763085227.345637) can0 4C4#04DE04D404C804C1
(1763085227.346229) can0 4C5#04C604CA04C204BE
(1763085227.347038) can0 188#0C003E3300000000
(1763085227.347269) can0 4C6#04C304C304BF04C7
(1763085227.347544) can0 482#0000000008140001
(1763085227.347945) can0 288#6829FB2A00140000
(1763085227.348257) can0 4C7#04C204D6050304F5
(1763085227.348591) can0 189#45029C0153010040
(1763085227.348833) can0 388#2021212020000000
(1763085227.349290) can0 4C8#04A0000000000000
(1763085227.349759) can0 191#999999999999
(1763085227.350769) can0 192#999999999999
(1763085227.351775) can0 193#999999999999
(1763085227.352736) can0 194#999999999999
(1763085227.353739) can0 195#999999999999
(1763085227.354315) can0 1A2#00008313000000
(1763085227.354553) can0 2A1#191C1C1C1C1C1A0D
(1763085227.354770) can0 291#0F0F0F0F0F0F
(1763085227.355113) can0 000A0003#FEF9FFCE10270000
(1763085227.355402) can0 000A0004#FFF0FFE0FFA98E02
(1763085227.355793) can0 292#0F0F0F0F100F
(1763085227.356772) can0 293#0F0F0F0F0F0F
(1763085227.357767) can0 294#0F100F100F0F
(1763085227.358136) can0 701#05
(1763085227.358566) can0 189#45029C0153010040
(1763085227.358768) can0 295#100F0F101010
(1763085227.361100) can0 682#3E45240400000000
(1763085227.363824) can0 181#810100207F000009
(1763085227.365104) can0 000A0003#FEF9FFD110270000
(1763085227.365392) can0 000A0004#FFF1FFDDFFA98E02
(1763085227.366537) can0 382#0000000000000000
(1763085227.368567) can0 189#47029F0156010040
(1763085227.369272) can0 482#0000000008140001
(1763085227.375108) can0 000A0003#FEF7FFD110260000
(1763085227.375398) can0 000A0004#FFF1FFDDFFAA8E02
(1763085227.378557) can0 186#00004C1D01090000
(1763085227.379011) can0 189#46029F0155010040
(1763085227.380064) can0 701#05
(1763085227.380321) can0 281#0000000000000000
(1763085227.381325) can0 1A3#00006513000000
(1763085227.385112) can0 000A0003#FEF4FFD010240000
(1763085227.385396) can0 000A0004#FFF1FFDDFFAB8E02
(1763085227.385679) can0 382#0000000000000000
(1763085227.388570) can0 189#47029F0158010040
(1763085227.391226) can0 482#0000000008140001
(1763085227.395107) can0 000A0003#FEF4FFD110260000
(1763085227.395395) can0 000A0004#FFF2FFDEFFAB8E02
(1763085227.398562) can0 189#48029F0156010040
(1763085227.401795) can0 701#05
(1763085227.402071) can0 682#3E45240400000000
(1763085227.402339) can0 181#810100207F000009
(1763085227.404684) can0 1A0#000000000100
(1763085227.405112) can0 000A0003#FEF3FFD210280000
(1763085227.405396) can0 000A0004#FFF2FFDEFFAB8E02
(1763085227.406123) can0 000A0000#0000000000000000
(1763085227.406421) can0 000A0001#0000000000000000
(1763085227.406720) can0 000A0002#0000000000000000
(1763085227.407492) can0 382#0000000000000000
(1763085227.408562) can0 189#46029D0155010040
(1763085227.410406) can0 4C4#04DC04D304C704C5
(1763085227.411415) can0 4C5#04C504C904C504C2
(1763085227.412440) can0 4C6#04C204C204C204BE
(1763085227.412665) can0 1A5#0000FF12000000
(1763085227.413043) can0 482#0000000008140001
(1763085227.413448) can0 4C7#04C104D504FD04F4
(1763085227.414480) can0 4C8#049F000000000000
(1763085227.415113) can0 000A0003#FEEFFFD3102B0000
(1763085227.415400) can0 000A0004#FFF2FFDFFFAB8E02
(1763085227.418555) can0 186#00004C1D010A0000
(1763085227.419015) can0 189#46029E0157010040
(1763085227.423638) can0 701#05
(1763085227.423909) can0 281#0000000000000000
(1763085227.425114) can0 000A0003#FEEAFFD5102F0000
(1763085227.425401) can0 000A0004#FFF1FFE0FFAC8E02
(1763085227.428566) can0 189#47029F0157010040
(1763085227.429450) can0 382#0000000000000000
(1763085227.434772) can0 482#0000000008140001
(1763085227.435114) can0 000A0003#FEE3FFD3102F0000
(1763085227.435404) can0 000A0004#FFF2FFE0FFAC8E02
(1763085227.438576) can0 189#46029F0157010040
(1763085227.438844) can0 080#
(1763085227.439997) can0 286#6400900100000000
(1763085227.440326) can0 181#810100207F000009
(1763085227.443015) can0 682#3E45240400000000
(1763085227.445143) can0 000A0003#FEDCFFD1102E0000
(1763085227.445406) can0 000A0004#FFF2FFE0FFAB8E02
(1763085227.445520) can0 701#05
(1763085227.447091) can0 188#0C00E43200000000
(1763085227.447828) can0 288#6829FB2A00140000
(1763085227.448075) can0 1A4#00007612000000
(1763085227.448289) can0 2A3#292524221A1B100D
(1763085227.448574) can0 189#47029C0155010040
(1763085227.448816) can0 388#2021212020000000
(1763085227.449794) can0 191#999999999999
(1763085227.450799) can0 192#999999999999
(1763085227.451269) can0 382#0000000000000000
(1763085227.451756) can0 193#999999999999
(1763085227.452781) can0 194#999999999999
(1763085227.453771) can0 195#999999999999
(1763085227.454796) can0 291#0F0F0F0F0F0F
(1763085227.455123) can0 000A0003#FED8FFD2102F0000
(1763085227.455413) can0 000A0004#FFF2FFE0FFAA8E02
(1763085227.455768) can0 292#0F0F0F0F100F
(1763085227.456720) can0 482#0000000008140001
(1763085227.456936) can0 293#0F0F0F0F0F0F
(1763085227.457771) can0 294#0F100F100F0F
(1763085227.458546) can0 186#00004C1D010B0000
(1763085227.458774) can0 295#100F0F101010
(1763085227.459005) can0 189#45029C0154010040
(1763085227.461839) can0 1A2#00008313000000
(1763085227.462075) can0 2A1#191C1C1C1C1C1A0D
(1763085227.465116) can0 000A0003#FED3FFD310310000
(1763085227.465400) can0 000A0004#FFF2FFE1FFAA8E02
(1763085227.467296) can0 701#05
(1763085227.467644) can0 281#0000000000000000
(1763085227.468557) can0 189#47029E0156010040
(1763085227.472996) can0 382#0000000000000000
(1763085227.475119) can0 000A0003#FED2FFD510320000
(1763085227.475404) can0 000A0004#FFF1FFE2FFA98E02
(1763085227.475640) can0 4C4#04DC04D304C704C5
(1763085227.476613) can0 4C5#04C504C904C504C2
(1763085227.477637) can0 4C6#04C204C204C204BE
(1763085227.478466) can0 181#810100207F000009
(1763085227.478702) can0 189#46029F0157010040
(1763085227.478946) can0 482#0000000008140001
(1763085227.479180) can0 4C7#04C104D504FD04F4
(1763085227.479675) can0 4C8#049F000000000000
(1763085227.482302) can0 1A3#00006513000000
(1763085227.483929) can0 682#3E45240400000000
(1763085227.485115) can0 000A0003#FED1FFD710320000
(1763085227.485399) can0 000A0004#FFF1FFE2FFAA8E02
(1763085227.486426) can0 701#05
(1763085227.488557) can0 189#46029F0155010040
(1763085227.494951) can0 382#0000000000000000
(1763085227.495240) can0 000A0003#FED0FFD710330000
(1763085227.495529) can0 000A0004#FFEDFFE1FFA98E02
(1763085227.498549) can0 186#00004C1D010C0000
(1763085227.499004) can0 189#47029E0157010040
(1763085227.500316) can0 482#0000000008140001
(1763085227.504685) can0 1A0#000000000100
(1763085227.505118) can0 000A0003#FECFFFD610330000
(1763085227.505403) can0 000A0004#FFECFFE1FFAA8E02
(1763085227.506127) can0 000A0000#0000000000000000
(1763085227.506428) can0 000A0001#0000000000000000
(1763085227.506725) can0 000A0002#0000000000000000
(1763085227.508243) can0 701#05
(1763085227.508575) can0 189#46029E0156010040
(1763085227.511217) can0 281#0000000000000000
(1763085227.514624) can0 1A5#0000FF12000000
(1763085227.515125) can0 000A0003#FECDFFD6102F0000
(1763085227.515413) can0 000A0004#FFECFFE0FFAB8E02
(1763085227.516696) can0 382#0000000000000000
(1763085227.516975) can0 181#810100207F000009
(1763085227.518551) can0 189#47029E0155010040
(1763085227.522221) can0 482#0000000008140001
(1763085227.524869) can0 682#3E45240400000000
(1763085227.525153) can0 000A0003#FECBFFD7102D0000
(1763085227.525438) can0 000A0004#FFECFFE1FFAB8E02
(1763085227.528552) can0 189#47029F0156010040
(1763085227.530085) can0 701#05
(1763085227.535125) can0 000A0003#FECAFFD6102B0000
(1763085227.535410) can0 000A0004#FFECFFE0FFAA8E02
(1763085227.538505) can0 382#0000000000000000
(1763085227.538747) can0 186#00004C1D010D0000
(1763085227.538995) can0 189#46029E0157010040
(1763085227.539861) can0 080#
(1763085227.540782) can0 4C4#04DD04D404C304C6
(1763085227.541027) can0 286#6400900100000000
(1763085227.541798) can0 4C5#04C104CA04C204BE
(1763085227.542737) can0 19A#0000815D7D818381
(1763085227.542970) can0 4C6#04C704BF04C304C3
(1763085227.543745) can0 29A#7E76808285820000
(1763085227.543978) can0 4C7#04C204D604F904FA
(1763085227.544224) can0 482#0000000008140001
(1763085227.544860) can0 4C8#04A0000000000000
(1763085227.545150) can0 000A0003#FECAFFD510290000
(1763085227.545437) can0 000A0004#FFECFFE0FFAA8E02
(1763085227.547071) can0 188#0C002C3300000000
(1763085227.547809) can0 288#6829FB2A00140000
(1763085227.548597) can0 189#46029F0157010040
(1763085227.548837) can0 388#2021212020000000
(1763085227.549773) can0 191#999999999999
(1763085227.550753) can0 192#999999999999
(1763085227.551760) can0 193#999999999999
(1763085227.551941) can0 701#05
(1763085227.552767) can0 194#999999999999
(1763085227.553771) can0 195#999999999999
(1763085227.554772) can0 291#0F0F0F0F0F0F
(1763085227.555015) can0 181#810100207F000009
(1763085227.555302) can0 000A0003#FEC9FFD5102B0000
(1763085227.555585) can0 000A0004#FFEBFFE1FFAB8E02
(1763085227.555812) can0 1A4#00007612000000
(1763085227.556063) can0 281#0000000000000000
(1763085227.556277) can0 292#0F0F0F0F100F
(1763085227.556503) can0 2A3#29252422191B100D
(1763085227.556784) can0 293#0F0F0F0F0F0F
(1763085227.557777) can0 294#0F100F100F0F
(1763085227.558545) can0 189#45029B0154010040
(1763085227.558779) can0 295#100F0F101010
(1763085227.560459) can0 382#0000000000000000
(1763085227.565133) can0 000A0003#FEC8FFD5102C0000
(1763085227.565416) can0 000A0004#FFEBFFE1FFAB8E02
(1763085227.565780) can0 482#0000000008140001
(1763085227.566030) can0 682#3E45240400000000
(1763085227.568550) can0 189#46029F0157010040
(1763085227.569392) can0 1A2#00008313000000
(1763085227.569630) can0 2A1#191C1C1C1C1C1A0D
(1763085227.573752) can0 701#05
(1763085227.575129) can0 000A0003#FEC9FFD4102C0000
(1763085227.575417) can0 000A0004#FFECFFE0FFAB8E02
(1763085227.578538) can0 186#00004C1D010E0000
(1763085227.578993) can0 189#46029E0156010040
(1763085227.582202) can0 382#0000000000000000
(1763085227.583303) can0 1A3#00006513000000
(1763085227.585128) can0 000A0003#FECAFFD3102B0000
(1763085227.585416) can0 000A0004#FFEBFFDFFFAB8E02
(1763085227.587728) can0 482#0000000008140001
(1763085227.588545) can0 189#47029E0157010040
(1763085227.593101) can0 181#810100207F000009
(1763085227.595123) can0 000A0003#FECBFFD2102C0000
(1763085227.595412) can0 000A0004#FFEBFFDFFFAB8E02
(1763085227.595591) can0 701#05
(1763085227.598547) can0 189#47029F0158010040
(1763085227.598800) can0 281#0000000000000000
(1763085227.604014) can0 382#0000000000000000
(1763085227.604685) can0 1A0#000000000100
(1763085227.605131) can0 000A0003#FECDFFD0102D0000
(1763085227.605421) can0 000A0004#FFECFFDDFFAB8E02
(1763085227.605961) can0 4C4#04DD04DA04C304C1
(1763085227.606261) can0 000A0000#0000000000000000
(1763085227.606561) can0 000A0001#0000000000000000
(1763085227.606861) can0 000A0002#0000000000000000
(1763085227.607093) can0 4C5#04C104CA04C204BE
(1763085227.607338) can0 682#3E45240400000000
(1763085227.607987) can0 4C6#04C704BF04C304C3
(1763085227.608543) can0 189#45029C0155010040
(1763085227.609002) can0 4C7#04C604DA04FE04F5
(1763085227.609513) can0 482#0000000008140001
(1763085227.610037) can0 4C8#04A0000000000000
(1763085227.615136) can0 000A0003#FECFFFCF102D0000
(1763085227.615424) can0 000A0004#FFE9FFDDFFAB8E02
(1763085227.616705) can0 1A5#0000FF12000000
(1763085227.617422) can0 701#05
(1763085227.618541) can0 186#00004C1D010F0000
(1763085227.619002) can0 189#47029E0157010040
(1763085227.625136) can0 000A0003#FED1FFCF102C0000
(1763085227.625419) can0 000A0004#FFE9FFDDFFAC8E02
(1763085227.625964) can0 382#0000000000000000
(1763085227.628542) can0 189#47029E0157010040
(1763085227.631294) can0 482#0000000008140001
(1763085227.631542) can0 181#810100207F000009
(1763085227.635133) can0 000A0003#FED2FFCF102A0000
(1763085227.635419) can0 000A0004#FFE9FFD9FFAC8E02
(1763085227.636536) can0 701#05
(1763085227.638561) can0 189#47029F0157010040
(1763085227.638861) can0 080#
(1763085227.639983) can0 286#6400900100000000
(1763085227.642260) can0 281#0000000000000000
(1763085227.645140) can0 000A0003#FED2FFCF10270000
(1763085227.645425) can0 000A0004#FFEAFFDBFFAC8E02
(1763085227.647065) can0 188#0C00BF3200000000
(1763085227.647707) can0 682#3E45250400000000
(1763085227.647945) can0 288#6829FB2A00140000
(1763085227.648197) can0 382#0000000000000000
(1763085227.648540) can0 189#46029D0155010040
(1763085227.648823) can0 388#2021212020000000
(1763085227.649749) can0 191#999999999999
(1763085227.650763) can0 192#999999999999
(1763085227.651765) can0 193#999999999999
(1763085227.652775) can0 194#999999999999
(1763085227.653244) can0 482#0000000008140001
(1763085227.653749) can0 195#999999999999
(1763085227.654778) can0 291#0F0F0F0F0F0F
(1763085227.655132) can0 000A0003#FED3FFCE10230000
(1763085227.655418) can0 000A0004#FFEBFFDBFFAC8E02
(1763085227.655785) can0 292#0F0F0F0F100F
(1763085227.656794) can0 293#0F0F0F0F0F0F
(1763085227.657788) can0 294#0F100F100F0F
(1763085227.658392) can0 701#05
(1763085227.658639) can0 186#00004C1D01000000
(1763085227.658834) can0 295#100F0F101010
(1763085227.659067) can0 189#45029C0155010040
(1763085227.661873) can0 1A4#00007612000000
(1763085227.662100) can0 2A3#28252422191B100D
(1763085227.665138) can0 000A0003#FED5FFCD10200000
(1763085227.665423) can0 000A0004#FFEBFFDCFFAD8E02
(1763085227.668541) can0 189#47029F0156010040
(1763085227.669530) can0 382#0000000000000000
(1763085227.669776) can0 181#810100207F000009
(1763085227.671134) can0 4C4#04DD04DA04C304C1
(1763085227.672149) can0 4C5#04C604CA04C204C3
(1763085227.673166) can0 4C6#04C704BF04C304C3
(1763085227.674176) can0 4C7#04C604DA04FE04F5
(1763085227.675064) can0 482#0000000008140001
(1763085227.675354) can0 000A0003#FED7FFCC101F0000
(1763085227.675643) can0 000A0004#FFEAFFDDFFAC8E02
(1763085227.675892) can0 4C8#04A0000000000000
(1763085227.676954) can0 1A2#00008313000000
(1763085227.677192) can0 2A1#191C1C1C1C1C1A0D
(1763085227.678540) can0 189#45029D0155010040
(1763085227.680201) can0 701#05
(1763085227.684332) can0 1A3#00006513000000
(1763085227.685146) can0 000A0003#FED9FFCB101F0000
(1763085227.685436) can0 000A0004#FFEBFFDDFFAB8E02
(1763085227.685910) can0 281#0000000000000000
(1763085227.688539) can0 189#48029F0155010040
(1763085227.688783) can0 682#3E45240400000000
(1763085227.691476) can0 382#0000000000000000
(1763085227.695138) can0 000A0003#FED9FFC9101D0000
(1763085227.695426) can0 000A0004#FFEBFFDDFFAB8E02
(1763085227.696801) can0 482#0000000008140001
(1763085227.698533) can0 186#00004C1D01010000
(1763085227.699022) can0 189#47029F0156010040
(1763085227.702044) can0 701#05
(1763085227.704688) can0 1A0#000000000100
(1763085227.705145) can0 000A0003#FED9FFC8101C0000
(1763085227.705427) can0 000A0004#FFEBFFDEFFAA8E02
(1763085227.706159) can0 000A0000#0000000000000000
(1763085227.706459) can0 000A0001#0000000000000000
(1763085227.706759) can0 000A0002#0000000000000000
(1763085227.707738) can0 181#810100207F000009
(1763085227.708536) can0 189#47029E0155010040
(1763085227.713217) can0 382#0000000000000000
(1763085227.715139) can0 000A0003#FED8FFC7101A0000
(1763085227.715422) can0 000A0004#FFEBFFDEFFAB8E02
(1763085227.718537) can0 189#46029F0157010040
(1763085227.718783) can0 482#0000000008140001
(1763085227.719009) can0 1A5#0000FF12000000
(1763085227.721350) can0 701#05
(1763085227.725146) can0 000A0003#FED5FFC510170000
(1763085227.725428) can0 000A0004#FFEAFFDEFFAB8E02
(1763085227.728538) can0 189#47029F0156010040
(1763085227.729587) can0 682#3E45240400000000
(1763085227.729884) can0 281#0000000000000000
(1763085227.731734) can0 19A#000082666C81857D
(1763085227.732739) can0 29A#805A818482840000
(1763085227.735026) can0 382#0000000000000000
(1763085227.735319) can0 000A0003#FED3FFC410150000
(1763085227.735602) can0 000A0004#FFEFFFDEFFAC8E02
(1763085227.736272) can0 4C4#04D704CD04BD04CA
(1763085227.737284) can0 4C5#04C504C504C104BD
(1763085227.738304) can0 4C6#04C204BE04BE04BE
(1763085227.738562) can0 186#00004C1D01020000
(1763085227.738982) can0 189#46029C0155010040
(1763085227.739314) can0 4C7#04C504D9050204F4
(1763085227.739845) can0 080#
(1763085227.740345) can0 4C8#049F000000000000
(1763085227.740625) can0 482#0000000008140001
(1763085227.740996) can0 286#6400900100000000
(1763085227.743062) can0 701#05
(1763085227.745142) can0 000A0003#FED1FFC210140000
(1763085227.745427) can0 000A0004#FFF0FFDEFFAC8E02
(1763085227.746031) can0 181#810100207F000009
(1763085227.748536) can0 189#48029F0157010040
(1763085227.755151) can0 000A0003#FECFFFC010140000
(1763085227.755434) can0 000A0004#FFEFFFDEFFAC8E02
(1763085227.756978) can0 382#0000000000000000
(1763085227.758532) can0 189#47029F0157010040
(1763085227.762310) can0 482#0000000008140001
(1763085227.764837) can0 701#05
(1763085227.765152) can0 000A0003#FECEFFBE10150000
(1763085227.765435) can0 000A0004#FFEFFFDEFFAC8E02
(1763085227.768529) can0 189#47029E0157010040
(1763085227.768765) can0 1A4#00007612000000
(1763085227.768991) can0 2A3#28252421191B100D
(1763085227.770519) can0 682#3E45240400000000
(1763085227.773240) can0 281#0000000000000000
(1763085227.775145) can0 000A0003#FECDFFBC10160000
(1763085227.775431) can0 000A0004#FFEFFFDEFFAB8E02
(1763085227.778528) can0 186#00004C1D01030000
(1763085227.778778) can0 382#0000000000000000
(1763085227.779018) can0 189#47029E0157010040
(1763085227.784178) can0 181#810100207F000009
(1763085227.784466) can0 482#0000000008140001
(1763085227.784692) can0 1A2#00008313000000
(1763085227.784932) can0 2A1#191C1C1C1C1C1A0D
(1763085227.785216) can0 000A0003#FECDFFBB10160000
(1763085227.785503) can0 000A0004#FFF0FFDEFFAB8E02
(1763085227.785727) can0 1A3#00006513000000
(1763085227.786660) can0 701#05
(1763085227.788529) can0 189#47029E0155010040
(1763085227.795145) can0 000A0003#FECEFFB910160000
(1763085227.795434) can0 000A0004#FFEFFFDFFFAC8E02
(1763085227.798534) can0 189#47029F0157010040
(1763085227.800536) can0 382#0000000000000000
(1763085227.801082) can0 188#0C00313300000000
(1763085227.801402) can0 4C4#04D704CD04BD04CA
(1763085227.801792) can0 288#6829FB1B00140000
(1763085227.802415) can0 4C5#04C504C504C104BD
(1763085227.802801) can0 388#2021212020000000
(1763085227.803436) can0 4C6#04C204BE04BE04BE
(1763085227.803754) can0 191#999999999999
(1763085227.804440) can0 4C7#04C504D9050204F4
(1763085227.804684) can0 1A0#000000000100
(1763085227.804878) can0 192#999999999999
(1763085227.805164) can0 000A0003#FECEFFB610170000
(1763085227.805452) can0 000A0004#FFEFFFDFFFAC8E02
(1763085227.805700) can0 4C8#049F000000000000
(1763085227.805890) can0 193#999999999999
(1763085227.806192) can0 000A0000#0000000000000000
(1763085227.806490) can0 000A0001#0000000000000000
(1763085227.806788) can0 000A0002#0000000000000000
(1763085227.806982) can0 194#999999999999
(1763085227.807240) can0 482#0000000008140001
(1763085227.807771) can0 195#999999999999
(1763085227.808526) can0 189#45029C0154010040
(1763085227.808695) can0 701#05
(1763085227.808910) can0 291#0F0F0F0F0F0F
(1763085227.809778) can0 292#0F0F0F0F100F
(1763085227.810786) can0 293#0F0F0F0F0F0F
(1763085227.811475) can0 682#3E45240400000000
(1763085227.811782) can0 294#0F100F100F0F
(1763085227.812782) can0 295#100F0F101010
(1763085227.815147) can0 000A0003#FECFFFB410170000
(1763085227.815438) can0 000A0004#FFEFFFDFFFAC8E02
(1763085227.816926) can0 281#0000000000000000
(1763085227.818522) can0 186#00004C1D01040000
(1763085227.819016) can0 189#46029D0154010040
(1763085227.820899) can0 1A5#0000FF12000000
(1763085227.822374) can0 181#810100207F000009
(1763085227.822627) can0 382#0000000000000000
(1763085227.825150) can0 000A0003#FED1FFB310160000
(1763085227.825434) can0 000A0004#FFF0FFDEFFAC8E02
(1763085227.827819) can0 482#0000000008140001
(1763085227.828524) can0 189#48029E0155010040
(1763085227.830340) can0 701#05
(1763085227.835152) can0 000A0003#FED3FFB310150000
(1763085227.835437) can0 000A0004#FFF1FFE2FFAC8E02
(1763085227.838543) can0 189#48029F0157010040
(1763085227.838846) can0 080#
(1763085227.839999) can0 286#6400900100000000
(1763085227.844234) can0 382#0000000000000000
(1763085227.845150) can0 000A0003#FED5FFB610160000
(1763085227.845440) can0 000A0004#FFF1FFE3FFAC8E02
(1763085227.847070) can0 188#0C00E83200000000
(1763085227.847801) can0 288#6829FB2A00140000
(1763085227.848524) can0 189#47029F0156010040
(1763085227.848808) can0 388#2021212020000000
(1763085227.849775) can0 482#0000000008140001
(1763085227.849967) can0 191#999999999999
(1763085227.850775) can0 192#999999999999
(1763085227.851778) can0 193#999999999999
(1763085227.852138) can0 701#05
(1763085227.852759) can0 194#999999999999
(1763085227.853762) can0 195#999999999999
(1763085227.854792) can0 291#0F0F0F0F0F0F
(1763085227.855153) can0 000A0003#FED6FFB810170000
(1763085227.855441) can0 000A0004#FFF0FFE3FFAC8E02
(1763085227.855684) can0 682#3E45240400000000
(1763085227.855898) can0 292#0F0F0F0F100F
(1763085227.856778) can0 293#0F0F0F0F0F0F
(1763085227.857771) can0 294#0F100F100F0F
(1763085227.858513) can0 186#00004C1D01050000
(1763085227.858774) can0 295#100F0F101010
(1763085227.859006) can0 189#45029C0154010040
(1763085227.860709) can0 181#810100207F000009
(1763085227.860962) can0 281#0000000000000000
(1763085227.865158) can0 000A0003#FED6FFBA10190000
(1763085227.865442) can0 000A0004#FFF0FFE3FFAB8E02
(1763085227.866045) can0 382#0000000000000000
(1763085227.866561) can0 4C4#04DD04D304C204C5
(1763085227.867580) can0 4C5#04C004C904C104C2
(1763085227.868519) can0 189#46029E0156010040
(1763085227.868759) can0 4C6#04C204BE04BE04BE
(1763085227.869612) can0 4C7#04C104D904FD04F9
(1763085227.870638) can0 4C8#049F000000000000
(1763085227.871293) can0 701#05
(1763085227.871617) can0 482#0000000008140001
(1763085227.875151) can0 000A0003#FED6FFBD101B0000
(1763085227.875435) can0 000A0004#FFF1FFE2FFAB8E02
(1763085227.875661) can0 1A4#00007612000000
(1763085227.875891) can0 2A3#28252421191B100D
(1763085227.878521) can0 189#46029F0157010040
(1763085227.885161) can0 000A0003#FED8FFC0101D0000
(1763085227.885450) can0 000A0004#FFF0FFE1FFAC8E02
(1763085227.886398) can0 1A3#00006513000000
(1763085227.887994) can0 382#0000000000000000
(1763085227.888527) can0 189#46029F0158010040
(1763085227.892045) can0 1A2#00008313000000
(1763085227.892283) can0 2A1#191C1C1C1C1C1A0D
(1763085227.893331) can0 482#0000000008140001
(1763085227.893450) can0 701#05
(1763085227.895165) can0 000A0003#FED9FFC1101E0000
(1763085227.895451) can0 000A0004#FFF0FFE2FFAC8E02
(1763085227.896298) can0 682#3E45240400000000
(1763085227.898511) can0 186#00004C1D01060000
(1763085227.898878) can0 181#810100207F000009
(1763085227.899114) can0 189#45029F0155010040
(1763085227.904254) can0 281#0000000000000000
(1763085227.904688) can0 1A0#000000000100
(1763085227.905158) can0 000A0003#FEDAFFC3101E0000
(1763085227.905446) can0 000A0004#FFF0FFDEFFAC8E02
(1763085227.906175) can0 000A0000#0000000000000000
(1763085227.906474) can0 000A0001#0000000000000000
(1763085227.906772) can0 000A0002#0000000000000000
(1763085227.908518) can0 189#45029E0154010040
(1763085227.909749) can0 382#0000000000000000
(1763085227.914939) can0 701#05
(1763085227.915226) can0 000A0003#FEDBFFC5101F0000
(1763085227.915517) can0 000A0004#FFEFFFDFFFAC8E02
(1763085227.915762) can0 482#0000000008140001
(1763085227.918520) can0 189#48029F0157010040
(1763085227.922998) can0 1A5#0000FF12000000
(1763085227.925162) can0 000A0003#FEDBFFC510210000
(1763085227.925448) can0 000A0004#FFEFFFDFFFAC8E02
(1763085227.928517) can0 189#46029F0157010040
(1763085227.931553) can0 382#0000000000000000
(1763085227.931785) can0 4C4#04DD04D304BD04C5
(1763085227.932765) can0 4C5#04C004C904C104C2
(1763085227.933781) can0 4C6#04C604BE04BE04BE
(1763085227.934793) can0 4C7#04C104D904F804F4
(1763085227.935159) can0 000A0003#FEDAFFC410220000
(1763085227.935448) can0 000A0004#FFEFFFDFFFAC8E02
(1763085227.935824) can0 4C8#049F000000000000
(1763085227.937021) can0 181#810100207F000009
(1763085227.937143) can0 701#05
(1763085227.937432) can0 482#0000000008140001
(1763085227.937680) can0 682#3E45250400000000
(1763085227.937917) can0 19A#00007B71647C7C7D
(1763085227.938535) can0 186#00004C1D01070000
(1763085227.938768) can0 29A#8478868181800000
(1763085227.939006) can0 189#45029C0154010040
(1763085227.939862) can0 080#
(1763085227.940983) can0 286#6400900100000000
(1763085227.945173) can0 000A0003#FED8FFC110210000
(1763085227.945453) can0 000A0004#FFF0FFDEFFAC8E02
(1763085227.947038) can0 188#0C00FF3200000000
(1763085227.947808) can0 288#6829FB2A00140000
(1763085227.948056) can0 281#0000000000000000
(1763085227.948517) can0 189#45029D0155010040
(1763085227.948817) can0 388#2021212020000000
(1763085227.949754) can0 191#999999999999
(1763085227.950765) can0 192#999999999999
(1763085227.951738) can0 193#999999999999
(1763085227.952765) can0 194#999999999999
(1763085227.953511) can0 382#0000000000000000
(1763085227.953768) can0 195#999999999999
(1763085227.954799) can0 291#0F0F0F0F0F0F
(1763085227.955167) can0 000A0003#FED6FFC010210000
(1763085227.955456) can0 000A0004#FFF0FFDEFFAC8E02
(1763085227.955776) can0 292#0F0F0F0F100F
(1763085227.956785) can0 293#0F0F0F0F0F0F
(1763085227.957759) can0 294#0F100F100F0F
(1763085227.958513) can0 189#45029D0154010040
(1763085227.958764) can0 295#100F0F101010
(1763085227.959010) can0 482#0000000008140001
(1763085227.959136) can0 701#05
(1763085227.965174) can0 000A0003#FED5FFBF10200000
(1763085227.965456) can0 000A0004#FFF0FFDFFFAC8E02
(1763085227.968513) can0 189#47029F0156010040
(1763085227.972493) can0 382#0000000000000000
(1763085227.975170) can0 000A0003#FED4FFBF10200000
(1763085227.975457) can0 000A0004#FFF0FFE0FFAD8E02
(1763085227.975701) can0 181#810100207F000009
(1763085227.978049) can0 682#3E45250400000000
(1763085227.978508) can0 186#00004C1D01080000
(1763085227.979024) can0 189#47029E0156010040
(1763085227.980531) can0 701#05
(1763085227.980882) can0 482#0000000008140001
(1763085227.982556) can0 1A4#00007612000000
(1763085227.982783) can0 2A3#28252421191B100D
(1763085227.985175) can0 000A0003#FED3FFC010200000
(1763085227.985460) can0 000A0004#FFEFFFE0FFAE8E02
(1763085227.987441) can0 1A3#00006513000000
(1763085227.988513) can0 189#46029E0157010040
(1763085227.991638) can0 281#0000000000000000
(1763085227.994442) can0 382#0000000000000000
(1763085227.995175) can0 000A0003#FED2FFC010200000
(1763085227.995462) can0 000A0004#FFEFFFDFFFAD8E02
(1763085227.996940) can0 4C4#04D704D304BD04C5
(1763085227.997958) can0 4C5#04C004CD04C104C2
(1763085227.998517) can0 189#46029F0155010040
(1763085227.998972) can0 4C6#04C604C204BE04BE
(1763085227.999583) can0 1A2#00008313000000
(1763085227.999820) can0 2A1#191C1C1C1C1C1A0D
(1763085228.000056) can0 4C7#04C104D904FD04F4
(1763085228.001017) can0 4C8#049F000000000000
(1763085228.002293) can0 701#05
(1763085228.002620) can0 482#0000000008140001
(1763085228.004695) can0 1A0#000000000100
(1763085228.005172) can0 000A0003#FED2FFC0101F0000
(1763085228.005458) can0 000A0004#FFF0FFDFFFAD8E02
(1763085228.006180) can0 000A0000#0000000000000000
(1763085228.006482) can0 000A0001#0000000000000000
(1763085228.006778) can0 000A0002#0000000000000000
(1763085228.008510) can0 189#46029E0155010040
(1763085228.013456) can0 181#810100207F000009
(1763085228.015172) can0 000A0003#FED2FFC0101E0000
(1763085228.015460) can0 000A0004#FFEFFFDEFFAD8E02
(1763085228.016185) can0 382#0000000000000000
(1763085228.018500) can0 186#00004C1D01090000
(1763085228.019008) can0 189#47029F0157010040
(1763085228.019253) can0 682#3E45250400000000
(1763085228.024340) can0 482#0000000008140001
(1763085228.024459) can0 701#05
(1763085228.025096) can0 1A5#0000FF12000000
(1763085228.025389) can0 000A0003#FED1FFBE101F0000
(1763085228.025673) can0 000A0004#FFF0FFDEFFAE8E02
(1763085228.028507) can0 189#47029E0157010040
(1763085228.035183) can0 000A0003#FED1FFBD10200000
(1763085228.035467) can0 000A0004#FFF1FFDDFFAE8E02
(1763085228.035718) can0 281#0000000000000000
(1763085228.037998) can0 382#0000000000000000
(1763085228.038530) can0 189#49029E0156010040
(1763085228.038860) can0 080#
(1763085228.040013) can0 286#6400900100000000
(1763085228.045174) can0 000A0003#FED1FFBC10230000
(1763085228.045462) can0 000A0004#FFF0FFDDFFAD8E02
(1763085228.045955) can0 701#05
(1763085228.046309) can0 482#0000000008140001
(1763085228.047053) can0 188#0C00E43200000000
(1763085228.047817) can0 288#6829FB2A00140000
(1763085228.048505) can0 189#46029D0156010040
(1763085228.048821) can0 388#2021212020000000
(1763085228.049777) can0 191#999999999999
(1763085228.050760) can0 192#999999999999
(1763085228.051662) can0 181#810100207F000009
(1763085228.051848) can0 193#999999999999
(1763085228.052770) can0 194#999999999999
(1763085228.053775) can0 195#999999999999
(1763085228.054773) can0 291#0F0F0F0F0F0F
(1763085228.055163) can0 000A0003#FED2FFBB10260000
(1763085228.055451) can0 000A0004#FFF0FFDEFFAD8E02
(1763085228.055784) can0 292#0F0F0F0F100F
(1763085228.056792) can0 293#0F0F0F0F0F0F
(1763085228.057787) can0 294#0F1010100F0F
(1763085228.058498) can0 186#00004C1D010A0000
(1763085228.058790) can0 295#100F0F101010
(1763085228.059020) can0 189#45029D0154010040
(1763085228.059989) can0 682#3E45250400000000
(1763085228.060262) can0 382#0000000000000000
(1763085228.062079) can0 4C4#04E404D404C304C6
(1763085228.063094) can0 4C5#04C604CA04C204BE
(1763085228.064113) can0 4C6#04C304BF04BF04C3
(1763085228.065168) can0 000A0003#FED2FFB810270000
(1763085228.065456) can0 000A0004#FFEFFFE2FFAD8E02
(1763085228.065688) can0 4C7#04C604D1050304FA
(1763085228.066156) can0 4C8#04A0000000000000
(1763085228.067806) can0 701#05
(1763085228.068130) can0 482#0000000008140001
(1763085228.068504) can0 189#45029D0157010040
(1763085228.075174) can0 000A0003#FED2FFB610280000
(1763085228.075465) can0 000A0004#FFEFFFE1FFAC8E02
(1763085228.078507) can0 189#47029F0158010040
(1763085228.078963) can0 281#0000000000000000
(1763085228.081696) can0 382#0000000000000000
(1763085228.085182) can0 000A0003#FED1FFB4102C0000
(1763085228.085472) can0 000A0004#FFF0FFE1FFAC8E02
(1763085228.088470) can0 1A3#00006513000000
(1763085228.088705) can0 189#47029F0157010040
(1763085228.089445) can0 1A4#00007612000000
(1763085228.089672) can0 2A3#29252421191B100D
(1763085228.089917) can0 482#0000000008140001
(1763085228.090038) can0 701#05
(1763085228.090286) can0 181#810100207F000009
(1763085228.095175) can0 000A0003#FED0FFB1102F0000
(1763085228.095460) can0 000A0004#FFF0FFE0FFAD8E02
(1763085228.098494) can0 186#00004C1D010B0000
(1763085228.099026) can0 189#47029F0157010040
(1763085228.100926) can0 682#3E45250400000000
(1763085228.103507) can0 382#0000000000000000
(1763085228.104688) can0 1A0#000000000100
(1763085228.105174) can0 000A0003#FED2FFAE10320000
(1763085228.105468) can0 000A0004#FFEFFFE1FFAC8E02
(1763085228.106192) can0 000A0000#0000000000000000
(1763085228.106492) can0 000A0001#0000000000000000
(1763085228.106790) can0 000A0002#0000000000000000
(1763085228.107118) can0 1A2#00008313000000
(1763085228.107358) can0 2A1#191C1C1C1C1C1A0D
(1763085228.108499) can0 189#45029E0154010040
(1763085228.111465) can0 701#05
(1763085228.111818) can0 482#0000000008140001
(1763085228.115175) can0 000A0003#FED3FFAD10340000
(1763085228.115467) can0 000A0004#FFEFFFE1FFAB8E02
(1763085228.118501) can0 189#47029F0157010040
(1763085228.122655) can0 281#0000000000000000
(1763085228.125181) can0 000A0003#FED1FFAA10350000
(1763085228.125466) can0 000A0004#FFF1FFE1FFAC8E02
(1763085228.125716) can0 382#0000000000000000
(1763085228.127180) can0 1A5#0000FF12000000
(1763085228.127413) can0 4C4#04E404D404C304C6
(1763085228.128110) can0 181#810100207F000009
(1763085228.128343) can0 4C5#04C604CA04C204BE
(1763085228.128577) can0 189#4B029D0155010040
(1763085228.129265) can0 4C6#04C304BF04BF04C3
(1763085228.130273) can0 4C7#04C604D1050304FA
(1763085228.131310) can0 4C8#04A0000000000000
(1763085228.133315) can0 701#05
(1763085228.133636) can0 482#0000000008140001
(1763085228.135180) can0 000A0003#FECEFFA810360000
(1763085228.135467) can0 000A0004#FFF1FFE1FFAC8E02
(1763085228.138518) can0 186#00004C1D010C0000
(1763085228.139014) can0 189#47029E0156010040
(1763085228.139848) can0 080#
(1763085228.140998) can0 286#6400900100000000
(1763085228.141921) can0 682#3E45250400000000
(1763085228.143750) can0 19A#0000865C78817E7B
(1763085228.144729) can0 29A#7D5A82818A800000
(1763085228.145185) can0 000A0003#FECEFFA810360000
(1763085228.145481) can0 000A0004#FFF2FFE2FFAC8E02
(1763085228.147063) can0 188#0C00BF3200000000
(1763085228.147287) can0 382#0000000000000000
(1763085228.147807) can0 288#6829FB2A00140000
(1763085228.148497) can0 189#45029C0155010040
(1763085228.148809) can0 388#2021212020000000
(1763085228.149751) can0 191#999999999999
(1763085228.150763) can0 192#999999999999
(1763085228.151770) can0 193#999999999999
(1763085228.152777) can0 194#999999999999
(1763085228.153749) can0 195#999999999999
(1763085228.154779) can0 291#0F0F0F0F0F0F
(1763085228.155175) can0 000A0003#FECFFFA710370000
(1763085228.155464) can0 000A0004#FFEFFFE1FFAD8E02
(1763085228.155709) can0 482#0000000008140001
(1763085228.155923) can0 292#0F0F0F0F100F
(1763085228.156041) can0 701#05
(1763085228.156795) can0 293#0F0F0F0F0F0F
(1763085228.157791) can0 294#0F1010100F0F
(1763085228.158491) can0 189#45029C0154010040
(1763085228.158763) can0 295#100F0F101010
(1763085228.165185) can0 000A0003#FECCFFA910330000
(1763085228.165465) can0 000A0004#FFF0FFE2FFAD8E02
(1763085228.166287) can0 181#810100207F000009
(1763085228.166546) can0 281#0000000000000000
(1763085228.168495) can0 189#47029E0155010040
(1763085228.169023) can0 382#0000000000000000
(1763085228.175196) can0 000A0003#FECAFFAA102F0000
(1763085228.175471) can0 000A0004#FFF1FFE2FFAE8E02
(1763085228.176967) can0 701#05
(1763085228.177323) can0 482#0000000008140001
(1763085228.178487) can0 186#00004C1D010D0000
(1763085228.179011) can0 189#47029E0155010040
(1763085228.182766) can0 682#3E45250400000000
(1763085228.185189) can0 000A0003#FEC9FFAA102E0000
(1763085228.185473) can0 000A0004#FFF2FFE1FFAE8E02
(1763085228.188497) can0 189#46029F0157010040
(1763085228.189503) can0 1A3#00006513000000
(1763085228.190963) can0 382#0000000000000000
(1763085228.192419) can0 4C4#04DC04CE04C704C0
(1763085228.193429) can0 4C5#04C504C504C104B9
(1763085228.194441) can0 4C6#04C204C204BE04B9
(1763085228.195181) can0 000A0003#FEC8FFAA102C0000
(1763085228.195469) can0 000A0004#FFF2FFE1FFAD8E02
(1763085228.195703) can0 4C7#04BD04D504FD04F9
(1763085228.196332) can0 1A4#00007612000000
(1763085228.196559) can0 2A3#29252522191B100D
(1763085228.196807) can0 4C8#049F000000000000
(1763085228.198495) can0 189#46029E0155010040
(1763085228.198830) can0 701#05
(1763085228.199152) can0 482#0000000008140001
(1763085228.204586) can0 181#810100207F000009
(1763085228.204798) can0 1A0#000000000100
(1763085228.205184) can0 000A0003#FEC9FFAD102F0000
(1763085228.205470) can0 000A0004#FFF1FFE2FFAC8E02
(1763085228.206196) can0 000A0000#0000000000000000
(1763085228.206498) can0 000A0001#0000000000000000
(1763085228.206794) can0 000A0002#0000000000000000
(1763085228.208495) can0 189#46029E0157010040
(1763085228.209969) can0 281#0000000000000000
(1763085228.212713) can0 382#0000000000000000
(1763085228.214659) can0 1A2#00008313000000
(1763085228.214897) can0 2A1#191C1C1C1C1C1A0D
(1763085228.215187) can0 000A0003#FECAFFB010330000
(1763085228.215477) can0 000A0004#FFF1FFE2FFAD8E02
(1763085228.218483) can0 186#00004C1D010E0000
(1763085228.219021) can0 189#47029F0155010040
(1763085228.220899) can0 482#0000000008140001
(1763085228.221055) can0 701#05
(1763085228.223705) can0 682#3E45250400000000
(1763085228.225188) can0 000A0003#FECAFFB110330000
(1763085228.225474) can0 000A0004#FFF1FFE1FFAD8E02
(1763085228.228494) can0 189#47029E0157010040
(1763085228.229284) can0 1A5#0000FF12000000
(1763085228.234521) can0 382#0000000000000000
(1763085228.235186) can0 000A0003#FECAFFB210330000
(1763085228.235475) can0 000A0004#FFF1FFE1FFAD8E02
(1763085228.238504) can0 189#47029E0156010040
(1763085228.238848) can0 080#
(1763085228.240000) can0 286#6400900100000000
(1763085228.242561) can0 701#05
(1763085228.242837) can0 181#810100207F000009
(1763085228.243087) can0 482#0000000008140001
(1763085228.245187) can0 000A0003#FEC9FFB510330000
(1763085228.245476) can0 000A0004#FFF2FFE0FFAD8E02
(1763085228.247065) can0 188#0C00453200000000
(1763085228.247828) can0 288#6829FB2A00140000
(1763085228.248485) can0 189#47029E0156010040
(1763085228.248809) can0 388#2021212020000000
(1763085228.249743) can0 191#999999999999
(1763085228.250755) can0 192#999999999999
(1763085228.251777) can0 193#999999999999
(1763085228.252759) can0 194#999999999999
(1763085228.253675) can0 281#0000000000000000
(1763085228.253871) can0 195#999999999999
(1763085228.254793) can0 291#0F0F0F0F0F0F
(1763085228.255205) can0 000A0003#FEC9FFB710330000
(1763085228.255477) can0 000A0004#FFF2FFE4FFAD8E02
(1763085228.255801) can0 292#0F0F0F0F100F
(1763085228.256488) can0 382#0000000000000000
(1763085228.256810) can0 293#0F0F0F0F0F0F
(1763085228.257586) can0 4C4#04DC04CE04C704C0
(1763085228.257790) can0 294#0F1010100F0F
(1763085228.258482) can0 186#00004C1D010F0000
(1763085228.258718) can0 4C5#04C504C504C104B9
(1763085228.258916) can0 295#100F0F101010
(1763085228.259148) can0 189#45029C0154010040
(1763085228.259616) can0 4C6#04C204C204BE04B9
(1763085228.260631) can0 4C7#04BD04D504F904F9
(1763085228.261661) can0 4C8#049F000000000000
(1763085228.264328) can0 701#05
(1763085228.264654) can0 482#0000000008140001
(1763085228.264902) can0 682#3E45250400000000
(1763085228.265195) can0 000A0003#FEC8FFB910320000
(1763085228.265481) can0 000A0004#FFF3FFE5FFAD8E02
(1763085228.268490) can0 189#46029E0157010040
(1763085228.275208) can0 000A0003#FEC7FFBB10300000
(1763085228.275487) can0 000A0004#FFF2FFE5FFAC8E02
(1763085228.278220) can0 382#0000000000000000
(1763085228.278508) can0 189#48029F0158010040
(1763085228.280930) can0 181#810100207F000009
(1763085228.285199) can0 000A0003#FEC8FFBD10310000
(1763085228.285482) can0 000A0004#FFF2FFE5FFAD8E02
(1763085228.286370) can0 482#0000000008140001
(1763085228.286490) can0 701#05
(1763085228.288488) can0 189#47029F0156010040
(1763085228.290542) can0 1A3#00006513000000
(1763085228.295204) can0 000A0003#FECAFFBE10320000
(1763085228.295477) can0 000A0004#FFF2FFE6FFAC8E02
(1763085228.297298) can0 281#0000000000000000
(1763085228.298480) can0 186#00004C1D01000000
(1763085228.299007) can0 189#46029F0156010040
(1763085228.300072) can0 382#0000000000000000
(1763085228.303246) can0 1A4#00007612000000
(1763085228.303474) can0 2A3#29252522191B100D
(1763085228.304695) can0 1A0#000000000100
(1763085228.305200) can0 000A0003#FECCFFBF10330000
(1763085228.305487) can0 000A0004#FFF2FFE7FFAC8E02
(1763085228.305731) can0 682#3E45240400000000
(1763085228.306212) can0 000A0000#0000000000000000
(1763085228.306512) can0 000A0001#0000000000000000
(1763085228.306810) can0 000A0002#0000000000000000
(1763085228.307991) can0 701#05
(1763085228.308342) can0 482#0000000008140001
(1763085228.308576) can0 189#46029C0156010040
(1763085228.315204) can0 000A0003#FECDFFBF10340000
(1763085228.315485) can0 000A0004#FFF3FFE6FFAC8E02
(1763085228.318486) can0 189#47029F0157010040
(1763085228.319233) can0 181#810100207F000009
(1763085228.321982) can0 382#0000000000000000
(1763085228.322210) can0 1A2#00008313000000
(1763085228.322448) can0 2A1#191C1C1C1C1C1A0D
(1763085228.322758) can0 4C4#04DE04D404CD04C6
(1763085228.323776) can0 4C5#04C604CA04C204BA
(1763085228.324786) can0 4C6#04C304C704C304BA
(1763085228.325202) can0 000A0003#FECDFFC110330000
(1763085228.325490) can0 000A0004#FFEFFFE6FFAC8E02
(1763085228.325802) can0 4C7#04C204D604FA04F5
(1763085228.326836) can0 4C8#04A0000000000000
(1763085228.328486) can0 189#46029F0157010040
(1763085228.329838) can0 701#05
(1763085228.330160) can0 482#0000000008140001
(1763085228.331384) can0 1A5#0000FF12000000
(1763085228.332749) can0 19A#0000845C7A867E7E
(1763085228.333759) can0 29A#7E5D80808B800000
(1763085228.335218) can0 000A0003#FECDFFC110320000
(1763085228.335487) can0 000A0004#FFEFFFE6FFAC8E02
(1763085228.338503) can0 186#00004C1D01010000
(1763085228.339000) can0 189#46029E0156010040
(1763085228.339869) can0 080#
(1763085228.341017) can0 286#6400900100000000
(1763085228.341269) can0 281#0000000000000000
(1763085228.343810) can0 382#0000000000000000
(1763085228.345207) can0 000A0003#FECEFFC310350000
(1763085228.345490) can0 000A0004#FFF0FFE5FFAD8E02
(1763085228.346534) can0 682#3E45240400000000
(1763085228.347071) can0 188#0C00D23200000000
(1763085228.347805) can0 288#6829FB2A00140000
(1763085228.348480) can0 189#44029E0157010040
(1763085228.348816) can0 388#2021212020000000
(1763085228.349773) can0 191#999999999999
(1763085228.350781) can0 192#999999999999
(1763085228.351787) can0 193#999999999999
(1763085228.352031) can0 482#0000000008140001
(1763085228.352183) can0 701#05
(1763085228.352765) can0 194#999999999999
(1763085228.353775) can0 195#999999999999
(1763085228.354814) can0 291#0F0F0F0F0F0F
(1763085228.355243) can0 000A0003#FECFFFC4103A0000
(1763085228.355489) can0 000A0004#FFECFFE5FFAD8E02
(1763085228.355804) can0 292#0F0F0F0F100F
(1763085228.356783) can0 293#0F0F0F0F0F0F
(1763085228.357377) can0 181#810100207F000009
(1763085228.357776) can0 294#0F1010100F0F
(1763085228.358476) can0 189#45029C0154010040
(1763085228.358778) can0 295#100F0F101010
(1763085228.365213) can0 000A0003#FECEFFC2103D0000
(1763085228.365500) can0 000A0004#FFEBFFE5FFAD8E02
(1763085228.365750) can0 382#0000000000000000
(1763085228.368479) can0 189#47029F0156010040
(1763085228.370775) can0 701#05
(1763085228.371098) can0 482#0000000008140001
(1763085228.375228) can0 000A0003#FECDFFC0103F0000
(1763085228.375497) can0 000A0004#FFEBFFE5FFAD8E02
(1763085228.378474) can0 186#00004C1D01020000
(1763085228.379030) can0 189#47029F0155010040
(1763085228.384687) can0 281#0000000000000000
(1763085228.385207) can0 000A0003#FECDFFBB10400000
(1763085228.385493) can0 000A0004#FFEBFFE5FFAC8E02
(1763085228.387477) can0 682#3E45240400000000
(1763085228.387729) can0 382#0000000000000000
(1763085228.387962) can0 4C4#04DD04D404C304C6
(1763085228.388478) can0 189#46029D0156010040
(1763085228.388937) can0 4C5#04BD04CA04BE04BE
(1763085228.389954) can0 4C6#04BA04BF04C304BF
(1763085228.390970) can0 4C7#04C204D604F904FA
(1763085228.391580) can0 1A3#00006513000000
(1763085228.392000) can0 4C8#04A0000000000000
(1763085228.392825) can0 482#0000000008140001
(1763085228.392946) can0 701#05
(1763085228.395225) can0 000A0003#FECDFFB610410000
(1763085228.395496) can0 000A0004#FFEAFFE5FFAD8E02
(1763085228.395740) can0 181#810100207F000009
(1763085228.398477) can0 189#47029F0156010040
(1763085228.404699) can0 1A0#000000000100
(1763085228.405214) can0 000A0003#FECDFFB310400000
(1763085228.405499) can0 000A0004#FFEAFFE6FFAC8E02
(1763085228.406222) can0 000A0000#0000000000000000
(1763085228.406522) can0 000A0001#0000000000000000
(1763085228.406820) can0 000A0002#0000000000000000
(1763085228.408475) can0 189#47029D0154010040
(1763085228.409241) can0 382#0000000000000000
(1763085228.410171) can0 1A4#00007612000000
(1763085228.410397) can0 2A3#29262523191B100D
(1763085228.414438) can0 701#05
(1763085228.414789) can0 482#0000000008140001
(1763085228.415228) can0 000A0003#FECBFFB1103E0000
(1763085228.415498) can0 000A0004#FFEAFFE6FFAC8E02
(1763085228.418473) can0 186#00004C1D01030000
(1763085228.419037) can0 189#46029E0155010040
(1763085228.425210) can0 000A0003#FECBFFB0103D0000
(1763085228.425494) can0 000A0004#FFEAFFE5FFAB8E02
(1763085228.428316) can0 281#0000000000000000
(1763085228.428549) can0 189#47029F0156010040
(1763085228.428793) can0 682#3E45250400000000
(1763085228.429769) can0 1A2#00008313000000
(1763085228.430007) can0 2A1#191C1C1C1C1C1A0D
(1763085228.431054) can0 382#0000000000000000
(1763085228.433482) can0 1A5#0000FF12000000
(1763085228.433871) can0 181#810100207F000009
(1763085228.435226) can0 000A0003#FECBFFB0103C0000
(1763085228.435497) can0 000A0004#FFEAFFE6FFAB8E02
(1763085228.436286) can0 701#05
(1763085228.436608) can0 482#0000000008140001
(1763085228.438490) can0 189#47029E0155010040
(1763085228.438866) can0 080#
(1763085228.440019) can0 286#6400900100000000
(1763085228.445214) can0 000A0003#FECCFFB0103B0000
(1763085228.445497) can0 000A0004#FFEBFFE5FFAB8E02
(1763085228.447042) can0 188#0C00D23200000000
(1763085228.447815) can0 288#6829FB2A00140000
(1763085228.448472) can0 189#46029E0155010040
(1763085228.448823) can0 388#2021212020000000
(1763085228.449762) can0 191#999999999999
(1763085228.450772) can0 192#999999999999
(1763085228.451745) can0 193#999999999999
(1763085228.452774) can0 194#999999999999
(1763085228.453024) can0 382#0000000000000000
(1763085228.453256) can0 4C4#04DD04D404C304C6
(1763085228.453776) can0 195#999999999999
(1763085228.454108) can0 4C5#04BD04CA04BE04BE
(1763085228.454806) can0 291#0F0F0F0F0F0F
(1763085228.455124) can0 4C6#04BA04BF04C304BF
(1763085228.455410) can0 000A0003#FECEFFB1103A0000
(1763085228.455696) can0 000A0004#FFEBFFE5FFAB8E02
(1763085228.455910) can0 292#0F0F0F0F100F
(1763085228.456146) can0 4C7#04C204D604F904FA
(1763085228.456792) can0 293#0F0F0F0F0F0F
(1763085228.457170) can0 4C8#04A0000000000000
(1763085228.457771) can0 294#0F1010100F0F
(1763085228.458341) can0 482#0000000008140001
(1763085228.458585) can0 186#00004C1D01040000
(1763085228.458783) can0 295#100F0F101010
(1763085228.458899) can0 701#05
(1763085228.459134) can0 189#45029C0153010040
(1763085228.465215) can0 000A0003#FED0FFB3103A0000
(1763085228.465500) can0 000A0004#FFEDFFE4FFAB8E02
(1763085228.468476) can0 189#47029F0157010040
(1763085228.469367) can0 682#3E45240400000000
(1763085228.472012) can0 181#810100207F000009
(1763085228.472304) can0 281#0000000000000000
(1763085228.474731) can0 382#0000000000000000
(1763085228.475230) can0 000A0003#FED1FFB510390000
(1763085228.475515) can0 000A0004#FFEEFFE5FFAC8E02
(1763085228.478471) can0 189#48029F0155010040
(1763085228.482894) can0 482#0000000008140001
(1763085228.483012) can0 701#05
(1763085228.485215) can0 000A0003#FED3FFB7103A0000
(1763085228.485500) can0 000A0004#FFEEFFE5FFAB8E02
(1763085228.488472) can0 189#47029F0156010040
(1763085228.492628) can0 1A3#00006513000000
(1763085228.493949) can0 382#0000000000000000
(1763085228.495225) can0 000A0003#FED8FFBB103C0000
(1763085228.495500) can0 000A0004#FFEFFFE4FFAC8E02
(1763085228.498462) can0 186#00004C1D01050000
(1763085228.499023) can0 189#47029E0156010040
(1763085228.504514) can0 701#05
(1763085228.504724) can0 1A0#000000000100
(1763085228.504970) can0 482#0000000008140001
(1763085228.505258) can0 000A0003#FEDAFFBE103D0000
(1763085228.505544) can0 000A0004#FFF0FFE3FFAC8E02
(1763085228.506226) can0 000A0000#0000000000000000
(1763085228.506526) can0 000A0001#0000000000000000
(1763085228.506824) can0 000A0002#0000000000000000
(1763085228.508469) can0 189#45029F0154010040
(1763085228.510205) can0 181#810100207F000009
(1763085228.510453) can0 682#3E45240400000000
(1763085228.515221) can0 000A0003#FEDBFFBF103D0000
(1763085228.515505) can0 000A0004#FFF0FFE3FFAC8E02
(1763085228.515755) can0 382#0000000000000000
(1763085228.516011) can0 281#0000000000000000
(1763085228.517080) can0 1A4#00007612000000
(1763085228.517305) can0 2A3#29262523191B100D
(1763085228.518265) can0 4C4#04D704CE04BE04C6
(1763085228.518498) can0 189#45029E0154010040
(1763085228.519283) can0 4C5#04BD04C604BE04BE
(1763085228.520296) can0 4C6#04C304BF04BF04BA
(1763085228.521304) can0 4C7#04C604D104F404F5
(1763085228.522342) can0 4C8#04A0000000000000
(1763085228.525219) can0 000A0003#FEDBFFC2103E0000
(1763085228.525502) can0 000A0004#FFF0FFE2FFAC8E02
(1763085228.526361) can0 701#05
(1763085228.526683) can0 482#0000000008140001
(1763085228.528464) can0 189#45029E0155010040
(1763085228.535236) can0 000A0003#FEDAFFC510400000
(1763085228.535503) can0 000A0004#FFF0FFE6FFAC8E02
(1763085228.535727) can0 1A5#0000FF12000000
(1763085228.537352) can0 1A2#00008313000000
(1763085228.537585) can0 2A1#191C1C1D1C1C1A0D
(1763085228.537838) can0 382#0000000000000000
(1763085228.538501) can0 186#00004C1D01060000
(1763085228.538754) can0 19A#000088605D7C7D7B
(1763085228.539033) can0 189#45029C0154010040
(1763085228.539781) can0 29A#7F6D81897F800000
(1763085228.539849) can0 080#
(1763085228.541015) can0 286#6400900100000000
(1763085228.545227) can0 000A0003#FED7FFC610410000
(1763085228.545509) can0 000A0004#FFF0FFE6FFAB8E02
(1763085228.547052) can0 188#0C00E83200000000
(1763085228.547818) can0 288#6829FB2A00140000
(1763085228.548405) can0 482#0000000008140001
(1763085228.548642) can0 189#46029F0155010040
(1763085228.548882) can0 388#2021212020000000
(1763085228.548998) can0 701#05
(1763085228.549284) can0 181#810100207F000009
(1763085228.549782) can0 191#999999999999
(1763085228.550760) can0 192#999999999999
(1763085228.551251) can0 682#3E45250400000000
(1763085228.551770) can0 193#999999999999
(1763085228.552780) can0 194#999999999999
(1763085228.553783) can0 195#999999999999
(1763085228.554782) can0 291#0F0F0F0F0F0F
(1763085228.555226) can0 000A0003#FED5FFC610410000
(1763085228.555507) can0 000A0004#FFF0FFE6FFAB8E02
(1763085228.555785) can0 292#0F0F0F0F100F
(1763085228.556795) can0 293#0F0F0F0F0F0F
(1763085228.557787) can0 294#0F100F100F0F
(1763085228.558458) can0 189#45029C0154010040
(1763085228.558790) can0 295#100F0F101010
(1763085228.559345) can0 281#0000000000000000
(1763085228.559599) can0 382#0000000000000000
(1763085228.565219) can0 000A0003#FED1FFC710410000
(1763085228.565502) can0 000A0004#FFF2FFE6FFAB8E02
(1763085228.568480) can0 189#47029F0156010040
(1763085228.570029) can0 701#05
(1763085228.570377) can0 482#0000000008140001
(1763085228.575236) can0 000A0003#FECEFFC910400000
(1763085228.575512) can0 000A0004#FFF2FFE6FFAB8E02
(1763085228.578456) can0 186#00004C1D01070000
(1763085228.579017) can0 189#46029F0155010040
(1763085228.581271) can0 382#0000000000000000
(1763085228.583443) can0 4C4#04D704CE04BE04C6
(1763085228.584457) can0 4C5#04BD04C604BE04BE
(1763085228.585230) can0 000A0003#FED1FFCA10400000
(1763085228.585516) can0 000A0004#FFF2FFE7FFAB8E02
(1763085228.585752) can0 4C6#04C304BF04BF04BA
(1763085228.586480) can0 4C7#04C604D104F404F5
(1763085228.586724) can0 181#810100207F000009
(1763085228.587518) can0 4C8#04A0000000000000
(1763085228.588458) can0 189#45029D0156010040
(1763085228.589125) can0 701#05
(1763085228.592123) can0 482#0000000008140001
(1763085228.592393) can0 682#3E45250400000000
(1763085228.593669) can0 1A3#00006513000000
(1763085228.595228) can0 000A0003#FED1FFCB10400000
(1763085228.595511) can0 000A0004#FFF2FFE7FFAB8E02
(1763085228.598456) can0 189#47029F0155010040
(1763085228.603006) can0 382#0000000000000000
(1763085228.603263) can0 281#0000000000000000
(1763085228.604701) can0 1A0#000000000100
(1763085228.605227) can0 000A0003#FED1FFCD10400000
(1763085228.605512) can0 000A0004#FFF2FFE7FFAB8E02
(1763085228.606239) can0 000A0000#0000000000000000
(1763085228.606539) can0 000A0001#0000000000000000
(1763085228.606837) can0 000A0002#0000000000000000
(1763085228.608460) can0 189#47029E0156010040
(1763085228.610964) can0 701#05
(1763085228.613910) can0 482#0000000008140001
(1763085228.615226) can0 000A0003#FED1FFCE10410000
(1763085228.615506) can0 000A0004#FFF1FFE8FFAC8E02
(1763085228.618448) can0 186#00004C1D01080000
(1763085228.619020) can0 189#45029E0156010040
(1763085228.623987) can0 1A4#00007612000000
(1763085228.624212) can0 2A3#2A262623191B100D
(1763085228.624859) can0 181#810100207F000009
(1763085228.625152) can0 382#0000000000000000
(1763085228.625438) can0 000A0003#FED1FFCF10420000
(1763085228.625722) can0 000A0004#FFF2FFE8FFAC8E02
(1763085228.628458) can0 189#46029E0155010040
(1763085228.632811) can0 701#05
(1763085228.633157) can0 682#3E45250400000000
(1763085228.635230) can0 000A0003#FED0FFCF10440000
(1763085228.635513) can0 000A0004#FFF2FFE8FFAC8E02
(1763085228.635851) can0 482#0000000008140001
(1763085228.637677) can0 1A5#0000FF12000000
(1763085228.638476) can0 189#46029E0154010040
(1763085228.638882) can0 080#
(1763085228.640003) can0 286#6400900100000000
(1763085228.644904) can0 1A2#00008313000000
(1763085228.645134) can0 2A1#191C1C1D1C1D1A0D
(1763085228.645420) can0 000A0003#FECFFFCF10440000
(1763085228.645704) can0 000A0004#FFF2FFE6FFAC8E02
(1763085228.646702) can0 382#0000000000000000
(1763085228.646990) can0 281#0000000000000000
(1763085228.648456) can0 189#46029E0155010040
(1763085228.648688) can0 4C4#04D704CE04C304C1
(1763085228.649626) can0 4C5#04C604CA04C604C3
(1763085228.650644) can0 4C6#04BF04C304BF04BA
(1763085228.651662) can0 4C7#04BE04D604FE04FA
(1763085228.652690) can0 4C8#04A0000000000000
(1763085228.655249) can0 000A0003#FECDFFCF10440000
(1763085228.655519) can0 000A0004#FFF3FFE9FFAB8E02
(1763085228.656012) can0 188#0C00593300000000
(1763085228.656811) can0 288#6829FB1C00140000
(1763085228.657357) can0 701#05
(1763085228.657706) can0 482#0000000008140001
(1763085228.657948) can0 388#2021212020000000
(1763085228.658446) can0 186#00004C1D01090000
(1763085228.658766) can0 191#999999999999
(1763085228.659048) can0 189#45029C0154010040
(1763085228.659778) can0 192#999999999999
(1763085228.660780) can0 193#999999999999
(1763085228.661790) can0 194#999999999999
(1763085228.662764) can0 195#999999999999
(1763085228.663147) can0 181#810100207F000009
(1763085228.663793) can0 291#0F0F0F0F0F0F
(1763085228.664800) can0 292#0F0F0F0F100F
(1763085228.665236) can0 000A0003#FECCFFCE10430000
(1763085228.665522) can0 000A0004#FFF4FFE8FFAB8E02
(1763085228.665811) can0 293#0F0F0F0F0F0F
(1763085228.666772) can0 294#0F100F100F0F
(1763085228.667776) can0 295#100F0F101010
(1763085228.668454) can0 189#45029E0155010040
(1763085228.668704) can0 382#0000000000000000
(1763085228.674078) can0 682#3E45250400000000
(1763085228.675231) can0 000A0003#FECDFFCD10430000
(1763085228.675515) can0 000A0004#FFF4FFEAFFAC8E02
(1763085228.676468) can0 701#05
(1763085228.678456) can0 189#47029F0155010040
(1763085228.679426) can0 482#0000000008140001
(1763085228.685237) can0 000A0003#FECEFFCC10430000
(1763085228.685525) can0 000A0004#FFF4FFE9FFAC8E02
(1763085228.688452) can0 189#48029F0155010040
(1763085228.690345) can0 281#0000000000000000
(1763085228.690599) can0 382#0000000000000000
(1763085228.694717) can0 1A3#00006513000000
(1763085228.695240) can0 000A0003#FECDFFCC10440000
(1763085228.695526) can0 000A0004#FFF3FFE9FFAC8E02
(1763085228.698317) can0 701#05
(1763085228.698559) can0 186#00004C1D010A0000
(1763085228.699053) can0 189#46029F0155010040
(1763085228.701365) can0 181#810100207F000009
(1763085228.701614) can0 482#0000000008140001
(1763085228.704704) can0 1A0#000000000100
(1763085228.705240) can0 000A0003#FECDFFCC10430000
(1763085228.705526) can0 000A0004#FFF3FFE8FFAC8E02
(1763085228.706250) can0 000A0000#0000000000000000
(1763085228.706550) can0 000A0001#0000000000000000
(1763085228.706848) can0 000A0002#0000000000000000
(1763085228.708454) can0 189#46029E0154010040
(1763085228.712208) can0 382#0000000000000000
(1763085228.713803) can0 4C4#04DE04D404BE04C6
(1763085228.714819) can0 4C5#04CA04CA04BE04BE
(1763085228.715063) can0 682#3E45240400000000
(1763085228.715351) can0 000A0003#FECEFFCA10420000
(1763085228.715637) can0 000A0004#FFF3FFE7FFAD8E02
(1763085228.715869) can0 4C6#04C304C304C304BF
(1763085228.716849) can0 4C7#04C604D604F904FA
(1763085228.717880) can0 4C8#04A0000000000000
(1763085228.718448) can0 189#45029D0154010040
(1763085228.720133) can0 701#05
(1763085228.725243) can0 000A0003#FECFFFC810400000
(1763085228.725531) can0 000A0004#FFF4FFE7FFAD8E02
(1763085228.725922) can0 482#0000000008140001
(1763085228.727749) can0 19A#00007C65907D7E82
(1763085228.728449) can0 189#46029F0155010040
(1763085228.728753) can0 29A#7D8F807E82880000
(1763085228.730890) can0 1A4#00007612000000
(1763085228.731118) can0 2A3#2A2626231A1B100D
(1763085228.734020) can0 382#0000000000000000
(1763085228.734275) can0 281#0000000000000000
(1763085228.735238) can0 000A0003#FED0FFC8103F0000
(1763085228.735527) can0 000A0004#FFF4FFE7FFAD8E02
(1763085228.738463) can0 186#00004C1D010B0000
(1763085228.739003) can0 189#46029D0155010040
(1763085228.739589) can0 181#810100207F000009
(1763085228.739812) can0 1A5#0000FF12000000
(1763085228.739916) can0 080#
(1763085228.741018) can0 286#6400900100000000
(1763085228.742195) can0 701#05
(1763085228.745239) can0 000A0003#FED2FFC7103F0000
(1763085228.745527) can0 000A0004#FFF4FFE7FFAD8E02
(1763085228.747076) can0 188#0C00083300000000
(1763085228.747710) can0 482#0000000008140001
(1763085228.747949) can0 288#6829FB2A00140000
(1763085228.748444) can0 189#45029E0154010040
(1763085228.748812) can0 388#2021212020000000
(1763085228.749768) can0 191#999999999999
(1763085228.750780) can0 192#999999999999
(1763085228.751786) can0 193#999999999999
(1763085228.752441) can0 1A2#00008313000000
(1763085228.752673) can0 2A1#191C1C1D1C1D1A0D
(1763085228.752866) can0 194#999999999999
(1763085228.753767) can0 195#999999999999
(1763085228.754798) can0 291#0F0F0F0F0F0F
(1763085228.755252) can0 000A0003#FED7FFC510400000
(1763085228.755529) can0 000A0004#FFF2FFE7FFAE8E02
(1763085228.755805) can0 292#0F0F0F0F100F
(1763085228.756049) can0 682#3E45250400000000
(1763085228.756303) can0 382#0000000000000000
(1763085228.756813) can0 293#0F0F0F0F0F0F
(1763085228.757777) can0 294#0F1010100F0F
(1763085228.758445) can0 189#45029C0153010040
(1763085228.758779) can0 295#100F0F101010
(1763085228.763825) can0 701#05
(1763085228.765245) can0 000A0003#FEDBFFC410410000
(1763085228.765531) can0 000A0004#FFF2FFE7FFAE8E02
(1763085228.768446) can0 189#46029F0156010040
(1763085228.769495) can0 482#0000000008140001
(1763085228.775244) can0 000A0003#FEDBFFC510440000
(1763085228.775528) can0 000A0004#FFF2FFE7FFAE8E02
(1763085228.777715) can0 382#0000000000000000
(1763085228.777997) can0 181#810100207F000009
(1763085228.778254) can0 281#0000000000000000
(1763085228.778496) can0 186#00004C1D010C0000
(1763085228.778980) can0 4C4#04DE04D404BE04C6
(1763085228.779236) can0 189#46029E0155010040
(1763085228.779994) can0 4C5#04CA04CA04BE04BE
(1763085228.781006) can0 4C6#04C304C304C304BF
(1763085228.782024) can0 4C7#04C604D604F904FA
(1763085228.783054) can0 4C8#04A0000000000000
(1763085228.785246) can0 000A0003#FEDCFFC610470000
(1763085228.785532) can0 000A0004#FFF2FFE7FFAE8E02
(1763085228.785647) can0 701#05
(1763085228.788446) can0 189#46029F0155010040
(1763085228.788692) can0 482#0000000008140001
(1763085228.795246) can0 000A0003#FEDAFFC810450000
(1763085228.795529) can0 000A0004#FFF1FFE7FFAD8E02
(1763085228.795754) can0 1A3#00006513000000
(1763085228.796905) can0 682#3E45240400000000
(1763085228.798440) can0 189#47029F0156010040
(1763085228.799534) can0 382#0000000000000000
(1763085228.804707) can0 1A0#000000000100
(1763085228.805247) can0 000A0003#FED8FFC910430000
(1763085228.805531) can0 000A0004#FFF2FFE6FFAE8E02
(1763085228.806258) can0 000A0000#0000000000000000
(1763085228.806556) can0 000A0001#0000000000000000
(1763085228.806854) can0 000A0002#0000000000000000
(1763085228.807483) can0 701#05
(1763085228.808439) can0 189#46029D0154010040
(1763085228.810431) can0 482#0000000008140001
(1763085228.815249) can0 000A0003#FED6FFCA10410000
(1763085228.815535) can0 000A0004#FFF3FFE6FFAE8E02
(1763085228.815924) can0 181#810100207F000009
(1763085228.818433) can0 186#00004C1D010D0000
(1763085228.819042) can0 189#46029F0157010040
(1763085228.821360) can0 281#0000000000000000
(1763085228.821613) can0 382#0000000000000000
(1763085228.825257) can0 000A0003#FED4FFCC103E0000
(1763085228.825545) can0 000A0004#FFF3FFE5FFAF8E02
(1763085228.828440) can0 189#47029F0155010040
(1763085228.829768) can0 482#0000000008140001
(1763085228.829888) can0 701#05
(1763085228.835255) can0 000A0003#FED2FFD0103B0000
(1763085228.835535) can0 000A0004#FFF2FFE4FFAF8E02
(1763085228.837801) can0 1A4#00007612000000
(1763085228.838027) can0 2A3#2B2726231A1B100D
(1763085228.838272) can0 682#3E45250400000000
(1763085228.838505) can0 189#46029F0156010040
(1763085228.838867) can0 080#
(1763085228.840021) can0 286#6400900100000000
(1763085228.841845) can0 1A5#0000FF12000000
(1763085228.843227) can0 382#0000000000000000
(1763085228.844161) can0 4C4#04DE04CE04C304C6
(1763085228.845177) can0 4C5#04C604C504C204BE
(1763085228.845463) can0 000A0003#FED1FFD2103A0000
(1763085228.845751) can0 000A0004#FFF2FFE5FFAF8E02
(1763085228.846195) can0 4C6#04BF04BF04BF04BA
(1763085228.847067) can0 188#0C00C83200000000
(1763085228.847301) can0 4C7#04C604D604F504FA
(1763085228.847790) can0 288#6829FB2A00140000
(1763085228.848238) can0 4C8#04A0000000000000
(1763085228.848471) can0 189#45029D0154010040
(1763085228.848801) can0 388#2021212020000000
(1763085228.849756) can0 191#999999999999
(1763085228.850767) can0 192#999999999999
(1763085228.851378) can0 482#0000000008140001
(1763085228.851498) can0 701#05
(1763085228.851789) can0 193#999999999999
(1763085228.852771) can0 194#999999999999
