(1763084561.199914) can0 4C7#0503050204ED04F6
(1763084561.197619) can0 4C8#04B5000000000000
(1763084561.197829) can0 181#D10300207F000009
(1763084561.198509) can0 189#5203670259010951
(1763084561.201778) can0 000A0003#004E001A0E3A0000
(1763084561.202051) can0 000A0004#FFD9FFDE00AB8E02
(1763084561.208512) can0 189#520369025C010951
(1763084561.208751) can0 382#C10468FF7E040000
(1763084561.211178) can0 701#05
(1763084561.211462) can0 281#520400000C000000
(1763084561.211756) can0 000A0003#003700390E0C0000
(1763084561.212040) can0 000A0004#FFDCFFE500AE8E02
(1763084561.212282) can0 482#5204090008360001
(1763084561.212494) can0 1A0#000000000000
(1763084561.212793) can0 000A0000#0000000000000000
(1763084561.213094) can0 000A0001#0000000000000000
(1763084561.213391) can0 000A0002#0000000000000000
(1763084561.218506) can0 189#520366025B010951
(1763084561.221762) can0 000A0003#002A006E0DFD0000
(1763084561.222046) can0 000A0004#FFDEFFEA00B08E02
(1763084561.227724) can0 682#3F47190400001401
(1763084561.228496) can0 186#600B4C1D090C0000
(1763084561.228821) can0 189#510364025B010951
(1763084561.230453) can0 382#C60494FF7E040000
(1763084561.231770) can0 000A0003#002C00990DFD0000
(1763084561.232055) can0 000A0004#FFE0FFF000B28E02
(1763084561.232794) can0 701#05
(1763084561.233154) can0 482#5004090008360001
(1763084561.235800) can0 181#D10300207F000009
(1763084561.238510) can0 189#500362025C010951
(1763084561.241763) can0 000A0003#001B00CF0E040000
(1763084561.242049) can0 000A0004#FFE3FFF500B48E02
(1763084561.248523) can0 189#500362025B010951
(1763084561.248653) can0 080#
(1763084561.249803) can0 286#0000900100000000
(1763084561.251763) can0 000A0003#FFE300F60E150000
(1763084561.252048) can0 000A0004#FFEAFFF700B58E02
(1763084561.252396) can0 382#9F047CFF68040000
(1763084561.252573) can0 701#05
(1763084561.252940) can0 482#4F04090008360001
(1763084561.257368) can0 188#0C00313300000000
(1763084561.257613) can0 281#520400000B000000
(1763084561.258131) can0 288#0029283E00140000
(1763084561.258505) can0 189#500362025A010951
(1763084561.258739) can0 4C4#04EE050004E904F3
(1763084561.259109) can0 388#1E1F1E1C1F000000
(1763084561.259749) can0 4C5#04FB04FE04F504E1
(1763084561.260045) can0 191#959596959695
(1763084561.260761) can0 4C6#04E904EE04F204EE
(1763084561.261055) can0 192#959595959595
(1763084561.261761) can0 000A0003#FFB301210E230000
(1763084561.262046) can0 000A0004#FFF1FFF500BA8E02
(1763084561.262236) can0 193#959596969595
(1763084561.262472) can0 4C7#0503050204ED04F6
(1763084561.262823) can0 4C8#04B5000000000000
(1763084561.263058) can0 194#959596969696
(1763084561.264064) can0 195#959596969696
(1763084561.265089) can0 291#0E0F0F0F0F0F
(1763084561.266091) can0 292#0E0F0F10100F
(1763084561.267107) can0 293#0E0F0F0F0F0F
(1763084561.268066) can0 294#0F0F0F0F0F0F
(1763084561.268492) can0 186#580B4C1D090D0000
(1763084561.268777) can0 682#3F47190400001301
(1763084561.269007) can0 189#5103620258010951
(1763084561.269217) can0 295#0E0F0F0F0F0E
(1763084561.271766) can0 000A0003#FF9B013E0E2B0000
(1763084561.272053) can0 000A0004#FFF0FFF000BC8E02
(1763084561.274098) can0 382#6504E4FF65040000
(1763084561.275589) can0 1A3#0016120A000000
(1763084561.276373) can0 701#05
(1763084561.276835) can0 181#D10300207F000009
(1763084561.277168) can0 482#5704090008360001
(1763084561.277456) can0 1A2#C010350C000000
(1763084561.277686) can0 2A1#1E1E1D1C1B1B1A1B
(1763084561.278504) can0 189#500367025A010951
(1763084561.281772) can0 000A0003#FF74015F0E470000
(1763084561.282058) can0 000A0004#FFEDFFE700BE8E02
(1763084561.288503) can0 189#55036E025C010A51
(1763084561.291773) can0 000A0003#FF48016F0E7F0000
(1763084561.292057) can0 000A0004#FFEAFFE200BE8E02
(1763084561.295489) can0 701#05
(1763084561.295924) can0 382#40045B0065040000
(1763084561.296438) can0 1A5#C00F240D000000
(1763084561.297054) can0 1A4#0018CD09000000
(1763084561.297278) can0 2A3#1517161615151514
(1763084561.298502) can0 189#5C036E025B010A51
(1763084561.298902) can0 482#5E04090008360001
(1763084561.301284) can0 281#5D0400000B000000
(1763084561.301772) can0 000A0003#FF2C01750EC00000
(1763084561.302055) can0 000A0004#FFF1FFDA00C38E02
(1763084561.308492) can0 186#2B0C4C1D090E0000
(1763084561.308814) can0 189#5F036F025B010A51
(1763084561.309815) can0 682#3F47190400001501
(1763084561.311768) can0 000A0003#FF2D01760EED0000
(1763084561.312054) can0 000A0004#FFF2FFD800C48E02
(1763084561.312310) can0 1A0#000000000000
(1763084561.312785) can0 000A0000#0000000000000000
(1763084561.313085) can0 000A0001#0000000000000000
(1763084561.313383) can0 000A0002#0000000000000000
(1763084561.315158) can0 181#D10300207F000009
(1763084561.317326) can0 701#05
(1763084561.317897) can0 382#9E045900B7040000
(1763084561.318499) can0 189#5D036E025A010A51
(1763084561.320529) can0 482#57040A0008360001
(1763084561.321771) can0 000A0003#FF2A01760F3D0000
(1763084561.322059) can0 000A0004#FFFEFFDC00C88E02
(1763084561.323979) can0 4C4#04F4050004E904F8
(1763084561.324989) can0 4C5#04FF04FE04F504E5
(1763084561.325996) can0 4C6#04E904F204EE04F3
(1763084561.327022) can0 4C7#04FF04FD04EE04F1
(1763084561.328044) can0 4C8#04B5000000000000
(1763084561.328500) can0 189#5B036A025A010A51
(1763084561.331776) can0 000A0003#FF2201760FA30000
(1763084561.332064) can0 000A0004#FFFFFFE000CA8E02
(1763084561.338499) can0 189#520366025C010951
(1763084561.339260) can0 701#05
(1763084561.339735) can0 382#BC041E00B7040000
(1763084561.340184) can0 482#5C040A0008360001
(1763084561.341776) can0 000A0003#FF1D01760FE70000
(1763084561.342062) can0 000A0004#0002FFE600CC8E02
(1763084561.344984) can0 281#560400000C000000
(1763084561.348518) can0 186#0C0B4C1D090F0000
(1763084561.348805) can0 189#4A0360025A010951
(1763084561.349669) can0 080#
(1763084561.350773) can0 682#3F47190400001901
(1763084561.351018) can0 286#0000900100000000
(1763084561.351774) can0 000A0003#FF140184104A0000
(1763084561.352063) can0 000A0004#0000FFE300CC8E02
(1763084561.353288) can0 181#D10300207F000009
(1763084561.355132) can0 19A#00007E6368808381
(1763084561.356132) can0 29A#8476818081850000
(1763084561.357375) can0 188#0C00D23200000000
(1763084561.358103) can0 288#0229283B00140000
(1763084561.358495) can0 189#46035C025B010951
(1763084561.358705) can0 701#05
(1763084561.359115) can0 388#1E1F1E1C1F000000
(1763084561.360071) can0 191#959596969695
(1763084561.361079) can0 192#959595959595
(1763084561.361345) can0 382#7E04EAFF48040000
(1763084561.361773) can0 000A0003#FF08019610920000
(1763084561.362061) can0 000A0004#0000FFEC00D18E02
(1763084561.362252) can0 193#959596969596
(1763084561.363065) can0 194#959696969696
(1763084561.364070) can0 195#959596969696
(1763084561.364310) can0 482#5404090008360001
(1763084561.365096) can0 291#0E0F0F0F0F0F
(1763084561.366102) can0 292#0E0F0F0F100F
(1763084561.367086) can0 293#0F0F0F0F0F0F
(1763084561.368076) can0 294#0E100F100F0F
(1763084561.368494) can0 189#420357025A010851
(1763084561.369090) can0 295#0E0E0F0F0F0E
(1763084561.371774) can0 000A0003#FEF701AF10AA0000
(1763084561.372064) can0 000A0004#FFFEFFF000D28E02
(1763084561.376592) can0 1A3#C0133E0A000000
(1763084561.378496) can0 189#410356025B010851
(1763084561.381782) can0 000A0003#FEEB01BF10C40000
(1763084561.382068) can0 000A0004#0001FFF500D38E02
(1763084561.382845) can0 701#05
(1763084561.383420) can0 382#1704170048040000
(1763084561.384956) can0 1A2#000E350C000000
(1763084561.385186) can0 2A1#1E1E1C1C1B1B1A1B
(1763084561.386127) can0 482#4B04090008360001
(1763084561.388486) can0 186#6C0A4C1D09000000
(1763084561.388728) can0 281#4E0400000B000000
(1763084561.388958) can0 189#4003550259010851
(1763084561.389198) can0 4C4#04F4050004E904F8
(1763084561.390214) can0 4C5#04FF04FE04F504E5
(1763084561.391223) can0 4C6#04E904F204EE04F3
(1763084561.391465) can0 181#D10300207F000009
(1763084561.391785) can0 000A0003#FEE301DB10FB0000
(1763084561.392073) can0 000A0004#0002FFFB00D38E02
(1763084561.392307) can0 4C7#04FF04FD04EE04F1
(1763084561.392552) can0 682#3F471A0400001801
(1763084561.393266) can0 4C8#04B5000000000000
(1763084561.398498) can0 189#410356025B010851
(1763084561.398718) can0 1A5#000F240D000000
(1763084561.401781) can0 000A0003#FEDA01FB113E0000
(1763084561.402065) can0 000A0004#0005000300D58E02
(1763084561.404097) can0 1A4#000ECD09000000
(1763084561.404320) can0 2A3#1517161615161514
(1763084561.404785) can0 701#05
(1763084561.405259) can0 382#0904C1FF0A040000
(1763084561.407849) can0 482#5704080008360001
(1763084561.408492) can0 189#410356025A010851
(1763084561.411781) can0 000A0003#FED30224119B0000
(1763084561.412068) can0 000A0004#0002000800D58E02
(1763084561.412310) can0 1A0#000000000000
(1763084561.412799) can0 000A0000#0000000000000000
(1763084561.413098) can0 000A0001#0000000000000000
(1763084561.413396) can0 000A0002#0000000000000000
(1763084561.418495) can0 189#3F0356025B010851
(1763084561.421776) can0 000A0003#FECF023E11C70000
(1763084561.422061) can0 000A0004#0004000A00D98E02
(1763084561.426507) can0 701#05
(1763084561.426873) can0 382#4204C6FF0A040000
(1763084561.427329) can0 482#5C04080008360001
(1763084561.428479) can0 186#530A4C1D09010000
(1763084561.428846) can0 189#3E03550258010851
(1763084561.431793) can0 000A0003#FEBA024311F30000
(1763084561.432077) can0 000A0004#FFFE000F00DB8E02
(1763084561.432319) can0 181#D10300207F000009
(1763084561.432635) can0 281#5C0400000A000000
(1763084561.432876) can0 682#3F471A0400001101
(1763084561.438496) can0 189#3E0356025A010851
(1763084561.441787) can0 000A0003#FEA0025012180000
(1763084561.442073) can0 000A0004#FFFD000F00DF8E02
(1763084561.445972) can0 701#05
(1763084561.446431) can0 382#0D04010000040000
(1763084561.448510) can0 189#3C0355025A010851
(1763084561.448668) can0 080#
(1763084561.449822) can0 286#0000900100000000
(1763084561.451783) can0 000A0003#FE86026212290000
(1763084561.452071) can0 000A0004#FFF7000A00DF8E02
(1763084561.452313) can0 482#5D04080008360001
(1763084561.454426) can0 4C4#04E8050004E904F8
(1763084561.455437) can0 4C5#04FF04FE04F104E5
(1763084561.456446) can0 4C6#04ED04F204F204F3
(1763084561.457326) can0 188#0C00DB3200000000
(1763084561.457560) can0 4C7#04FB04FD04E904E7
(1763084561.458092) can0 288#0229283B00140000
(1763084561.458492) can0 4C8#04B5000000000000
(1763084561.458726) can0 189#3D03550259010851
(1763084561.459104) can0 388#1E1F1E1C1F000000
(1763084561.460078) can0 191#959596969695
(1763084561.461086) can0 192#959595959595
(1763084561.461784) can0 000A0003#FE60027D12420000
(1763084561.462070) can0 000A0004#FFEF000800E68E02
(1763084561.462261) can0 193#959596969596
(1763084561.463072) can0 194#959696969696
(1763084561.464078) can0 195#959596969696
(1763084561.465107) can0 291#0E0F0F0F0F0F
(1763084561.466078) can0 292#0E0F0F0F100F
(1763084561.467094) can0 293#0F0F0F0F0F0F
(1763084561.467546) can0 701#05
(1763084561.467909) can0 382#210484FF00040000
(1763084561.468109) can0 294#0E100F100F0F
(1763084561.468476) can0 186#450A4C1D09020000
(1763084561.468820) can0 189#3903560258010851
(1763084561.469098) can0 295#0E0E0F0F0F0E
(1763084561.471782) can0 000A0003#FE34028712510000
(1763084561.472066) can0 000A0004#FFE7FFFF00EA8E02
(1763084561.473259) can0 181#D10300207F000009
(1763084561.473596) can0 482#5E04080008360001
(1763084561.473846) can0 682#3F471A0400000D01
(1763084561.477586) can0 1A3#80133E0A000000
(1763084561.478486) can0 189#3B035C025A010851
(1763084561.478733) can0 281#5E0400000A000000
(1763084561.481794) can0 000A0003#FE0A028D12700000
(1763084561.482077) can0 000A0004#FFEAFFFD00F48E02
(1763084561.488487) can0 189#3B035E025C010851
(1763084561.489638) can0 382#0B048EFFFB030000
(1763084561.489759) can0 701#05
(1763084561.491786) can0 000A0003#FDEF028C12970000
(1763084561.492072) can0 000A0004#FFEEFFFC00F98E02
(1763084561.492457) can0 1A2#0018350C000000
(1763084561.492685) can0 2A1#1E1E1C1C1B1B1B1B
(1763084561.495200) can0 482#5E04080008360001
(1763084561.498488) can0 189#3B035E025C010951
(1763084561.500675) can0 1A5#00184B0D000000
(1763084561.501784) can0 000A0003#FDC7028A12D10000
(1763084561.502070) can0 000A0004#FFF6000601058E02
(1763084561.508475) can0 186#860A4C1D09030000
(1763084561.508826) can0 189#3A035D025A010851
(1763084561.511153) can0 1A4#0016A609000000
(1763084561.511380) can0 2A3#1416161615161514
(1763084561.511622) can0 181#D10300207F000009
(1763084561.511906) can0 000A0003#FDBA02B212E00000
(1763084561.512194) can0 000A0004#FFF70011010F8E02
(1763084561.512407) can0 1A0#000000000000
(1763084561.512523) can0 701#05
(1763084561.512823) can0 000A0000#0000000000000000
(1763084561.513123) can0 000A0001#0000000000000000
(1763084561.513420) can0 000A0002#0000000000000000
(1763084561.513661) can0 382#EE032700FB030000
(1763084561.514532) can0 682#3F471A0400000801
(1763084561.516837) can0 482#5B04080008360001
(1763084561.518483) can0 189#390359025A010851
(1763084561.519656) can0 4C4#04F4050504E904FC
(1763084561.520667) can0 4C5#04FB04FE04F104E5
(1763084561.521680) can0 4C6#04ED04F204F204F3
(1763084561.521965) can0 000A0003#FD9F02E113000000
(1763084561.522251) can0 000A0004#FFF5001E011A8E02
(1763084561.522642) can0 281#5E0400000B000000
(1763084561.522877) can0 4C7#04FF04F904E904F6
(1763084561.523724) can0 4C8#04B5000000000000
(1763084561.528484) can0 189#350357025A010851
(1763084561.531793) can0 000A0003#FD7B030813290000
(1763084561.532078) can0 000A0004#FFF0002501208E02
(1763084561.532961) can0 701#05
(1763084561.533423) can0 382#F2033E0014040000
(1763084561.538485) can0 189#310354025B010851
(1763084561.538902) can0 482#5704080008360001
(1763084561.541790) can0 000A0003#FD47034213660000
(1763084561.542074) can0 000A0004#FFEE002E012A8E02
(1763084561.544127) can0 19A#00007E6A7B81857E
(1763084561.545132) can0 29A#7F6E838383830000
(1763084561.548499) can0 186#C0094C1D09040000
(1763084561.548822) can0 189#2E03510259010851
(1763084561.549622) can0 080#
(1763084561.550023) can0 181#D10300207F000009
(1763084561.550807) can0 286#0000900100000000
(1763084561.551788) can0 000A0003#FD4A034D13980000
(1763084561.552071) can0 000A0004#FFE9003301348E02
(1763084561.555136) can0 382#C003C401C7030000
(1763084561.555255) can0 701#05
(1763084561.555704) can0 682#3F471B0400000501
(1763084561.557362) can0 188#0C003E3300000000
(1763084561.558116) can0 288#0B29593A00140000
(1763084561.558482) can0 189#3003520259010851
(1763084561.559129) can0 388#1E1F1E1C1F000000
(1763084561.560070) can0 191#969696969695
(1763084561.560733) can0 482#5A04080008360001
(1763084561.561047) can0 192#969696969695
(1763084561.561787) can0 000A0003#FD4C035513B90000
(1763084561.562074) can0 000A0004#FFF00036013B8E02
(1763084561.562268) can0 193#969696969696
(1763084561.563079) can0 194#969696969696
(1763084561.564083) can0 195#969696969696
(1763084561.565081) can0 291#0E0F0F0F0F0F
(1763084561.566085) can0 292#0E0F0F10100F
(1763084561.566331) can0 281#570400000A000000
(1763084561.567097) can0 293#0E0F0F0F0F0F
(1763084561.568095) can0 294#0E0F0F100F0F
(1763084561.568480) can0 189#2F0351025B010851
(1763084561.569106) can0 295#0E0E0F0F0F0E
(1763084561.571800) can0 000A0003#FD4D037513A20000
(1763084561.572082) can0 000A0004#FFF1003A01428E02
(1763084561.576728) can0 701#05
(1763084561.577209) can0 382#C2039B00C7030000
(1763084561.578479) can0 189#300351025A010851
(1763084561.578709) can0 1A3#C00F3E0A000000
(1763084561.581798) can0 000A0003#FD4F0393138C0000
(1763084561.582082) can0 000A0004#FFF2003C014C8E02
(1763084561.582354) can0 482#5A04080008360001
(1763084561.584870) can0 4C4#04F5050604EA04FD
(1763084561.585879) can0 4C5#04FC04FF04F204E6
(1763084561.586890) can0 4C6#04EE04F304F304F4
(1763084561.587910) can0 4C7#050004FA04EA04F7
(1763084561.588152) can0 181#D10300207F000009
(1763084561.588497) can0 186#BF094C1D09050000
(1763084561.588799) can0 189#2E03500259010851
(1763084561.589044) can0 4C8#04B6000000000000
(1763084561.591798) can0 000A0003#FD6D03D213440000
(1763084561.592085) can0 000A0004#FFED0035014F8E02
(1763084561.596315) can0 682#3F471B040000FD00
(1763084561.598477) can0 189#2F0352025B010851
(1763084561.598593) can0 701#05
(1763084561.598942) can0 382#D403D500C7030000
(1763084561.599948) can0 1A2#C013C20C000000
(1763084561.600173) can0 2A1#1E1E1D1C1B1B1B1B
(1763084561.601802) can0 000A0003#FD8103FA13170000
(1763084561.602086) can0 000A0004#FFED003501548E02
(1763084561.602330) can0 482#6004080008360001
(1763084561.602794) can0 1A5#C0110E0E000000
(1763084561.608481) can0 189#2E0350025B010851
(1763084561.609969) can0 281#680400000A000000
(1763084561.611816) can0 000A0003#FD9D041C12C20000
(1763084561.612090) can0 000A0004#FFE8003101598E02
(1763084561.612317) can0 1A0#000000000000
(1763084561.612820) can0 000A0000#0000000000000000
(1763084561.613120) can0 000A0001#0000000000000000
(1763084561.613417) can0 000A0002#0000000000000000
(1763084561.618213) can0 1A4#C011A109000000
(1763084561.618437) can0 2A3#1416161616161514
(1763084561.618671) can0 189#2F0351025A010851
(1763084561.620647) can0 382#AF032E00C7030000
(1763084561.620767) can0 701#05
(1763084561.621795) can0 000A0003#FDB8043D12710000
(1763084561.622083) can0 000A0004#FFEF002E01608E02
(1763084561.626120) can0 181#D10300207F000009
(1763084561.626456) can0 482#6A04080008360001
(1763084561.628469) can0 186#AE094C1D09060000
(1763084561.628826) can0 189#2F034F025A010851
(1763084561.631817) can0 000A0003#FDE5045812140000
(1763084561.632099) can0 000A0004#FFF0002201678E02
(1763084561.637257) can0 682#3F471A040000F900
(1763084561.638476) can0 189#2D0350025B010851
(1763084561.641801) can0 000A0003#FE02046911D90000
(1763084561.642087) can0 000A0004#FFEE001D01708E02
(1763084561.642245) can0 701#05
(1763084561.642730) can0 382#B8031300C0030000
(1763084561.647948) can0 482#5F04080008360001
(1763084561.648488) can0 189#31034F025A010851
(1763084561.648686) can0 080#
(1763084561.649806) can0 286#0000900100000000
(1763084561.650082) can0 4C4#04E9050104E504F9
(1763084561.651096) can0 4C5#050004FB04EE04E6
(1763084561.651798) can0 000A0003#FE1E045811B90000
(1763084561.652082) can0 000A0004#FFE2001601748E02
(1763084561.652312) can0 4C6#04EA04F304F304EF
(1763084561.653120) can0 4C7#04F704F504E504ED
(1763084561.654150) can0 4C8#04B6000000000000
(1763084561.656267) can0 281#600400000A000000
(1763084561.657367) can0 188#0C00473300000000
(1763084561.658123) can0 288#1229113900140000
(1763084561.658469) can0 189#2F0351025B010851
(1763084561.659133) can0 388#1E1F1E1C1F000000
(1763084561.660061) can0 191#969696969696
(1763084561.661071) can0 192#969696969696
(1763084561.661805) can0 000A0003#FE330448119A0000
(1763084561.662099) can0 000A0004#FFE30013017E8E02
(1763084561.662285) can0 193#969696969696
(1763084561.663085) can0 194#969696969696
(1763084561.664061) can0 195#969696969696
(1763084561.664176) can0 701#05
(1763084561.664466) can0 382#9C039600C0030000
(1763084561.664803) can0 181#D10300207F000009
(1763084561.665087) can0 291#0E0F0F0F0F0F
(1763084561.666091) can0 292#0E0F0F10100F
(1763084561.667107) can0 293#0F0F0F0F0F0F
(1763084561.668111) can0 294#0E0F0F0F0F0F
(1763084561.668469) can0 186#D4094C1D09070000
(1763084561.668823) can0 189#3003520258010851
(1763084561.669083) can0 295#0E0F0F0F0F0E
(1763084561.670140) can0 482#6104080008360001
(1763084561.671807) can0 000A0003#FE51042B11690000
(1763084561.672092) can0 000A0004#FFE4001001838E02
(1763084561.678207) can0 682#3F471A040000F800
(1763084561.678486) can0 189#320355025B010851
(1763084561.679568) can0 1A3#800F120A000000
(1763084561.681808) can0 000A0003#FE7B040111220000
(1763084561.682092) can0 000A0004#FFEA000D018D8E02
(1763084561.686160) can0 382#D603C0FFCF030000
(1763084561.686279) can0 701#05
(1763084561.688469) can0 189#3103550259010851
(1763084561.691654) can0 482#6A04080008360001
(1763084561.691939) can0 000A0003#FE9B03CC110B0000
(1763084561.692223) can0 000A0004#FFE6000C01918E02
(1763084561.698466) can0 189#310353025C010851
(1763084561.699822) can0 281#630400000A000000
(1763084561.701807) can0 000A0003#FEB6039A10F40000
(1763084561.702095) can0 000A0004#FFE0000D019A8E02
(1763084561.704916) can0 1A5#C00F0E0E000000
(1763084561.705401) can0 181#D10300207F000009
(1763084561.707428) can0 1A2#C013AF0C000000
(1763084561.707659) can0 2A1#1E1E1D1C1C1B1B1B
(1763084561.708012) can0 701#05
(1763084561.708456) can0 186#B6094C1D09080000
(1763084561.708842) can0 189#2F034F0259010851
(1763084561.710839) can0 382#E8038B00CF030000
(1763084561.711804) can0 000A0003#FEBA037310EE0000
(1763084561.712087) can0 000A0004#FFDD000C019E8E02
(1763084561.712317) can0 1A0#000000000000
(1763084561.712823) can0 000A0000#0000000000000000
(1763084561.713123) can0 000A0001#0000000000000000
(1763084561.713421) can0 000A0002#0000000000000000
(1763084561.713665) can0 482#6004080008360001
(1763084561.715302) can0 4C4#04E9050104E504F9
(1763084561.716312) can0 4C5#050004FB04EE04E6
(1763084561.717324) can0 4C6#04EA04F304F304EF
(1763084561.718332) can0 4C7#04F704F504E504ED
(1763084561.718566) can0 189#30034E0258010851
(1763084561.719170) can0 682#3F471A040000FA00
(1763084561.719413) can0 4C8#04B6000000000000
(1763084561.721811) can0 000A0003#FEBF033B10E60000
(1763084561.722095) can0 000A0004#FFDB000701A68E02
(1763084561.725260) can0 1A4#000CA109000000
(1763084561.725485) can0 2A3#1417171616161514
(1763084561.728464) can0 189#31034F025A010851
(1763084561.729515) can0 701#05
(1763084561.729971) can0 382#E503DAFFC3030000
(1763084561.731806) can0 000A0003#FEC502F510E30000
(1763084561.732089) can0 000A0004#FFDA000701A98E02
(1763084561.735426) can0 482#5D04080008360001
(1763084561.738465) can0 189#31034D025A010851
(1763084561.741816) can0 000A0003#FECA02A910E00000
(1763084561.742101) can0 000A0004#FFE5000301AF8E02
(1763084561.743517) can0 181#D10300207F000009
(1763084561.743817) can0 281#620400000A000000
(1763084561.748474) can0 186#A5094C1D09090000
(1763084561.748807) can0 189#31034D025A010851
(1763084561.749191) can0 701#05
(1763084561.749683) can0 080#
(1763084561.750131) can0 19A#00007D686A7F7E7E
(1763084561.750831) can0 286#0000900100000000
(1763084561.751132) can0 29A#8269838182840000
(1763084561.751815) can0 000A0003#FEE8028710CC0000
(1763084561.752092) can0 000A0004#FFEB000401B18E02
(1763084561.752327) can0 382#DD037300BD030000
(1763084561.757242) can0 482#6304080008360001
(1763084561.757484) can0 188#0C00113300000000
(1763084561.758130) can0 288#1229113A00140000
(1763084561.758464) can0 189#30034B0259010851
(1763084561.759112) can0 388#1E1F1E1C1F000000
(1763084561.760049) can0 191#969696969696
(1763084561.761060) can0 192#969696969696
(1763084561.761816) can0 000A0003#FF14025610B00000
(1763084561.762100) can0 000A0004#FFF2FFFD01B48E02
(1763084561.762292) can0 193#969696969696
(1763084561.762699) can0 682#3F471A040000FA00
(1763084561.763059) can0 194#969696969696
(1763084561.764063) can0 195#969696969696
(1763084561.765093) can0 291#0E0F0F0F0F0F
(1763084561.766095) can0 292#0E0F0F10100F
(1763084561.767112) can0 293#0F0F0F0F0F0F
(1763084561.768067) can0 294#0E0F0F0F0F0F
(1763084561.768457) can0 189#2F03490259010851
(1763084561.769071) can0 295#0E0F0F0F0F0E
(1763084561.770457) can0 701#05
(1763084561.770911) can0 382#AA03C5FFBD030000
(1763084561.771816) can0 000A0003#FF25024C10A40000
(1763084561.772099) can0 000A0004#FFF2FFFB01B58E02
(1763084561.778461) can0 189#2E0349025B010851
(1763084561.778890) can0 482#6704080008360001
(1763084561.780507) can0 4C4#04E9050104EA04F4
(1763084561.780735) can0 1A3#C00F3E0A000000
(1763084561.781517) can0 4C5#050004FF04EE04EA
(1763084561.781760) can0 181#D10300207F000009
(1763084561.782042) can0 000A0003#FF290252109D0000
(1763084561.782325) can0 000A0004#FFF1FFFA01B98E02
(1763084561.782556) can0 4C6#04EE04EA04EF04F4
(1763084561.783552) can0 4C7#04FB04FA04EA04F2
(1763084561.784574) can0 4C8#04B6000000000000
(1763084561.787270) can0 281#6B0400000A000000
(1763084561.788448) can0 186#5E094C1D090A0000
(1763084561.788834) can0 189#2D0347025A010851
(1763084561.791817) can0 000A0003#FF14025010CB0000
(1763084561.792100) can0 000A0004#FFEEFFF201BD8E02
(1763084561.792621) can0 382#C0034C00A2030000
(1763084561.792740) can0 701#05
(1763084561.798196) can0 482#6F04070008360001
(1763084561.798477) can0 189#300348025B010851
(1763084561.801817) can0 000A0003#FEF3024811130000
(1763084561.802103) can0 000A0004#FFF0FFEA01BF8E02
(1763084561.803556) can0 682#3F471B040000F900
(1763084561.807030) can0 1A5#000CE70D000000
(1763084561.808459) can0 189#30034A025B010851
(1763084561.811819) can0 000A0003#FED5024911460000
(1763084561.812099) can0 000A0004#FFF4FFE601C48E02
(1763084561.812317) can0 1A0#000000000000
(1763084561.812825) can0 000A0000#0000000000000000
(1763084561.813125) can0 000A0001#0000000000000000
(1763084561.813422) can0 000A0002#0000000000000000
(1763084561.814450) can0 701#05
(1763084561.814928) can0 1A2#0018350C000000
(1763084561.815162) can0 2A1#1E1D1D1C1C1B1B1B
(1763084561.817197) can0 382#CC035400A2030000
(1763084561.818460) can0 189#30034F0259010851
(1763084561.819922) can0 482#6E04070008360001
(1763084561.820281) can0 181#D10300207F000009
(1763084561.821809) can0 000A0003#FEC2024C11680000
(1763084561.822095) can0 000A0004#FFF0FFE001C88E02
(1763084561.828445) can0 186#E1094C1D090B0000
(1763084561.828841) can0 189#310353025A010851
(1763084561.830954) can0 281#6904000009000000
(1763084561.831814) can0 000A0003#FEB9025B11610000
(1763084561.832096) can0 000A0004#FFE9FFDD01CD8E02
(1763084561.832316) can0 1A4#000EA109000000
(1763084561.832544) can0 2A3#1417171716161514
(1763084561.835966) can0 701#05
(1763084561.838452) can0 189#310355025A010851
(1763084561.839244) can0 382#E7030F00D4030000
(1763084561.841820) can0 000A0003#FEBB026F11410000
(1763084561.842105) can0 000A0004#FFDAFFCE01D28E02
(1763084561.842347) can0 482#6E04080008360001
(1763084561.844488) can0 682#3F471B040000F500
(1763084561.845720) can0 4C4#04EF050104EA04F4
(1763084561.846734) can0 4C5#050004FF04F204F2
(1763084561.847749) can0 4C6#04EA04EF04F304F4
(1763084561.848469) can0 189#310355025A010851
(1763084561.848766) can0 4C7#050004FA04EF04F7
(1763084561.848867) can0 080#
(1763084561.849789) can0 4C8#04B6000000000000
(1763084561.850033) can0 286#0000900100000000
(1763084561.851822) can0 000A0003#FEC6027E113B0000
(1763084561.852105) can0 000A0004#FFD7FFCA01D78E02
(1763084561.857365) can0 188#0C00DB3200000000
(1763084561.857888) can0 701#05
(1763084561.858127) can0 288#0E29593200140000
(1763084561.858368) can0 181#D10300207F000009
(1763084561.858602) can0 189#2F0355025A010851
(1763084561.859117) can0 388#1E1F1E1C1F000000
(1763084561.860078) can0 191#969696969695
(1763084561.860871) can0 482#6B04080008360001
(1763084561.861085) can0 192#969696969696
(1763084561.861330) can0 382#C603E0FFD4030000
(1763084561.861821) can0 000A0003#FED0028711400000
(1763084561.862105) can0 000A0004#FFD3FFC801D88E02
(1763084561.862298) can0 193#969696969696
(1763084561.863067) can0 194#969696969696
(1763084561.864073) can0 195#969696969696
(1763084561.865100) can0 291#0E0F0F0F0F0F
(1763084561.866098) can0 292#0E0F100F100F
(1763084561.867086) can0 293#0E0F0F0F0F0F
(1763084561.868095) can0 294#0E0F0F0F0F0F
(1763084561.868448) can0 186#C6094C1D090C0000
(1763084561.868802) can0 189#2E03510258010851
(1763084561.869096) can0 295#0E0F0F0F0F0E
(1763084561.871824) can0 000A0003#FEDF02A511480000
(1763084561.872106) can0 000A0004#FFCFFFC801DE8E02
(1763084561.874519) can0 281#6C0400000A000000
(1763084561.878451) can0 189#31034D025C010851
(1763084561.879742) can0 701#05
(1763084561.881517) can0 1A3#000E120A000000
(1763084561.881812) can0 000A0003#FEEE02CA114F0000
(1763084561.882101) can0 000A0004#FFCCFFC901E08E02
(1763084561.885422) can0 482#6304080008360001
(1763084561.885661) can0 682#3F471B040000F700
(1763084561.886116) can0 382#F803D7FFCA030000
(1763084561.888451) can0 189#290346025A010751
(1763084561.891827) can0 000A0003#FEF402E411540000
(1763084561.892108) can0 000A0004#FFD0FFCA01E48E02
(1763084561.896353) can0 181#D10300207F000009
(1763084561.898454) can0 189#1D0340025B010751
(1763084561.901474) can0 701#05
(1763084561.901826) can0 000A0003#FEF8030C115E0000
(1763084561.902110) can0 000A0004#FFD0FFCD01E58E02
(1763084561.907256) can0 382#B7030F00CA030000
(1763084561.907627) can0 482#6604080008360001
(1763084561.908437) can0 186#0A084C1D090D0000
(1763084561.908827) can0 189#120337025A010651
(1763084561.909168) can0 1A5#000C0E0E000000
(1763084561.910933) can0 4C4#04F5050604EF04F9
(1763084561.911822) can0 000A0003#FEEF032F11620000
(1763084561.912108) can0 000A0004#FFD2FFD301E78E02
(1763084561.912320) can0 1A0#000000000000
(1763084561.912558) can0 4C5#050004FF04F204F2
(1763084561.912856) can0 000A0000#0000000000000000
(1763084561.913156) can0 000A0001#0000000000000000
(1763084561.913454) can0 000A0002#0000000000000000
(1763084561.913687) can0 4C6#04EA04EF04F304F4
(1763084561.913994) can0 4C7#050004FA04EF04F7
(1763084561.915021) can0 4C8#04B6000000000000
(1763084561.918295) can0 281#6404000008000000
(1763084561.918532) can0 189#09032F025A010651
(1763084561.921822) can0 000A0003#FEDF034F11640000
(1763084561.922106) can0 000A0004#FFD0FFD701E78E02
(1763084561.922443) can0 1A2#0016D10C000000
(1763084561.922673) can0 2A1#1E1D1D1C1B1A1A1B
(1763084561.923412) can0 701#05
(1763084561.928451) can0 189#000329025A010551
(1763084561.929221) can0 482#6204060008360001
(1763084561.929552) can0 682#3F471B040000F200
(1763084561.929796) can0 382#50034F001D030000
(1763084561.931836) can0 000A0003#FEDC035811600000
(1763084561.932119) can0 000A0004#FFCDFFDA01E78E02
(1763084561.937421) can0 181#D10300207F000009
(1763084561.938444) can0 189#F70221025A010551
(1763084561.939371) can0 1A4#C011A109000000
(1763084561.939596) can0 2A3#1517171716161515
(1763084561.941828) can0 000A0003#FEE1035611540000
(1763084561.942110) can0 000A0004#FFCBFFDE01E68E02
(1763084561.945244) can0 701#05
(1763084561.948219) can0 482#5C04060008360001
(1763084561.948467) can0 186#27064C1D090E0000
(1763084561.948704) can0 382#2C03A6FF1D030000
(1763084561.948938) can0 189#F0021E025A010551
(1763084561.949684) can0 080#
(1763084561.950806) can0 286#0000900100000000
(1763084561.951832) can0 000A0003#FEEB033C11140000
(1763084561.952117) can0 000A0004#FFCFFFE401E98E02
(1763084561.956115) can0 19A#00007F67727E837C
(1763084561.957117) can0 29A#816C848282850000
(1763084561.958440) can0 189#EF021B0259010551
(1763084561.961830) can0 000A0003#FEFB031910BD0000
(1763084561.962112) can0 000A0004#FFD6FFEA01E88E02
(1763084561.962360) can0 281#6004000006000000
(1763084561.966396) can0 188#0C00DF3200000000
(1763084561.967101) can0 288#0E29602400140000
(1763084561.967215) can0 701#05
(1763084561.968118) can0 388#1F1F1E1C1F000000
(1763084561.968453) can0 189#EE021D025A010551
(1763084561.969084) can0 191#969696969695
(1763084561.970064) can0 192#969696969696
(1763084561.970306) can0 482#6204050008360001
(1763084561.970638) can0 682#3F471D040000E300
(1763084561.970960) can0 382#77020A0062020000
(1763084561.971154) can0 193#969696969696
(1763084561.971834) can0 000A0003#FEFD02FF10800000
(1763084561.972116) can0 000A0004#FFDEFFE701E88E02
(1763084561.972308) can0 194#969696969696
(1763084561.973082) can0 195#969696969696
(1763084561.974112) can0 291#0E0F0F0F0F0F
(1763084561.975080) can0 292#0E0F100F100F
(1763084561.975617) can0 181#D10300207F000009
(1763084561.976093) can0 293#0E0F0F0F0F0F
(1763084561.976329) can0 4C4#04E8050004E904F3
(1763084561.977103) can0 294#0E0F0F0F0F0F
(1763084561.977339) can0 4C5#04FF04FA04F504E1
(1763084561.978106) can0 295#0E0F0F0F0F0E
(1763084561.978337) can0 4C6#04E904E104F204F3
(1763084561.978572) can0 189#EE021F0258010551
(1763084561.979204) can0 4C7#04FF04FD04E904EC
(1763084561.980228) can0 4C8#04B5000000000000
(1763084561.981832) can0 000A0003#FEF302D4101F0000
(1763084561.982114) can0 000A0004#FFEAFFE601E88E02
(1763084561.982482) can0 1A3#0018120A000000
(1763084561.988428) can0 186#51064C1D090F0000
(1763084561.988846) can0 189#EF0226025A010551
(1763084561.989040) can0 701#05
(1763084561.991835) can0 000A0003#FEF202B30FE80000
(1763084561.992117) can0 000A0004#FFEEFFDE01EB8E02
(1763084561.992361) can0 382#B002320073020000
(1763084561.992668) can0 482#6D04050008360001
(1763084561.998442) can0 189#F20229025B010551
(1763084562.001837) can0 000A0003#FF0102960FC70000
(1763084562.002121) can0 000A0004#FFE9FFD701EA8E02
(1763084562.005447) can0 281#7604000006000000
(1763084562.008167) can0 701#05
(1763084562.008453) can0 189#F6022C025C010551
(1763084562.011102) can0 682#3F471E040000D300
(1763084562.011324) can0 1A5#C00F5C0E000000
(1763084562.011834) can0 000A0003#FF0302890FBA0000
(1763084562.012119) can0 000A0004#FFE9FFD301ED8E02
(1763084562.012333) can0 1A0#000000000000
(1763084562.012848) can0 000A0000#0000000000000000
(1763084562.013148) can0 000A0001#0000000000000000
(1763084562.013446) can0 000A0002#0000000000000000
(1763084562.013724) can0 181#D10300207F000009
(1763084562.014053) can0 482#7204050008360001
(1763084562.014397) can0 382#5702010073020000
(1763084562.018443) can0 189#F8022D0259010551
(1763084562.021842) can0 000A0003#FEFA027D0FB50000
(1763084562.022123) can0 000A0004#FFE2FFD101ED8E02
(1763084562.028431) can0 186#EE064C1D09000000
(1763084562.028826) can0 189#FA022D025A010551
(1763084562.029955) can0 1A2#000FD10C000000
(1763084562.030181) can0 2A1#1E1D1D1C1B1A1A1B
(1763084562.030297) can0 701#05
(1763084562.031842) can0 000A0003#FEED025E0FBE0000
(1763084562.032128) can0 000A0004#FFE2FFD401EC8E02
(1763084562.035567) can0 482#6E04050008360001
(1763084562.035902) can0 382#B8024700B0020000
(1763084562.038438) can0 189#FA022F025A010551
(1763084562.041383) can0 4C4#04E8050004E904F3
(1763084562.041838) can0 000A0003#FEDF02430FC90000
(1763084562.042126) can0 000A0004#FFE4FFD901ED8E02
(1763084562.042396) can0 4C5#04FF04FA04F504E1
(1763084562.043409) can0 4C6#04E904E104F204F3
(1763084562.044422) can0 4C7#04FF04FD04E904EC
(1763084562.045451) can0 4C8#04B5000000000000
(1763084562.046427) can0 1A4#000E7A09000000
(1763084562.046655) can0 2A3#1517171616161515
(1763084562.048458) can0 189#F9022D025A010551
(1763084562.048685) can0 080#
(1763084562.049226) can0 281#6504000007000000
(1763084562.049414) can0 701#05
(1763084562.049836) can0 286#0000900100000000
(1763084562.051845) can0 000A0003#FECE02280FE10000
(1763084562.052129) can0 000A0004#FFE2FFDF01ED8E02
(1763084562.054663) can0 181#D10300207F000009
(1763084562.055020) can0 682#3F471E040000C900
(1763084562.057358) can0 188#0C001A3300000000
(1763084562.058120) can0 288#2C29FE3400140000
(1763084562.058459) can0 189#FA022C025A010551
(1763084562.059139) can0 388#1F1F1E1C1F000000
(1763084562.060088) can0 191#979797979796
(1763084562.060328) can0 482#6704050008360001
(1763084562.060574) can0 382#C4021800B0020000
(1763084562.061067) can0 192#979797979797
(1763084562.061839) can0 000A0003#FEC40223100A0000
(1763084562.062127) can0 000A0004#FFE7FFE101F18E02
(1763084562.062322) can0 193#979797979797
(1763084562.063086) can0 194#979797979797
(1763084562.064085) can0 195#979797979797
(1763084562.065083) can0 291#0E0F0F0F0F0F
(1763084562.066090) can0 292#0E0F0F0F100F
(1763084562.067100) can0 293#0E0F0F0F0F0F
(1763084562.068104) can0 294#0E0F0F0F0F0F
(1763084562.068460) can0 186#E6064C1D09010000
(1763084562.068822) can0 189#F8022C0258010551
(1763084562.069106) can0 295#0E0F0F0F0F0E
(1763084562.071843) can0 000A0003#FEBF021C10430000
(1763084562.072132) can0 000A0004#FFE0FFE301F08E02
(1763084562.073449) can0 701#05
(1763084562.078434) can0 189#FA022D025A010551
(1763084562.081838) can0 000A0003#FEC20212106E0000
(1763084562.082124) can0 000A0004#FFDFFFE401F18E02
(1763084562.082366) can0 382#69024000AC020000
(1763084562.082631) can0 482#6404050008360001
(1763084562.083468) can0 1A3#C00FD709000000
(1763084562.088434) can0 189#FF022D0259010651
(1763084562.091843) can0 000A0003#FECC0207109B0000
(1763084562.092129) can0 000A0004#FFDAFFE101F18E02
(1763084562.093026) can0 181#D10300207F000009
(1763084562.093326) can0 281#6404000007000000
(1763084562.095286) can0 701#05
(1763084562.095835) can0 682#3F471D040000C300
(1763084562.098438) can0 189#01032C025A010651
(1763084562.101843) can0 000A0003#FEDE020110A50000
(1763084562.102131) can0 000A0004#FFD9FFDE01F78E02
(1763084562.103829) can0 482#6204050008360001
(1763084562.104169) can0 382#9002E8FFAC020000
(1763084562.106615) can0 4C4#04F4050504EE04F8
(1763084562.107632) can0 4C5#04FF04FA04F104E9
(1763084562.108421) can0 186#1F074C1D09020000
(1763084562.108651) can0 4C6#04E504F204F204F7
(1763084562.108885) can0 189#01032C0259010651
(1763084562.109659) can0 4C7#04FF04F904E904F1
(1763084562.110683) can0 4C8#04B5000000000000
(1763084562.111842) can0 000A0003#FEE90207108A0000
(1763084562.112129) can0 000A0004#FFD9FFDA01F38E02
(1763084562.112343) can0 1A0#000000000000
(1763084562.112856) can0 000A0000#0000000000000000
(1763084562.113155) can0 000A0001#0000000000000000
(1763084562.113453) can0 000A0002#0000000000000000
(1763084562.113677) can0 1A5#C013130E000000
(1763084562.117205) can0 701#05
(1763084562.118430) can0 189#03032A025A010651
(1763084562.121839) can0 000A0003#FEE90219106D0000
(1763084562.122132) can0 000A0004#FFE0FFD801F48E02
(1763084562.122895) can0 382#96027A00C3020000
(1763084562.123267) can0 482#6004060008360001
(1763084562.128431) can0 189#020328025A010551
(1763084562.131120) can0 181#D10300207F000009
(1763084562.131845) can0 000A0003#FEF00232103A0000
(1763084562.132133) can0 000A0004#FFE2FFDB01F28E02
(1763084562.136471) can0 281#6404000007000000
(1763084562.136894) can0 682#3F471D040000C200
(1763084562.137013) can0 701#05
(1763084562.137463) can0 1A2#C011CC0C000000
(1763084562.137691) can0 2A1#1E1D1C1C1B1B1A1B
(1763084562.138433) can0 189#0103230259010551
(1763084562.141842) can0 000A0003#FF0902440FFA0000
(1763084562.142127) can0 000A0004#FFEBFFD401F18E02
(1763084562.145070) can0 482#6604060008360001
(1763084562.145259) can0 19A#00007E716E80827E
(1763084562.146128) can0 29A#7F6D817F84850000
(1763084562.147485) can0 382#DD020400C3020000
(1763084562.148437) can0 186#AA064C1D09030000
(1763084562.148840) can0 189#FE0222025A010551
(1763084562.149666) can0 080#
(1763084562.150821) can0 286#0000900100000000
(1763084562.151845) can0 000A0003#FF18024F0FD10000
(1763084562.152130) can0 000A0004#FFEAFFCF01EE8E02
(1763084562.153483) can0 1A4#000FEB09000000
(1763084562.153710) can0 2A3#1417171616161514
(1763084562.157351) can0 188#0C00FF3200000000
(1763084562.158110) can0 288#2C29FE3500140000
(1763084562.158225) can0 701#05
(1763084562.158457) can0 189#FC0223025B010551
(1763084562.159129) can0 388#1F1F1E1C1F000000
(1763084562.160050) can0 191#979797979796
(1763084562.161056) can0 192#979797979797
(1763084562.161850) can0 000A0003#FF3002600F930000
(1763084562.162140) can0 000A0004#FFE8FFC801EF8E02
(1763084562.162336) can0 193#979797979797
(1763084562.163093) can0 194#979797979797
(1763084562.164063) can0 195#979797979797
(1763084562.165088) can0 291#0E0F0F0F0F0F
(1763084562.166095) can0 292#0E0F0F0F100F
(1763084562.166602) can0 482#6B04050008360001
(1763084562.167088) can0 293#0E0F0F0F0F0F
(1763084562.167326) can0 382#9402D7FF95020000
(1763084562.168097) can0 294#0E0F0F0F0F0F
(1763084562.168439) can0 189#FB02220259010551
(1763084562.169069) can0 295#0E0F0F0F0F0E
(1763084562.171847) can0 000A0003#FF4E026F0F600000
(1763084562.172131) can0 000A0004#FFDBFFBA01EE8E02
(1763084562.172372) can0 181#D10300207F000009
(1763084562.172608) can0 4C4#04EE050004EE04F8
(1763084562.172860) can0 4C5#04FB04FA04F104E9
(1763084562.173874) can0 4C6#04E904EE04F204EE
(1763084562.174891) can0 4C7#050304F904E904F1
(1763084562.175919) can0 4C8#04B5000000000000
(1763084562.178425) can0 189#FD0227025A010551
(1763084562.179986) can0 701#05
(1763084562.180351) can0 281#6604000007000000
(1763084562.180693) can0 682#3F471D040000C100
(1763084562.181856) can0 000A0003#FF7902800F3E0000
(1763084562.182145) can0 000A0004#FFCEFFB601F08E02
(1763084562.184465) can0 1A3#800F3E0A000000
(1763084562.188417) can0 382#9E02330095020000
(1763084562.188649) can0 186#DD064C1D09040000
(1763084562.188882) can0 189#FB022B025B010551
(1763084562.189121) can0 482#6704050008360001
(1763084562.191855) can0 000A0003#FF94028A0F290000
(1763084562.192139) can0 000A0004#FFC3FFAF01EE8E02
(1763084562.198427) can0 189#FD022C0259010651
(1763084562.201856) can0 000A0003#FFA902540F3B0000
(1763084562.202141) can0 000A0004#FFBBFFB401F08E02
(1763084562.202257) can0 701#05
(1763084562.208428) can0 189#00032E025B010651
(1763084562.210263) can0 181#D10300207F000009
(1763084562.210599) can0 482#6A04050008360001
(1763084562.210936) can0 382#B102FCFFA9020000
(1763084562.211853) can0 000A0003#FFC502290F510000
(1763084562.212140) can0 000A0004#FFBFFFB701F38E02
(1763084562.212352) can0 1A0#000000000000
(1763084562.212864) can0 000A0000#0000000000000000
(1763084562.213165) can0 000A0001#0000000000000000
(1763084562.213462) can0 000A0002#0000000000000000
(1763084562.215587) can0 1A5#000EE70D000000
(1763084562.218479) can0 189#01032E025A010651
(1763084562.221446) can0 682#3F471D040000C100
(1763084562.221882) can0 000A0003#FFED02100F6E0000
(1763084562.222162) can0 000A0004#FFCCFFC301F48E02
(1763084562.223747) can0 701#05
(1763084562.224158) can0 281#6804000007000000
(1763084562.228432) can0 186#0E074C1D09050000
(1763084562.228847) can0 189#00032C025A010651
(1763084562.231863) can0 000A0003#000702010F810000
(1763084562.232149) can0 000A0004#FFD5FFCE01F48E02
(1763084562.232390) can0 482#5F04060008360001
(1763084562.232675) can0 382#9802BDFFA9020000
(1763084562.237072) can0 4C4#04E8050004E904F8
(1763084562.238083) can0 4C5#04FB04FE04F504E9
(1763084562.238415) can0 189#FD02290259010551
(1763084562.239094) can0 4C6#04E904EA04F204EE
(1763084562.240114) can0 4C7#050304FD04E904F1
(1763084562.241137) can0 4C8#04B5000000000000
(1763084562.241858) can0 000A0003#003401F70F900000
(1763084562.242147) can0 000A0004#FFD7FFDF01F48E02
(1763084562.244973) can0 1A2#000E240D000000
(1763084562.245200) can0 2A1#1D1D1C1C1B1B1B1B
(1763084562.245500) can0 701#05
(1763084562.248435) can0 189#F60223025A010551
(1763084562.248676) can0 181#D10300207F000009
(1763084562.248779) can0 080#
(1763084562.249822) can0 286#0000900100000000
(1763084562.251856) can0 000A0003#005101EC0F920000
(1763084562.252144) can0 000A0004#FFCEFFF101F28E02
(1763084562.253929) can0 382#A3020A00BC020000
(1763084562.254302) can0 482#5B04060008360001
(1763084562.257377) can0 188#0C00FF3200000000
(1763084562.258135) can0 288#2529463400140000
(1763084562.258435) can0 189#ED021F0259010551
(1763084562.259122) can0 388#1F1F1E1C1F000000
(1763084562.260072) can0 191#979797979796
(1763084562.260546) can0 1A4#0016D709000000
(1763084562.260771) can0 2A3#1417161616161514
(1763084562.261082) can0 192#969797979696
(1763084562.261862) can0 000A0003#005401E30F850000
(1763084562.262150) can0 000A0004#FFC6FFF901F08E02
(1763084562.262345) can0 193#979797979797
(1763084562.263068) can0 194#979797979797
(1763084562.264070) can0 195#969797979797
(1763084562.264976) can0 682#3F471D040000C000
(1763084562.265189) can0 291#0E0F0F0F0F0F
(1763084562.266101) can0 292#0E0F0F10100F
(1763084562.267115) can0 293#0F0F0F0F0F0F
(1763084562.267344) can0 701#05
(1763084562.267611) can0 281#5E04000007000000
(1763084562.268084) can0 294#0F0F0F100F0F
(1763084562.268444) can0 186#A7054C1D09060000
(1763084562.268836) can0 189#E7021A0258010451
(1763084562.269095) can0 295#0E0F0F0F0F0E
(1763084562.271858) can0 000A0003#005701D50F710000
(1763084562.272146) can0 000A0004#FFC0000D01EF8E02
(1763084562.275798) can0 482#6104040008360001
(1763084562.276132) can0 382#5202ECFF31020000
(1763084562.278412) can0 189#E70218025A010451
(1763084562.281861) can0 000A0003#002501B20F6F0000
(1763084562.282149) can0 000A0004#FFC6001F01EB8E02
(1763084562.285459) can0 1A3#000E600A000000
(1763084562.286793) can0 181#D10300207F000009
(1763084562.288419) can0 189#E60218025B010451
(1763084562.289188) can0 701#05
(1763084562.291863) can0 000A0003#FFF6019B0F630000
(1763084562.292148) can0 000A0004#FFDA003301E98E02
(1763084562.297621) can0 482#5704040008360001
(1763084562.297961) can0 382#39021A0031020000
(1763084562.298413) can0 189#E70219025A010451
(1763084562.301873) can0 000A0003#FFE7019A0F4E0000
(1763084562.302155) can0 000A0004#FFE7004701E78E02
(1763084562.302391) can0 4C4#04EF050604EA04F9
(1763084562.303304) can0 4C5#04FC04FB04F204E6
(1763084562.304311) can0 4C6#04E604EF04F304F4
(1763084562.305328) can0 4C7#050404FA04EA04F2
(1763084562.305916) can0 682#3F471E040000B900
(1763084562.306356) can0 4C8#04B6000000000000
(1763084562.308402) can0 186#A9054C1D09070000
(1763084562.308828) can0 189#E60219025A010451
(1763084562.310919) can0 701#05
(1763084562.311290) can0 281#5104000006000000
(1763084562.311866) can0 000A0003#FFD201980F2F0000
(1763084562.312147) can0 000A0004#FFF5005501E38E02
(1763084562.312360) can0 1A0#000000000000
(1763084562.312879) can0 000A0000#0000000000000000
(1763084562.313178) can0 000A0001#0000000000000000
(1763084562.313476) can0 000A0002#0000000000000000
(1763084562.317692) can0 1A5#00180E0E000000
(1763084562.318411) can0 189#E7021D025A010451
(1763084562.319692) can0 382#46023A0032020000
(1763084562.321862) can0 000A0003#FFB101D10F0F0000
(1763084562.322149) can0 000A0004#FFF6006301E18E02
(1763084562.322389) can0 482#5704040008360001
(1763084562.324895) can0 181#D10300207F000009
(1763084562.328413) can0 189#EA0225025A010551
(1763084562.330376) can0 701#05
(1763084562.331877) can0 000A0003#FF9302080F050000
(1763084562.332157) can0 000A0004#FFF0006D01DD8E02
(1763084562.338415) can0 189#F8022F025A010551
(1763084562.341412) can0 382#3B02BFFF32020000
(1763084562.341864) can0 000A0003#FF82022B0F190000
(1763084562.342149) can0 000A0004#FFEC006F01DA8E02
(1763084562.344135) can0 482#6304040008360001
(1763084562.346846) can0 682#3F471E040000AF00
(1763084562.348426) can0 186#FD074C1D09080000
(1763084562.348826) can0 189#10033A0259010651
(1763084562.349686) can0 080#
(1763084562.350837) can0 286#0000900100000000
(1763084562.351139) can0 19A#00007F6B6F7D827E
(1763084562.351866) can0 000A0003#FF6A025D0F360000
(1763084562.352151) can0 000A0004#FFEC006E01DA8E02
(1763084562.352385) can0 29A#7F67827F85850000
(1763084562.352610) can0 1A2#C013350C000000
(1763084562.352839) can0 2A1#1D1E1C1C1C1B1B1B
(1763084562.352955) can0 701#05
(1763084562.353218) can0 281#6904000008000000
(1763084562.357357) can0 188#0C00593300000000
(1763084562.358261) can0 288#2529463700140000
(1763084562.358493) can0 189#2803490259010751
(1763084562.359130) can0 388#1F1F1E1C1F000000
(1763084562.360081) can0 191#979797979796
(1763084562.361089) can0 192#969797979696
(1763084562.361865) can0 000A0003#FF6A026B0F170000
(1763084562.362149) can0 000A0004#FFEE006A01DC8E02
(1763084562.362345) can0 193#979797979797
(1763084562.363059) can0 194#979797979797
(1763084562.363294) can0 382#EE02D1FF19030000
(1763084562.363600) can0 181#D10300207F000009
(1763084562.364060) can0 195#969797979797
(1763084562.365086) can0 291#0E0F0F0F0F0F
(1763084562.365964) can0 482#6B04060008360001
(1763084562.366172) can0 292#0E0F0F10100F
(1763084562.367095) can0 293#0F0F0F0F0F0F
(1763084562.367498) can0 4C4#04EF050604EA04F9
(1763084562.367722) can0 1A4#C011CD09000000
(1763084562.367948) can0 2A3#1417161616161514
(1763084562.368158) can0 294#0F0F0F100F0F
(1763084562.368418) can0 189#3D03560258010851
(1763084562.368654) can0 4C5#04FC04FB04F204E6
(1763084562.369101) can0 295#0E0F0F0F0F0E
(1763084562.369526) can0 4C6#04E604EF04F304F4
(1763084562.370541) can0 4C7#050404FA04EA04F2
(1763084562.371569) can0 4C8#04B6000000000000
(1763084562.371871) can0 000A0003#FF6902780F070000
(1763084562.372156) can0 000A0004#FFF4006701DC8E02
(1763084562.373713) can0 701#05
(1763084562.378411) can0 189#4B0360025A010951
(1763084562.381867) can0 000A0003#FF7002830F0E0000
(1763084562.382152) can0 000A0004#FFF3006701DC8E02
(1763084562.384952) can0 382#0E034B0019030000
(1763084562.386461) can0 1A3#C011C409000000
(1763084562.387934) can0 482#6D04060008360001
(1763084562.388268) can0 682#3F471C040000B900
(1763084562.388501) can0 186#0A0B4C1D09090000
(1763084562.388857) can0 189#4B03600259010951
(1763084562.391868) can0 000A0003#FF7A02920F180000
(1763084562.392152) can0 000A0004#FFED006601DD8E02
(1763084562.395636) can0 701#05
(1763084562.396105) can0 281#610400000B000000
(1763084562.398404) can0 189#4A035E025C010951
(1763084562.401879) can0 000A0003#FF8002900F030000
(1763084562.402162) can0 000A0004#FFDF006301DB8E02
(1763084562.404287) can0 181#D10300207F000009
(1763084562.408403) can0 189#460357025C010951
(1763084562.409523) can0 382#4804A7FE47040000
(1763084562.409892) can0 482#6304090008360001
(1763084562.411874) can0 000A0003#FF84028F0EF60000
(1763084562.412157) can0 000A0004#FFD8006601DD8E02
(1763084562.412370) can0 1A0#000000000000
(1763084562.412894) can0 000A0000#0000000000000000
(1763084562.413194) can0 000A0001#0000000000000000
(1763084562.413492) can0 000A0002#0000000000000000
(1763084562.417380) can0 701#05
(1763084562.418406) can0 189#3C0350025B010851
(1763084562.419818) can0 1A5#C00FB60D000000
(1763084562.421876) can0 000A0003#FF7D02650EE30000
(1763084562.422161) can0 000A0004#FFCE006601DB8E02
(1763084562.428393) can0 186#98094C1D090A0000
(1763084562.428750) can0 682#3F471A040000D400
(1763084562.428980) can0 189#330349025A010851
(1763084562.431387) can0 482#6404070008360001
(1763084562.431717) can0 382#4B040EFFB8030000
(1763084562.432003) can0 000A0003#FF72022A0ED20000
(1763084562.432287) can0 000A0004#FFD2006701DA8E02
(1763084562.432699) can0 4C4#04FB050604EF04FD
(1763084562.433710) can0 4C5#050004FF04F604E6
(1763084562.434722) can0 4C6#04EE04F304F304F4
(1763084562.435739) can0 4C7#050004F504EF04ED
(1763084562.436767) can0 4C8#04B6000000000000
(1763084562.438402) can0 189#2D0342025A010751
(1763084562.441880) can0 000A0003#FF8901F00ED00000
(1763084562.442162) can0 000A0004#FFD9006301D98E02
(1763084562.442280) can0 701#05
(1763084562.442520) can0 181#D10300207F000009
(1763084562.442766) can0 281#5E0400000A000000
(1763084562.448424) can0 189#24033C025A010751
(1763084562.448689) can0 080#
(1763084562.449838) can0 286#0000900100000000
(1763084562.451879) can0 000A0003#FF9701CC0ECE0000
(1763084562.452161) can0 000A0004#FFE2005E01DA8E02
(1763084562.453209) can0 482#5904070008360001
(1763084562.453540) can0 382#8F035901B8030000
(1763084562.457360) can0 188#0C00313300000000
(1763084562.458118) can0 288#3429F13900140000
(1763084562.458416) can0 189#1A0336025A010651
(1763084562.459136) can0 388#1F1F1E1C1F000000
(1763084562.459977) can0 1A2#C00F350C000000
(1763084562.460168) can0 191#979797979797
(1763084562.460399) can0 2A1#1D1E1C1C1C1B1A1B
(1763084562.461094) can0 192#979797979797
(1763084562.461870) can0 000A0003#FFA101A40EA50000
(1763084562.462154) can0 000A0004#FFE6005301D38E02
(1763084562.462350) can0 193#979797979797
(1763084562.463084) can0 194#979797979797
(1763084562.463879) can0 701#05
(1763084562.464083) can0 195#979797979797
(1763084562.465113) can0 291#0E0F0F0F0F0F
(1763084562.466085) can0 292#0E0F0F10100F
(1763084562.467098) can0 293#0E0F0F0F0F0F
(1763084562.468097) can0 294#0E0F0F100F0F
(1763084562.468409) can0 186#A1074C1D090B0000
(1763084562.468855) can0 189#10032F025A010651
(1763084562.469107) can0 295#0E0F0F0F0F0E
(1763084562.471879) can0 000A0003#FFA401840E7D0000
(1763084562.472162) can0 000A0004#FFE2004601D38E02
(1763084562.472423) can0 682#3F471B040000DE00
(1763084562.474655) can0 1A4#C011DA0A000000
(1763084562.474881) can0 2A3#1417171716161514
(1763084562.475275) can0 382#F1025100F5020000
(1763084562.477775) can0 482#6604060008360001
(1763084562.478398) can0 189#09032C025A010651
(1763084562.480494) can0 181#D10300207F000009
(1763084562.481879) can0 000A0003#FFB601900E530000
(1763084562.482161) can0 000A0004#FFD7003601CE8E02
(1763084562.485718) can0 701#05
(1763084562.486190) can0 281#6C04000008000000
(1763084562.487464) can0 1A3#0016600A000000
(1763084562.488395) can0 189#040328025B010551
(1763084562.491882) can0 000A0003#FFC201980E390000
(1763084562.492167) can0 000A0004#FFD9003201CF8E02
(1763084562.497000) can0 382#ED024100F5020000
(1763084562.497901) can0 4C4#04FB050604EF04FD
(1763084562.498395) can0 189#030325025A010551
(1763084562.498913) can0 4C5#050004FF04F604E6
(1763084562.499826) can0 482#6404060008360001
(1763084562.500055) can0 4C6#04EE04EF04EF04EF
(1763084562.500943) can0 4C7#050004F104EF04ED
(1763084562.501875) can0 000A0003#FFB001A30E250000
(1763084562.502162) can0 000A0004#FFDF001C01CE8E02
(1763084562.502405) can0 4C8#04B6000000000000
(1763084562.507464) can0 701#05
(1763084562.508384) can0 186#E0064C1D090C0000
(1763084562.508849) can0 189#010326025B010551
(1763084562.511885) can0 000A0003#FF8D01AD0E0F0000
(1763084562.512172) can0 000A0004#FFF4001001CF8E02
(1763084562.512384) can0 1A0#000000000000
(1763084562.512899) can0 000A0000#0000000000000000
(1763084562.513197) can0 000A0001#0000000000000000
(1763084562.513496) can0 000A0002#0000000000000000
(1763084562.513734) can0 682#3F471C040000D900
(1763084562.518401) can0 189#0103260259010551
(1763084562.518828) can0 382#B6021B00AA020000
(1763084562.519167) can0 181#D10300207F000009
(1763084562.519517) can0 482#6804050008360001
(1763084562.521886) can0 000A0003#FF7101BD0E000000
(1763084562.522169) can0 000A0004#FFFD000501CE8E02
(1763084562.522391) can0 1A5#C013130E000000
(1763084562.528402) can0 189#000328025B010551
(1763084562.529385) can0 701#05
(1763084562.529648) can0 281#6904000007000000
(1763084562.531884) can0 000A0003#FF4901D40DE90000
(1763084562.532169) can0 000A0004#0006FFFA01D18E02
(1763084562.538398) can0 189#00032E025B010651
(1763084562.540538) can0 382#C80284FFAA020000
(1763084562.540905) can0 482#6F04050008360001
(1763084562.541881) can0 000A0003#FF3101F20DCF0000
(1763084562.542169) can0 000A0004#0001FFF201D08E02
(1763084562.548408) can0 186#6D074C1D090D0000
(1763084562.548842) can0 189#000336025B010651
(1763084562.549703) can0 080#
(1763084562.550825) can0 286#0000900100000000
(1763084562.551363) can0 701#05
(1763084562.551886) can0 000A0003#FF1F02140DB40000
(1763084562.552174) can0 000A0004#FFF9FFE801D28E02
(1763084562.554324) can0 682#3F471D040000D000
(1763084562.556949) can0 181#D10300207F000009
(1763084562.557184) can0 19A#00008066717D8080
(1763084562.557430) can0 188#0C00793300000000
(1763084562.558129) can0 288#20290B3500140000
(1763084562.558362) can0 29A#8071817F85850000
(1763084562.558594) can0 189#0A033A025A010651
(1763084562.559144) can0 388#1F1F1E1C1F000000
(1763084562.560096) can0 191#969697979796
(1763084562.561073) can0 192#969696969696
(1763084562.561883) can0 000A0003#FF19022A0DD20000
(1763084562.562171) can0 000A0004#FFF4FFE801D38E02
(1763084562.562363) can0 193#969697979697
(1763084562.562603) can0 482#7204060008360001
(1763084562.562848) can0 382#CC022400E1020000
(1763084562.563125) can0 4C4#04E904FC04EA04F0
(1763084562.563317) can0 194#969697979797
(1763084562.564089) can0 195#969697979797
(1763084562.564321) can0 4C5#050004F604EE04E6
(1763084562.565086) can0 291#0E0F0F0F0F0F
(1763084562.565317) can0 4C6#04EA04EF04EF04F4
(1763084562.566089) can0 292#0E0F0F10100F
(1763084562.566321) can0 4C7#04FB04F504EF04ED
(1763084562.567104) can0 293#0E0F0F0F0F0F
(1763084562.567348) can0 4C8#04B6000000000000
(1763084562.567571) can0 1A2#0018350C000000
(1763084562.567801) can0 2A1#1D1E1D1C1C1B1A1B
(1763084562.568113) can0 294#0E0F0F0F0F0F
(1763084562.568420) can0 189#1403400258010751
(1763084562.569115) can0 295#0E0F0F0F0F0E
(1763084562.571895) can0 000A0003#FF11024A0DFE0000
(1763084562.572179) can0 000A0004#FFF1FFEB01D68E02
(1763084562.573310) can0 701#05
(1763084562.573647) can0 281#7104000007000000
(1763084562.578393) can0 189#20034C025B010751
(1763084562.581702) can0 1A4#000F3E0A000000
(1763084562.581989) can0 000A0003#FF0802460E140000
(1763084562.582275) can0 000A0004#FFF7FFF101DA8E02
(1763084562.582503) can0 2A3#1417171716161414
(1763084562.582742) can0 382#D202E5FFE1020000
(1763084562.584253) can0 482#6904060008360001
(1763084562.588375) can0 186#71094C1D090E0000
(1763084562.588595) can0 1A3#800FEB09000000
(1763084562.588841) can0 189#270351025B010851
(1763084562.591891) can0 000A0003#FF0002310E200000
(1763084562.592183) can0 000A0004#FFFFFFFC01E08E02
(1763084562.595138) can0 181#D10300207F000009
(1763084562.595258) can0 701#05
(1763084562.595607) can0 682#3F471C040000CE00
(1763084562.598388) can0 189#270352025B010851
(1763084562.601884) can0 000A0003#FF0D022D0E420000
(1763084562.602165) can0 000A0004#0004FFFD01E38E02
(1763084562.606065) can0 382#8103EBFFA9030000
(1763084562.606424) can0 482#5E04070008360001
(1763084562.608390) can0 189#270351025A010851
(1763084562.611893) can0 000A0003#FF2002280E730000
(1763084562.612179) can0 000A0004#0007000301E68E02
(1763084562.612390) can0 1A0#000000000000
(1763084562.612906) can0 000A0000#0000000000000000
(1763084562.613205) can0 000A0001#0000000000000000
(1763084562.613505) can0 000A0002#0000000000000000
(1763084562.616745) can0 701#05
(1763084562.617217) can0 281#6904000009000000
(1763084562.618386) can0 189#26034C0259010751
(1763084562.621895) can0 000A0003#FF1602250E970000
(1763084562.622180) can0 000A0004#0007000001EA8E02
(1763084562.624088) can0 1A5#0018720D000000
(1763084562.627928) can0 482#6D04070008360001
(1763084562.628269) can0 382#C303F9FFA9030000
(1763084562.628503) can0 186#0C094C1D090F0000
(1763084562.628739) can0 4C4#04F504FC04EF04F9
(1763084562.628971) can0 189#240345025B010751
(1763084562.629359) can0 4C5#050004FF04F204E6
(1763084562.630367) can0 4C6#04EA04EF04EF04F4
(1763084562.631384) can0 4C7#050404FA04E504F7
(1763084562.631895) can0 000A0003#FF0702230EAC0000
(1763084562.632185) can0 000A0004#0008FFFE01E98E02
(1763084562.632428) can0 4C8#04B6000000000000
(1763084562.633583) can0 181#D10300207F000009
(1763084562.638388) can0 189#1C033F025C010751
(1763084562.638505) can0 701#05
(1763084562.639154) can0 682#3F471B040000D900
(1763084562.641898) can0 000A0003#FEF902310ECA0000
(1763084562.642186) can0 000A0004#000CFFFB01EB8E02
(1763084562.648412) can0 189#120337025C010651
(1763084562.648703) can0 080#
(1763084562.649823) can0 286#0000900100000000
(1763084562.650070) can0 482#6604070008360001
(1763084562.650538) can0 382#A503080081030000
(1763084562.651891) can0 000A0003#FEEF02470EE70000
(1763084562.652173) can0 000A0004#0011FFF401E88E02
(1763084562.657370) can0 188#0C001A3300000000
(1763084562.657691) can0 701#05
(1763084562.658135) can0 288#20290B3800140000
(1763084562.658391) can0 189#05032C025B010651
(1763084562.659151) can0 388#1F1F1E1C1F000000
(1763084562.660072) can0 191#969697979796
(1763084562.660652) can0 281#5C04000009000000
(1763084562.661082) can0 192#969696969696
(1763084562.661892) can0 000A0003#FECD02660F2B0000
(1763084562.662179) can0 000A0004#001FFFF301E78E02
(1763084562.662368) can0 193#969697979697
(1763084562.663098) can0 194#969697979797
(1763084562.664070) can0 195#969697979797
(1763084562.665097) can0 291#0E0F0F0F0F0F
(1763084562.666100) can0 292#0E0F0F10100F
(1763084562.667112) can0 293#0E0F0F0F0F0F
(1763084562.668120) can0 294#0E0F0F0F0F0F
(1763084562.668401) can0 186#59064C1D09000000
(1763084562.668854) can0 189#F5021F025A010551
(1763084562.669092) can0 295#0E0F0F0F0F0E
(1763084562.671564) can0 382#A303E8FF76020000
(1763084562.671898) can0 000A0003#FEAF027D0F640000
(1763084562.672183) can0 000A0004#0024FFF201E58E02
(1763084562.672425) can0 181#D10300207F000009
(1763084562.672696) can0 482#6004050008360001
(1763084562.675011) can0 1A2#000E350C000000
(1763084562.675234) can0 2A1#1D1E1D1C1B1B1A1B
(1763084562.678380) can0 189#EC0216025B010451
(1763084562.679775) can0 701#05
(1763084562.681895) can0 000A0003#FE89028F0FAA0000
(1763084562.682177) can0 000A0004#0030FFF301E38E02
(1763084562.682598) can0 682#3F471C040000DA00
(1763084562.688381) can0 189#E30211025A010451
(1763084562.688727) can0 1A4#000F5B0A000000
(1763084562.688952) can0 2A3#1517171716161414
(1763084562.689462) can0 1A3#000F600A000000
(1763084562.691133) can0 382#6902410076020000
(1763084562.691898) can0 000A0003#FE7102990FE70000
(1763084562.692182) can0 000A0004#0035FFF301DC8E02
(1763084562.693560) can0 4C4#04F504FC04EF04F9
(1763084562.694575) can0 4C5#050004FF04F204E6
(1763084562.695588) can0 4C6#04EA04EF04EF04F4
(1763084562.696276) can0 482#6604050008360001
(1763084562.696602) can0 4C7#050404FA04E504F7
(1763084562.697628) can0 4C8#04B6000000000000
(1763084562.698381) can0 189#DC020D025B010451
(1763084562.701271) can0 701#05
(1763084562.701897) can0 000A0003#FE4302A210390000
(1763084562.702186) can0 000A0004#0032FFF501DF8E02
(1763084562.704343) can0 281#6A04000006000000
(1763084562.708371) can0 186#00054C1D09010000
(1763084562.708865) can0 189#DD020F025A010451
(1763084562.709912) can0 181#D10300207F000009
(1763084562.711903) can0 000A0003#FE1D02A810750000
(1763084562.712184) can0 000A0004#002CFFF501DD8E02
(1763084562.712395) can0 1A0#000000000000
(1763084562.712914) can0 000A0000#0000000000000000
(1763084562.713215) can0 000A0001#0000000000000000
(1763084562.713511) can0 000A0002#0000000000000000
(1763084562.715363) can0 382#E3010100F0010000
(1763084562.718231) can0 482#6C04040008360001
(1763084562.718465) can0 189#DD02140258010451
(1763084562.721905) can0 000A0003#FDE002C310C70000
(1763084562.722189) can0 000A0004#0025FFF901E08E02
(1763084562.723202) can0 701#05
(1763084562.723577) can0 682#3F471E040000CC00
(1763084562.726212) can0 1A5#000E720D000000
(1763084562.728380) can0 189#EA021B025A010451
(1763084562.731897) can0 000A0003#FD9A02E511130000
(1763084562.732183) can0 000A0004#001DFFF201E58E02
(1763084562.737077) can0 382#F2014A00F0010000
(1763084562.738375) can0 189#FD0225025B010551
(1763084562.739829) can0 482#6904040008360001
(1763084562.741902) can0 000A0003#FD8F02F911320000
(1763084562.742186) can0 000A0004#001CFFEF01E98E02
(1763084562.744943) can0 701#05
(1763084562.746125) can0 19A#00008172697E7D7E
(1763084562.747135) can0 29A#7E72857E83820000
(1763084562.748387) can0 186#F5074C1D09020000
(1763084562.748825) can0 189#140337025B010651
(1763084562.749687) can0 080#
(1763084562.750836) can0 181#D10300207F000009
(1763084562.751080) can0 286#0000900100000000
(1763084562.751323) can0 281#6904000005000000
(1763084562.751901) can0 000A0003#FDB1031111460000
(1763084562.752189) can0 000A0004#001AFFE501EE8E02
(1763084562.756540) can0 382#0403460016030000
(1763084562.758370) can0 189#2D0349025C010851
(1763084562.758790) can0 4C4#04EE050004E404F3
(1763084562.759808) can0 4C5#04FF04F504F104E5
(1763084562.760811) can0 4C6#04ED04EE04F604F3
(1763084562.761782) can0 482#6604060008360001
(1763084562.762066) can0 000A0003#FDCD032811460000
(1763084562.762354) can0 000A0004#0013FFE201F68E02
(1763084562.762588) can0 4C7#04FF04F904F204EC
(1763084562.762873) can0 4C8#04B5000000000000
(1763084562.764158) can0 701#05
(1763084562.764604) can0 682#3F471E040000C000
(1763084562.768372) can0 189#45035C025B010951
(1763084562.771915) can0 000A0003#FDE2033C113D0000
(1763084562.772201) can0 000A0004#0010FFDA01FC8E02
(1763084562.778023) can0 382#170387FF16030000
(1763084562.778367) can0 189#550367025C010951
(1763084562.781912) can0 000A0003#FDE4033E11300000
(1763084562.782199) can0 000A0004#000CFFD601FF8E02
(1763084562.782539) can0 1A2#000F9D0B000000
(1763084562.782766) can0 2A1#1E1D1C1C1B1B1A1B
(1763084562.783601) can0 482#7804060008360001
(1763084562.786122) can0 701#05
(1763084562.786574) can0 181#D10300207F000009
(1763084562.788364) can0 186#C10B4C1D09030000
(1763084562.788844) can0 189#570368025A010951
(1763084562.790469) can0 1A3#0018600A000000
(1763084562.791674) can0 281#730400000B000000
(1763084562.791954) can0 000A0003#FDD9032F11120000
(1763084562.792242) can0 000A0004#000EFFD302068E02
(1763084562.795737) can0 1A4#C0105B0A000000
(1763084562.795960) can0 2A3#1517171615161514
(1763084562.797585) can0 382#4D058EFE8E040000
(1763084562.798370) can0 189#540362025B010951
(1763084562.801910) can0 000A0003#FDD3031810EC0000
(1763084562.802198) can0 000A0004#0013FFCF02038E02
(1763084562.805562) can0 482#7204090008360001
(1763084562.805892) can0 682#3F471B040000CE00
(1763084562.807734) can0 701#05
(1763084562.808367) can0 189#480359025B010951
(1763084562.811402) can0 188#0C00653200000000
(1763084562.811901) can0 000A0003#FDD402F010C20000
(1763084562.812187) can0 000A0004#001BFFCF02068E02
(1763084562.812401) can0 1A0#000000000000
(1763084562.812641) can0 288#2029122E00140000
(1763084562.812941) can0 000A0000#0000000000000000
(1763084562.813241) can0 000A0001#0000000000000000
(1763084562.813540) can0 000A0002#0000000000000000
(1763084562.813779) can0 388#1E1F1E1C1F000000
(1763084562.814076) can0 191#969697979796
(1763084562.815059) can0 192#969696969696
(1763084562.816080) can0 193#969697979697
(1763084562.817089) can0 194#969697979797
(1763084562.818092) can0 195#969697979797
(1763084562.818382) can0 189#36034C0259010851
(1763084562.819124) can0 291#0E0F0F0F0F0F
(1763084562.820093) can0 292#0E0F0F10100F
(1763084562.821102) can0 293#0E0F0F0F0F0F
(1763084562.821830) can0 382#8504E9FE8E040000
(1763084562.822115) can0 000A0003#FDD702DA10AF0000
(1763084562.822402) can0 000A0004#001EFFCF02048E02
(1763084562.822615) can0 294#0E0F0F0F0F0F
(1763084562.823118) can0 295#0E0F0F0F0F0E
(1763084562.824027) can0 4C4#04EE050004E404F3
(1763084562.824685) can0 181#D10300207F000009
(1763084562.825040) can0 4C5#04FF04F504F104E5
(1763084562.826051) can0 4C6#04ED04EE04F604F3
(1763084562.827075) can0 4C7#04FF04F904F204EC
(1763084562.827314) can0 482#6504090008360001
(1763084562.828095) can0 4C8#04B5000000000000
(1763084562.828338) can0 1A5#000FD10C000000
(1763084562.828573) can0 186#92084C1D09040000
(1763084562.828870) can0 189#1F03390258010751
(1763084562.829883) can0 701#05
(1763084562.831913) can0 000A0003#FDDE02C110A10000
(1763084562.832199) can0 000A0004#0027FFCF02028E02
(1763084562.835354) can0 281#6504000009000000
(1763084562.838366) can0 189#0B032C025B010651
(1763084562.841913) can0 000A0003#FDEF02A710810000
(1763084562.842200) can0 000A0004#002DFFCF01FF8E02
(1763084562.843535) can0 382#4803400152030000
(1763084562.846296) can0 682#3F471B040000DE00
(1763084562.846838) can0 482#5704070008360001
(1763084562.848389) can0 189#F7021E025A010551
(1763084562.848688) can0 080#
(1763084562.849839) can0 286#0000900100000000
(1763084562.851603) can0 701#05
(1763084562.851915) can0 000A0003#FE08029210670000
(1763084562.852201) can0 000A0004#002FFFD101FD8E02
(1763084562.857373) can0 188#0C00B63200000000
(1763084562.858119) can0 288#18295A2F00140000
(1763084562.858375) can0 189#EA0214025B010451
(1763084562.859126) can0 388#1E1F1E1C1F000000
(1763084562.860083) can0 191#969696969696
(1763084562.861095) can0 192#969696969696
(1763084562.861916) can0 000A0003#FE31026D10430000
(1763084562.862201) can0 000A0004#0037FFCE01FA8E02
(1763084562.862393) can0 193#969696969696
(1763084562.863079) can0 194#969696969696
(1763084562.864083) can0 195#969696969696
(1763084562.865109) can0 291#0E0F0F0F0F0F
(1763084562.865385) can0 181#D10300207F000009
(1763084562.865839) can0 382#2703730052030000
(1763084562.866114) can0 292#0E0F0F10100F
(1763084562.867096) can0 293#0E0F0F0F0F0F
(1763084562.868089) can0 294#0E100F100F0F
(1763084562.868377) can0 186#4B054C1D09050000
(1763084562.868842) can0 189#E302100258010451
(1763084562.869107) can0 295#0E0F0F0F0F0E
(1763084562.870987) can0 482#5A04070008360001
(1763084562.871914) can0 000A0003#FE62023B10220000
(1763084562.872203) can0 000A0004#0046FFCD01FB8E02
(1763084562.873465) can0 701#05
(1763084562.878364) can0 189#E40213025A010451
(1763084562.879162) can0 281#6604000005000000
(1763084562.881921) can0 000A0003#FE84020710050000
(1763084562.882205) can0 000A0004#0049FFC601F88E02
(1763084562.888363) can0 189#E30219025C010451
(1763084562.889247) can0 4C4#04EE050004E904F3
(1763084562.890062) can0 1A2#000EBF0B000000
(1763084562.890290) can0 2A1#1E1D1C1C1B1B1B1B
(1763084562.890529) can0 4C5#04FF04FA04F104E1
(1763084562.890767) can0 682#3F471D040000D300
(1763084562.891068) can0 382#0602DDFF0D020000
(1763084562.891299) can0 4C6#04ED04EE04F204F3
(1763084562.891522) can0 1A3#C013B30A000000
(1763084562.891917) can0 000A0003#FE8C01E10FF30000
(1763084562.892205) can0 000A0004#0049FFC101FA8E02
(1763084562.892441) can0 4C7#04FF04F904DF04F1
(1763084562.892919) can0 482#7004040008360001
(1763084562.893317) can0 4C8#04B5000000000000
(1763084562.895171) can0 701#05
(1763084562.898359) can0 189#E4021D025A010451
(1763084562.901925) can0 000A0003#FEA501C00FDC0000
(1763084562.902210) can0 000A0004#0040FFB501FB8E02
(1763084562.902763) can0 1A4#8013600A000000
(1763084562.903004) can0 2A3#1416171615161513
(1763084562.903822) can0 181#D10300207F000009
(1763084562.908352) can0 186#37064C1D09060000
(1763084562.908845) can0 189#ED0223025A010551
(1763084562.911920) can0 000A0003#FEDA01C90FCE0000
(1763084562.912204) can0 000A0004#003AFFAA01FE8E02
(1763084562.912416) can0 1A0#000000000000
(1763084562.912658) can0 382#220219000D020000
(1763084562.912956) can0 000A0000#0000000000000000
(1763084562.913256) can0 000A0001#0000000000000000
(1763084562.913554) can0 000A0002#0000000000000000
(1763084562.914615) can0 482#6E04050008360001
(1763084562.916914) can0 701#05
(1763084562.918356) can0 189#F30228025B010551
(1763084562.921930) can0 000A0003#FEFE01CC0FC10000
(1763084562.922216) can0 000A0004#0033FFA401FD8E02
(1763084562.922607) can0 281#6C04000006000000
(1763084562.928359) can0 189#FB022C025B010551
(1763084562.930475) can0 1A5#0013F80C000000
(1763084562.931022) can0 682#3F471E040000C600
(1763084562.931924) can0 000A0003#FF0301C50FBC0000
(1763084562.932210) can0 000A0004#0032FFA202028E02
(1763084562.933537) can0 382#3D026C0068020000
(1763084562.936354) can0 482#7204050008360001
(1763084562.938361) can0 189#FE0230025B010651
(1763084562.938739) can0 701#05
(1763084562.941827) can0 181#D10300207F000009
(1763084562.942113) can0 000A0003#FF1001CB0FBD0000
(1763084562.942397) can0 000A0004#0034FFA102078E02
(1763084562.948374) can0 186#30074C1D09070000
(1763084562.948841) can0 189#FD0230025B010651
(1763084562.949704) can0 080#
(1763084562.950838) can0 286#0000900100000000
(1763084562.951946) can0 000A0003#FF2901EC0FD30000
(1763084562.952210) can0 000A0004#003CFFAC020E8E02
(1763084562.952446) can0 19A#00007E7675817E7F
(1763084562.953125) can0 29A#8274838183850000
(1763084562.954476) can0 4C4#04F5050604EA04F9
(1763084562.955490) can0 4C5#04F804FB04F604E6
(1763084562.955733) can0 482#7204060008360001
(1763084562.956008) can0 382#DF02A4FFC9020000
(1763084562.956504) can0 4C6#04EE04EA04F304F8
(1763084562.957360) can0 188#0C00313300000000
(1763084562.957596) can0 4C7#050404FE04F304F7
(1763084562.958120) can0 288#18295A3500140000
(1763084562.958362) can0 189#FD022E025A010651
(1763084562.958606) can0 4C8#04B6000000000000
(1763084562.959136) can0 388#1E1F1E1C1F000000
(1763084562.960071) can0 191#969696969696
(1763084562.960684) can0 701#05
(1763084562.961081) can0 192#969696969696
(1763084562.961924) can0 000A0003#FF3902020FE10000
(1763084562.962211) can0 000A0004#003FFFB702118E02
(1763084562.962403) can0 193#969696969696
(1763084562.963082) can0 194#969696969696
(1763084562.964087) can0 195#969696969696
(1763084562.965116) can0 291#0E0F0F0F0F0F
(1763084562.966087) can0 292#0E0F0F10100F
(1763084562.966396) can0 281#6D04000007000000
(1763084562.967104) can0 293#0E0F0F0F0F0F
(1763084562.968076) can0 294#0E100F100F0F
(1763084562.968376) can0 189#FD022C025A010551
(1763084562.969092) can0 295#0E0F0F0F0F0E
(1763084562.971923) can0 000A0003#FF6E023910380000
(1763084562.972204) can0 000A0004#0046FFBE02128E02
(1763084562.972443) can0 682#3F471D040000C300
(1763084562.977305) can0 482#5E04060008360001
(1763084562.977640) can0 382#AD021300C9020000
(1763084562.978354) can0 189#FD0229025A010551
(1763084562.981924) can0 000A0003#FF9E026C10720000
(1763084562.982206) can0 000A0004#0049FFC902158E02
(1763084562.982420) can0 701#05
(1763084562.982869) can0 181#D10300207F000009
(1763084562.988345) can0 186#D1064C1D09080000
(1763084562.988867) can0 189#FB0226025B010551
(1763084562.991940) can0 000A0003#FFC8029C10790000
(1763084562.992221) can0 000A0004#0047FFD602188E02
(1763084562.992445) can0 1A3#C00FB30A000000
(1763084562.997556) can0 1A2#0018AC0B000000
(1763084562.997788) can0 2A1#1E1D1C1C1B1B1B1B
(1763084562.998353) can0 189#FC0225025A010551
(1763084562.999354) can0 482#5B04050008360001
(1763084562.999695) can0 382#83023E00A4020000
(1763084563.001933) can0 000A0003#FFE302BB107D0000
(1763084563.002219) can0 000A0004#0046FFDC02198E02
(1763084563.004269) can0 701#05
(1763084563.008355) can0 189#FB0226025B010551
(1763084563.009801) can0 1A4#000C3E0A000000
(1763084563.010027) can0 2A3#1416161616161513
(1763084563.010274) can0 281#5C04000007000000
(1763084563.011935) can0 000A0003#001402CC10B90000
(1763084563.012221) can0 000A0004#0041FFE4021E8E02
(1763084563.012432) can0 1A0#000000000000
(1763084563.012944) can0 000A0000#0000000000000000
(1763084563.013244) can0 000A0001#0000000000000000
(1763084563.013543) can0 000A0002#0000000000000000
(1763084563.013786) can0 682#3F471D040000BE00
(1763084563.018353) can0 189#FC0225025C010551
(1763084563.019690) can0 4C4#04F5050604EA04F9
(1763084563.020704) can0 4C5#04F804FB04F604E6
(1763084563.021716) can0 4C6#04EE04EA04F304F8
(1763084563.022006) can0 000A0003#002E02C410F90000
(1763084563.022293) can0 000A0004#0047FFE602208E02
(1763084563.022730) can0 4C7#050404FE04F304F7
(1763084563.023706) can0 382#C902EEFFA4020000
(1763084563.023948) can0 4C8#04B6000000000000
(1763084563.024191) can0 181#D10300207F000009
(1763084563.024483) can0 482#6604050008360001
(1763084563.026199) can0 701#05
(1763084563.028338) can0 186#BB064C1D09090000
(1763084563.028844) can0 189#FD0225025A010551
(1763084563.031935) can0 000A0003#001F028B11430000
(1763084563.032217) can0 000A0004#0048FFE2021E8E02
(1763084563.032603) can0 1A5#400CF80C000000
(1763084563.038353) can0 189#FD0225025C010551
(1763084563.041937) can0 000A0003#0016026611720000
(1763084563.042221) can0 000A0004#004EFFE002218E02
(1763084563.045566) can0 482#6604050008360001
(1763084563.045900) can0 382#A70238009C020000
(1763084563.048168) can0 701#05
(1763084563.048397) can0 189#FC0223025A010551
(1763084563.048702) can0 080#
(1763084563.049857) can0 286#0000900100000000
(1763084563.051938) can0 000A0003#001D024A115C0000
(1763084563.052223) can0 000A0004#0054FFDF021F8E02
(1763084563.053641) can0 281#6404000007000000
(1763084563.054055) can0 682#3F471D040000BD00
(1763084563.057376) can0 188#0C00473300000000
(1763084563.058133) can0 288#2C29053400140000
(1763084563.058365) can0 189#FB0221025A010551
(1763084563.059142) can0 388#1E1F1E1C1F000000
(1763084563.060099) can0 191#979797979796
(1763084563.061074) can0 192#979797979797
(1763084563.061932) can0 000A0003#00250230114E0000
(1763084563.062216) can0 000A0004#005CFFDD02218E02
(1763084563.062412) can0 193#979797979797
(1763084563.063097) can0 194#979797979797
(1763084563.064098) can0 195#979797979797
(1763084563.064754) can0 181#D10300207F000009
(1763084563.065095) can0 291#0E0F0F0F0F0F
(1763084563.066100) can0 292#0E0F0F0F100F
(1763084563.067114) can0 293#0F0F0F0F0F0F
(1763084563.067398) can0 482#6504050008360001
(1763084563.067736) can0 382#96020D009C020000
(1763084563.068103) can0 294#0E100F100F0F
(1763084563.068345) can0 186#29064C1D090A0000
(1763084563.068869) can0 189#F3021C0259010551
(1763084563.069121) can0 295#0E0E0F0F0F0E
(1763084563.069992) can0 701#05
(1763084563.071936) can0 000A0003#00200221114D0000
(1763084563.072220) can0 000A0004#0058FFDD02228E02
(1763084563.078350) can0 189#EF021B025B010551
(1763084563.081944) can0 000A0003#0019020D114B0000
(1763084563.082228) can0 000A0004#0053FFDF02258E02
(1763084563.084914) can0 4C4#04E8050504E404F3
(1763084563.085930) can0 4C5#04FF04FA04F104E5
(1763084563.086940) can0 4C6#04ED04EE04EE04EE
(1763084563.087955) can0 4C7#04FB04F004E904E7
(1763084563.088343) can0 189#EA02180259010451
(1763084563.088984) can0 4C8#04B5000000000000
(1763084563.089221) can0 382#680293FF63020000
(1763084563.089411) can0 701#05
(1763084563.089778) can0 482#6504050008360001
(1763084563.091945) can0 000A0003#0019020F114D0000
(1763084563.092229) can0 000A0004#0045FFDE02298E02
(1763084563.093434) can0 1A3#C013DA0A000000
(1763084563.094802) can0 682#3F471E040000BA00
(1763084563.097651) can0 281#6704000006000000
(1763084563.098341) can0 189#E70216025A010451
(1763084563.101945) can0 000A0003#001A020E11510000
(1763084563.102228) can0 000A0004#0036FFE402328E02
(1763084563.102856) can0 181#D10300207F000009
(1763084563.105064) can0 1A2#000E350C000000
(1763084563.105292) can0 2A1#1E1D1C1C1B1B1B1B
(1763084563.108330) can0 186#9E054C1D090B0000
(1763084563.108768) can0 382#98025D0063020000
(1763084563.108999) can0 189#E70217025A010451
(1763084563.111941) can0 000A0003#0007020811560000
(1763084563.112222) can0 000A0004#0029FFEA02378E02
(1763084563.112436) can0 1A0#000000000000
(1763084563.112960) can0 000A0000#0000000000000000
(1763084563.113260) can0 000A0001#0000000000000000
(1763084563.113558) can0 000A0002#0000000000000000
(1763084563.113676) can0 701#05
(1763084563.113919) can0 482#6204040008360001
(1763084563.116832) can0 1A4#0016510A000000
(1763084563.117059) can0 2A3#1416161616161513
(1763084563.118342) can0 189#E702180259010451
(1763084563.121945) can0 000A0003#FFEB0200115D0000
(1763084563.122230) can0 000A0004#001AFFF702418E02
(1763084563.128339) can0 189#E7021D025C010551
(1763084563.131948) can0 000A0003#FFD501F511720000
(1763084563.132230) can0 000A0004#000E0006024A8E02
(1763084563.132997) can0 382#2A0246002D020000
(1763084563.134735) can0 1A5#000C240D000000
(1763084563.135517) can0 701#05
(1763084563.135978) can0 482#5C04040008360001
(1763084563.136315) can0 682#3F471E040000B500
(1763084563.138341) can0 189#E80220025B010551
(1763084563.141222) can0 181#D10300207F000009
(1763084563.141519) can0 281#5904000006000000
(1763084563.141949) can0 000A0003#FFC001F811860000
(1763084563.142235) can0 000A0004#000B001302558E02
(1763084563.148357) can0 186#2E064C1D090C0000
(1763084563.148857) can0 189#EB0225025A010551
(1763084563.149689) can0 080#
(1763084563.150141) can0 4C4#04E8050504E404F3
(1763084563.150841) can0 286#0000900100000000
(1763084563.151156) can0 4C5#04FF04FA04F104E5
(1763084563.151945) can0 000A0003#FFA3020611930000
(1763084563.152231) can0 000A0004#000B001A025B8E02
(1763084563.152464) can0 4C6#04ED04EE04EE04EE
(1763084563.153183) can0 4C7#04FB04F004E904E7
(1763084563.154210) can0 4C8#04B5000000000000
(1763084563.154731) can0 382#7402210065020000
(1763084563.157354) can0 188#0C006E3200000000
(1763084563.158126) can0 288#2C29053300140000
(1763084563.158357) can0 189#F00229025A010551
(1763084563.158596) can0 19A#00007E6E6F7C7E7E
(1763084563.159129) can0 29A#8175837F82830000
(1763084563.159367) can0 388#1E1F1E1C1F000000
(1763084563.159964) can0 701#05
(1763084563.160153) can0 191#979797979796
(1763084563.160426) can0 482#5E04050008360001
(1763084563.161086) can0 192#979797979797
(1763084563.161939) can0 000A0003#FF79021A11A70000
(1763084563.162229) can0 000A0004#000D001E02668E02
(1763084563.162423) can0 193#979797979797
(1763084563.163106) can0 194#979797979797
(1763084563.164075) can0 195#979797979797
(1763084563.165103) can0 291#0E0F0F0F0F0F
(1763084563.166108) can0 292#0E0F0F0F100F
(1763084563.167123) can0 293#0F0F0F0F0F0F
(1763084563.168112) can0 294#0E100F100F0F
(1763084563.168346) can0 189#F6022C025A010551
(1763084563.169098) can0 295#0E0E0F0F0F0E
(1763084563.171944) can0 000A0003#FF5C025A11AD0000
(1763084563.172230) can0 000A0004#0008001E026E8E02
(1763084563.176675) can0 682#3F471E040000B200
(1763084563.176929) can0 382#53029EFF65020000
(1763084563.178340) can0 189#F8022F025B010551
(1763084563.181949) can0 000A0003#FF48028311B10000
(1763084563.182240) can0 000A0004#0006001F02738E02
(1763084563.182482) can0 482#6804050008360001
(1763084563.182603) can0 701#05
(1763084563.182919) can0 181#D10300207F000009
(1763084563.184988) can0 281#6804000006000000
(1763084563.188326) can0 186#F5064C1D090D0000
(1763084563.188854) can0 189#F9022E025A010551
(1763084563.191954) can0 000A0003#FF5002AE11940000
(1763084563.192238) can0 000A0004#0003001D02798E02
(1763084563.194432) can0 1A3#C0113E0A000000
(1763084563.198339) can0 189#F9022C025C010551
(1763084563.198578) can0 382#8D020C00B2020000
(1763084563.201948) can0 000A0003#FF6702D111780000
(1763084563.202234) can0 000A0004#00010015027C8E02
(1763084563.203840) can0 701#05
(1763084563.206598) can0 482#6204050008360001
(1763084563.208337) can0 189#F90226025B010551
(1763084563.211950) can0 000A0003#FF7102C7112E0000
(1763084563.212239) can0 000A0004#0005000E02808E02
(1763084563.212451) can0 1A0#000000000000
(1763084563.212673) can0 1A2#000F350C000000
(1763084563.212973) can0 000A0000#0000000000000000
(1763084563.213273) can0 000A0001#0000000000000000
(1763084563.213571) can0 000A0002#0000000000000000
(1763084563.213799) can0 2A1#1D1D1C1C1B1B1A1A
(1763084563.215354) can0 4C4#04E9050604EA04F9
(1763084563.216366) can0 4C5#04FC04FF04F604E6
(1763084563.217378) can0 4C6#04EE04E604EF04F4
(1763084563.218334) can0 189#F40221025B010551
(1763084563.218566) can0 4C7#04FB04F504EA04ED
(1763084563.219422) can0 4C8#04B6000000000000
(1763084563.220252) can0 382#82022C00B2020000
(1763084563.220586) can0 181#D10300207F000009
(1763084563.221021) can0 682#3F471E040000B400
(1763084563.221947) can0 000A0003#FF7702C110FF0000
(1763084563.222239) can0 000A0004#0009000A02818E02
(1763084563.223875) can0 1A4#C013EB09000000
(1763084563.224101) can0 2A3#1417171716161513
(1763084563.225455) can0 701#05
(1763084563.228324) can0 186#23064C1D090E0000
(1763084563.228567) can0 281#6104000007000000
(1763084563.228866) can0 482#6104050008360001
(1763084563.229099) can0 189#EF021F025B010551
(1763084563.231953) can0 000A0003#FF8D02AB10D10000
(1763084563.232238) can0 000A0004#0016000702828E02
(1763084563.236885) can0 1A5#000CAA0E000000
(1763084563.238332) can0 189#EC021F025B010551
(1763084563.241948) can0 000A0003#FFA9028F10A60000
(1763084563.242234) can0 000A0004#001A000102848E02
(1763084563.242471) can0 382#9802630061020000
(1763084563.247298) can0 701#05
(1763084563.248353) can0 189#EB021F025B010551
(1763084563.248691) can0 080#
(1763084563.249843) can0 286#0000900100000000
(1763084563.250510) can0 482#5F04050008360001
(1763084563.251957) can0 000A0003#FF9D027D10910000
(1763084563.252242) can0 000A0004#0016000202898E02
(1763084563.257374) can0 188#0C00FF3200000000
(1763084563.258147) can0 288#2B29052B00140000
(1763084563.258382) can0 189#ED021F025B010551
(1763084563.258624) can0 181#D10300207F000009
(1763084563.259129) can0 388#1E1F1E1C1F000000
(1763084563.260066) can0 191#979797979796
(1763084563.261077) can0 192#979797979797
(1763084563.261419) can0 682#3F471E040000B300
(1763084563.261959) can0 000A0003#FF95027210840000
(1763084563.262252) can0 000A0004#000F0002028B8E02
(1763084563.262445) can0 193#979797979797
(1763084563.263082) can0 194#979797979797
(1763084563.264034) can0 382#7102F3FF61020000
(1763084563.264224) can0 195#979797979797
(1763084563.265110) can0 291#0E0F0F0F0F0F
(1763084563.266115) can0 292#0E0F0F10100F
(1763084563.267126) can0 293#0E0F0F0F0F0F
(1763084563.268089) can0 294#0E100F100F0F
(1763084563.268326) can0 186#13064C1D090F0000
(1763084563.268892) can0 189#EB021F025A010551
(1763084563.269105) can0 295#0E0E0F0F0F0E
(1763084563.269271) can0 701#05
(1763084563.271957) can0 000A0003#FF93025F10930000
(1763084563.272245) can0 000A0004#0004FFFF02908E02
(1763084563.272491) can0 281#6104000006000000
(1763084563.272768) can0 482#6104050008360001
(1763084563.278330) can0 189#ED0223025A010551
(1763084563.280571) can0 4C4#04F5050604E504F4
(1763084563.281586) can0 4C5#050004FB04F604E6
(1763084563.281956) can0 000A0003#FF95024D10A00000
(1763084563.282240) can0 000A0004#FFFAFFFB02978E02
(1763084563.282596) can0 4C6#04EA04F304F304F4
(1763084563.283618) can0 4C7#050404FA04EA04FD
(1763084563.284643) can0 4C8#04B6000000000000
(1763084563.285662) can0 382#5E02F3FF5A020000
(1763084563.288329) can0 189#EE0223025B010551
(1763084563.291102) can0 701#05
(1763084563.291957) can0 000A0003#FF92023A108F0000
(1763084563.292245) can0 000A0004#FFFAFFFC02A08E02
(1763084563.294058) can0 482#6804050008360001
(1763084563.295447) can0 1A3#C0113E0A000000
(1763084563.296885) can0 181#D10300207F000009
(1763084563.298330) can0 189#EF0223025A010551
(1763084563.301961) can0 000A0003#FF8F021E10770000
(1763084563.302245) can0 000A0004#FFF5FFFC02A78E02
(1763084563.302486) can0 682#3F471E040000B000
(1763084563.307721) can0 382#300246005A020000
(1763084563.308319) can0 186#3D064C1D09000000
(1763084563.308849) can0 189#ED02230259010551
(1763084563.311963) can0 000A0003#FF79020D105E0000
(1763084563.312246) can0 000A0004#FFF0FFFA02AE8E02
(1763084563.312459) can0 1A0#000000000000
(1763084563.312977) can0 000A0000#0000000000000000
(1763084563.313276) can0 000A0001#0000000000000000
(1763084563.313575) can0 000A0002#0000000000000000
(1763084563.313691) can0 701#05
(1763084563.315689) can0 281#6204000006000000
(1763084563.316002) can0 482#6204050008360001
(1763084563.318325) can0 189#ED0224025B010551
(1763084563.320123) can0 1A2#C013D10C000000
(1763084563.320350) can0 2A1#1D1D1C1C1B1B1A1A
(1763084563.321959) can0 000A0003#FF5B020310450000
(1763084563.322246) can0 000A0004#FFE4FFF302B38E02
(1763084563.328330) can0 189#EF0224025A010551
(1763084563.329541) can0 382#54026B006B020000
(1763084563.330899) can0 1A4#0018C409000000
(1763084563.331128) can0 2A3#1417171716161413
(1763084563.331967) can0 000A0003#FF3D01F0102D0000
(1763084563.332253) can0 000A0004#FFE0FFEE02BA8E02
(1763084563.334524) can0 701#05
(1763084563.337620) can0 482#5C04050008360001
(1763084563.337979) can0 181#D10300207F000009
(1763084563.338321) can0 189#F20225025A010551
(1763084563.339023) can0 1A5#000ECD0E000000
(1763084563.341960) can0 000A0003#FF1101D5100A0000
(1763084563.342248) can0 000A0004#FFD6FFE602BF8E02
(1763084563.343293) can0 682#3F471E040000AF00
(1763084563.345786) can0 4C4#04F5050604E504F4
(1763084563.346800) can0 4C5#050004FB04F604E6
(1763084563.347147) can0 19A#00007E786F7F7F7F
(1763084563.347812) can0 4C6#04EA04F304F304F4
(1763084563.348148) can0 29A#806E827F83840000
(1763084563.348382) can0 186#73064C1D09010000
(1763084563.348830) can0 4C7#050404FA04EA04FD
(1763084563.349061) can0 189#F502230259010551
(1763084563.349707) can0 080#
(1763084563.349951) can0 4C8#04B6000000000000
(1763084563.350859) can0 286#0000900100000000
(1763084563.351280) can0 382#48022B006B020000
(1763084563.351967) can0 000A0003#FEF901C20FE00000
(1763084563.352251) can0 000A0004#FFD7FFE502C38E02
(1763084563.356398) can0 701#05
(1763084563.357390) can0 188#0C003E3300000000
(1763084563.358124) can0 288#2D29053400140000
(1763084563.358354) can0 189#F70223025A010551
(1763084563.359142) can0 388#1E1F1E1C1F000000
(1763084563.359790) can0 281#5F04000006000000
(1763084563.360093) can0 191#979797979797
(1763084563.361100) can0 192#979797979797
(1763084563.361963) can0 000A0003#FEE901B40FB40000
(1763084563.362249) can0 000A0004#FFD3FFE302C78E02
(1763084563.362443) can0 193#979797979797
(1763084563.362684) can0 482#6104050008360001
(1763084563.363089) can0 194#979797979797
(1763084563.364089) can0 195#979797979797
(1763084563.365118) can0 291#0E0F0F0F0F0F
(1763084563.366121) can0 292#0E0F0F0F100F
(1763084563.367107) can0 293#0F0F0F0F0F0F
(1763084563.368104) can0 294#0F0F0F100F0F
(1763084563.368334) can0 189#F602210259010551
(1763084563.369114) can0 295#0E0F0F0F0F0E
(1763084563.370810) can0 382#7102270080020000
(1763084563.371969) can0 000A0003#FEE0018A0FB40000
(1763084563.372252) can0 000A0004#FFD6FFE602CB8E02
(1763084563.375853) can0 181#D10300207F000009
(1763084563.378324) can0 189#F70220025B010551
(1763084563.378543) can0 701#05
(1763084563.381968) can0 000A0003#FED2014D0FB40000
(1763084563.382251) can0 000A0004#FFD2FFEC02CA8E02
(1763084563.384138) can0 482#6104050008360001
(1763084563.384466) can0 682#3F471D040000B100
(1763084563.388311) can0 186#3A064C1D09020000
(1763084563.388869) can0 189#F7021B025C010551
(1763084563.391964) can0 000A0003#FEE201350FD80000
(1763084563.392253) can0 000A0004#FFD1FFFC02CF8E02
(1763084563.395053) can0 382#41020C0069020000
(1763084563.396435) can0 1A3#00183E0A000000
(1763084563.398319) can0 189#F7021C025B010551
(1763084563.400058) can0 701#05
(1763084563.401967) can0 000A0003#FEF501310FFA0000
(1763084563.402257) can0 000A0004#FFCDFFFE02D08E02
(1763084563.405768) can0 281#5404000006000000
(1763084563.406084) can0 482#5404050008360001
(1763084563.408319) can0 189#F7021B025A010551
(1763084563.411001) can0 4C4#04F504FC04E504F9
(1763084563.411980) can0 000A0003#FEE70139104A0000
(1763084563.412268) can0 000A0004#FFD0000302D58E02
(1763084563.412480) can0 1A0#000000000000
(1763084563.412716) can0 4C5#050004FF04EE04E6
(1763084563.413016) can0 000A0000#0000000000000000
(1763084563.413316) can0 000A0001#0000000000000000
(1763084563.413614) can0 000A0002#0000000000000000
(1763084563.413848) can0 4C6#04E604EF04EF04F4
(1763084563.414090) can0 181#D10300207F000009
(1763084563.414324) can0 4C7#050004FA04EA04E8
(1763084563.415086) can0 4C8#04B6000000000000
(1763084563.416773) can0 382#2D02390069020000
(1763084563.418317) can0 189#F7021F0259010551
(1763084563.421971) can0 000A0003#FEC4014710A70000
(1763084563.422253) can0 000A0004#FFCE000502D88E02
(1763084563.422369) can0 701#05
(1763084563.425178) can0 682#3F471E040000B100
(1763084563.427650) can0 1A2#C013350C000000
(1763084563.427877) can0 2A1#1D1D1C1C1B1A1A1A
(1763084563.428119) can0 482#5B04050008360001
(1763084563.428353) can0 186#C8064C1D09030000
(1763084563.428892) can0 189#FE02270258010551
(1763084563.431970) can0 000A0003#FEC4017610ED0000
(1763084563.432254) can0 000A0004#FFD1000A02DC8E02
(1763084563.437915) can0 1A4#C00FBF09000000
(1763084563.438144) can0 2A3#1417171616161413
(1763084563.438380) can0 189#07032D025A010651
(1763084563.438835) can0 382#B0025200A1020000
(1763084563.441174) can0 1A5#C011AA0E000000
(1763084563.441971) can0 000A0003#FECF019F11130000
(1763084563.442255) can0 000A0004#FFCF000902DB8E02
(1763084563.443825) can0 701#05
(1763084563.448337) can0 189#0F0332025A010651
(1763084563.448706) can0 080#
(1763084563.449553) can0 281#6A04000007000000
(1763084563.449857) can0 286#0000900100000000
(1763084563.450100) can0 482#6A04050008360001
(1763084563.451975) can0 000A0003#FED601D8113D0000
(1763084563.452259) can0 000A0004#FFD0FFFE02DF8E02
(1763084563.452509) can0 181#D10300207F000009
(1763084563.457363) can0 188#0C00233300000000
(1763084563.458130) can0 288#2D29053600140000
(1763084563.458362) can0 189#1303350259010651
(1763084563.459152) can0 388#1E1F1E1C1F000000
(1763084563.460087) can0 191#979797979797
(1763084563.460566) can0 382#7502E4FFA1020000
(1763084563.461088) can0 192#979797979797
(1763084563.461974) can0 000A0003#FECA020C11600000
(1763084563.462257) can0 000A0004#FFCEFFFB02E28E02
(1763084563.462451) can0 193#979797979797
(1763084563.463094) can0 194#979797979797
(1763084563.464093) can0 195#979797979797
(1763084563.465123) can0 291#0E0F0F0F0F0F
(1763084563.465656) can0 701#05
(1763084563.466096) can0 292#0E0F0F0F100F
(1763084563.466340) can0 682#3F471E040000B500
(1763084563.467111) can0 293#0F0F0F0F0F0F
(1763084563.468092) can0 294#0F0F0F100F0F
(1763084563.468329) can0 186#EF074C1D09040000
(1763084563.468876) can0 189#1403350258010651
(1763084563.469117) can0 482#6B04050008360001
(1763084563.469327) can0 295#0E0F0F0F0F0E
(1763084563.471974) can0 000A0003#FEC1022F11470000
(1763084563.472257) can0 000A0004#FFD1FFF402E68E02
(1763084563.476243) can0 4C4#04F504FC04E504F9
(1763084563.477256) can0 4C5#050004FF04EE04E6
(1763084563.478269) can0 4C6#04E604EF04EF04F4
(1763084563.478501) can0 189#130335025B010651
(1763084563.479285) can0 4C7#050004FA04EA04E8
(1763084563.479784) can0 382#FA020D0013030000
(1763084563.480308) can0 4C8#04B6000000000000
(1763084563.481980) can0 000A0003#FEBB024011250000
(1763084563.482266) can0 000A0004#FFCDFFF002E78E02
(1763084563.487412) can0 701#05
(1763084563.488313) can0 189#0E0330025A010651
(1763084563.491978) can0 000A0003#FEAE024D11140000
(1763084563.492260) can0 000A0004#FFC9FFEC02EB8E02
(1763084563.493211) can0 482#6304060008360001
(1763084563.493650) can0 181#D10300207F000009
(1763084563.493898) can0 281#6304000008000000
(1763084563.497432) can0 1A3#000C5B0A000000
(1763084563.498308) can0 189#04032A025A010651
(1763084563.501505) can0 382#10038CFF13030000
(1763084563.501971) can0 000A0003#FE99025211130000
(1763084563.502257) can0 000A0004#FFC4FFEC02EB8E02
(1763084563.507076) can0 682#3F471C040000BE00
(1763084563.507195) can0 701#05
(1763084563.508301) can0 186#A9064C1D09050000
(1763084563.508866) can0 189#FB02250259010551
(1763084563.511980) can0 000A0003#FE9F024911100000
(1763084563.512265) can0 000A0004#FFC6FFED02EE8E02
(1763084563.512477) can0 1A0#000000000000
(1763084563.512993) can0 000A0000#0000000000000000
(1763084563.513293) can0 000A0001#0000000000000000
(1763084563.513591) can0 000A0002#0000000000000000
(1763084563.517783) can0 482#5A04050008360001
(1763084563.518308) can0 189#F702200259010551
(1763084563.521986) can0 000A0003#FEC2022A11070000
(1763084563.522270) can0 000A0004#FFD0FFF202EF8E02
(1763084563.523225) can0 382#8002A3FF94020000
(1763084563.528311) can0 189#F5021F025A010551
(1763084563.531084) can0 701#05
(1763084563.531535) can0 181#D10300207F000009
(1763084563.531979) can0 000A0003#FEE4021C10F90000
(1763084563.532264) can0 000A0004#FFD8FFF802F08E02
(1763084563.535183) can0 1A2#C011350C000000
(1763084563.535412) can0 2A1#1D1C1C1C1B1A1A1A
(1763084563.536882) can0 281#5404000007000000
(1763084563.538312) can0 189#F2021F0259010551
(1763084563.539738) can0 482#5204050008360001
(1763084563.541455) can0 4C4#04EF050604EA04F9
(1763084563.541975) can0 000A0003#FF03021610E90000
(1763084563.542265) can0 000A0004#FFD7000002EF8E02
(1763084563.542506) can0 382#7402540094020000
(1763084563.542740) can0 4C5#050004FB04F204E6
(1763084563.543313) can0 1A5#8013300E000000
(1763084563.543543) can0 4C6#04EA04EA04EF04EB
(1763084563.544495) can0 4C7#050004F504EA04F2
(1763084563.544930) can0 1A4#C010BF09000000
(1763084563.545156) can0 2A3#1417171615161513
(1763084563.545523) can0 4C8#04B6000000000000
(1763084563.548056) can0 682#3F471D040000BB00
(1763084563.548341) can0 186#1A064C1D09060000
(1763084563.548860) can0 189#F1021D0258010551
(1763084563.549664) can0 080#
(1763084563.550844) can0 286#0000900100000000
(1763084563.551984) can0 000A0003#FF09020E10D20000
(1763084563.552268) can0 000A0004#FFD4000502EE8E02
(1763084563.553143) can0 19A#00007F6A7B7F8281
(1763084563.553259) can0 701#05
(1763084563.554146) can0 29A#8072838083840000
(1763084563.557378) can0 188#0C00D23200000000
(1763084563.558136) can0 288#2929053300140000
(1763084563.558369) can0 189#F1021F025A010551
(1763084563.559162) can0 388#1E1F1E1C1F000000
(1763084563.560106) can0 191#979797979796
(1763084563.561085) can0 192#979797979797
(1763084563.561562) can0 482#5804050008360001
(1763084563.561987) can0 000A0003#FEFF01FA109F0000
(1763084563.562272) can0 000A0004#FFD1000E02EF8E02
(1763084563.562467) can0 193#979797979797
(1763084563.563103) can0 194#979797979797
(1763084563.564105) can0 195#979797979797
(1763084563.564342) can0 382#770244005D020000
(1763084563.565103) can0 291#0E0F0F0F0F0F
(1763084563.566107) can0 292#0E0F0F0F100F
(1763084563.567121) can0 293#0F0F0F0F0F0F
(1763084563.568118) can0 294#0E0F0F100F0F
(1763084563.568354) can0 189#EF021F0258010551
(1763084563.569125) can0 295#0E0E0F0F0F0E
(1763084563.569658) can0 181#D10300207F000009
(1763084563.571988) can0 000A0003#FF0601F2107C0000
(1763084563.572270) can0 000A0004#FFCC001102F28E02
(1763084563.574845) can0 701#05
(1763084563.578349) can0 189#F0021F025B010551
(1763084563.580574) can0 281#5704000006000000
(1763084563.581991) can0 000A0003#FF2D01FF10620000
(1763084563.582276) can0 000A0004#FFCD001302F48E02
(1763084563.583527) can0 482#5904050008360001
(1763084563.583862) can0 382#3202F4FF5D020000
(1763084563.588300) can0 186#3E064C1D09070000
(1763084563.588854) can0 189#F00222025A010551
(1763084563.589091) can0 682#3F471E040000B700
(1763084563.591991) can0 000A0003#FF3501FD10570000
(1763084563.592278) can0 000A0004#FFD2001102F68E02
(1763084563.598305) can0 189#F10225025C010551
(1763084563.598526) can0 1A3#C00FB30A000000
(1763084563.599438) can0 701#05
(1763084563.601997) can0 000A0003#FF2801EB104E0000
(1763084563.602283) can0 000A0004#FFD7000D02FC8E02
(1763084563.605109) can0 382#710247006B020000
(1763084563.605478) can0 482#6004050008360001
(1763084563.606662) can0 4C4#04E9050104EA04F9
(1763084563.607677) can0 4C5#050004F604F204E6
(1763084563.608303) can0 189#F102280259010551
(1763084563.608689) can0 4C6#04EE04EF04F304EF
(1763084563.609704) can0 4C7#050404F504EF04F2
(1763084563.610591) can0 181#D10300207F000009
(1763084563.610835) can0 4C8#04B6000000000000
(1763084563.611989) can0 000A0003#FF2B01E5105C0000
(1763084563.612277) can0 000A0004#FFDA000303058E02
(1763084563.612489) can0 1A0#000000000000
(1763084563.613004) can0 000A0000#0000000000000000
(1763084563.613303) can0 000A0001#0000000000000000
(1763084563.613601) can0 000A0002#0000000000000000
(1763084563.618303) can0 189#F2022A0259010551
(1763084563.621477) can0 701#05
(1763084563.621995) can0 000A0003#FF4101F1106D0000
(1763084563.622285) can0 000A0004#FFD8FFFE03048E02
(1763084563.624356) can0 281#6304000006000000
(1763084563.627019) can0 482#6504050008360001
(1763084563.627322) can0 382#6B02FFFF6B020000
(1763084563.628286) can0 186#A3064C1D09080000
(1763084563.628866) can0 189#F2022B0258010551
(1763084563.631992) can0 000A0003#FF4901FA10960000
(1763084563.632276) can0 000A0004#FFD9FFF7030D8E02
(1763084563.632530) can0 682#3F471D040000B300
(1763084563.638298) can0 189#F2022C0259010551
(1763084563.641995) can0 000A0003#FF1F01F210E20000
(1763084563.642278) can0 000A0004#FFD9FFF803158E02
(1763084563.642690) can0 1A2#0018F00B000000
(1763084563.642922) can0 2A1#1D1C1C1C1B1B1A1A
(1763084563.643097) can0 701#05
(1763084563.645447) can0 1A5#000FBB0D000000
(1763084563.648316) can0 189#F2022C0259010551
(1763084563.648807) can0 482#6B04050008360001
(1763084563.648912) can0 080#
(1763084563.649146) can0 382#7902ECFF93020000
(1763084563.649490) can0 181#D10300207F000009
(1763084563.649846) can0 286#0000900100000000
(1763084563.651998) can0 000A0003#FF0201FA11410000
(1763084563.652284) can0 000A0004#FFE0FFF4031C8E02
(1763084563.652510) can0 1A4#800F120A000000
(1763084563.652736) can0 2A3#1416161615161513
(1763084563.658295) can0 189#F1022C025B010551
(1763084563.662005) can0 000A0003#FEFB021311870000
(1763084563.662276) can0 000A0004#FFE4FFF703228E02
(1763084563.664936) can0 701#05
(1763084563.666331) can0 188#0C00083300000000
(1763084563.667130) can0 288#29290C2400140000
(1763084563.667902) can0 281#6604000007000000
(1763084563.668142) can0 388#1E1F1E1C1F000000
(1763084563.668374) can0 186#90064C1D09090000
(1763084563.668884) can0 189#F002290259010551
(1763084563.669084) can0 191#979797979796
(1763084563.670095) can0 192#979797979797
(1763084563.670749) can0 382#B902270093020000
(1763084563.671104) can0 193#979797979797
(1763084563.671346) can0 482#6004050008360001
(1763084563.671882) can0 4C4#04E9050104EA04F9
(1763084563.672168) can0 000A0003#FEEB024211E20000
(1763084563.672455) can0 000A0004#FFE1FFFE032B8E02
(1763084563.672650) can0 194#979797979797
(1763084563.672892) can0 4C5#050004F604F204E6
(1763084563.673084) can0 195#979797979797
(1763084563.673584) can0 682#3F471D040000B600
(1763084563.673904) can0 4C6#04EE04EF04F304EF
(1763084563.674117) can0 291#0E0F0F0F0F0F
(1763084563.674919) can0 4C7#050404F504EF04F2
(1763084563.675129) can0 292#0E0F0F0F100F
(1763084563.675947) can0 4C8#04B6000000000000
(1763084563.676163) can0 293#0F0F0F0F0F0F
(1763084563.677097) can0 294#0E0F0F100F0F
(1763084563.678105) can0 295#0E0E0F0F0F0E
(1763084563.678337) can0 189#EF02280258010551
(1763084563.681995) can0 000A0003#FECD0288122A0000
(1763084563.682280) can0 000A0004#FFDA000103358E02
(1763084563.686685) can0 701#05
(1763084563.687134) can0 181#D10300207F000009
(1763084563.688294) can0 189#F1022A025A010551
(1763084563.689992) can0 482#5504050008360001
(1763084563.690330) can0 382#9E0289FF8B020000
(1763084563.691996) can0 000A0003#FEBA02C112620000
(1763084563.692283) can0 000A0004#FFD0000503408E02
(1763084563.698296) can0 189#F2022D025B010551
(1763084563.699455) can0 1A3#000E600A000000
(1763084563.701998) can0 000A0003#FEB702DA12750000
(1763084563.702284) can0 000A0004#FFCC000703488E02
(1763084563.708279) can0 186#E5064C1D090A0000
(1763084563.708740) can0 701#05
(1763084563.708974) can0 189#F7022F025B010551
(1763084563.711493) can0 382#B00285FF8B020000
(1763084563.711818) can0 281#5904000007000000
(1763084563.712101) can0 000A0003#FEAC02F1127F0000
(1763084563.712385) can0 000A0004#FFCC000903528E02
(1763084563.712597) can0 1A0#000000000000
(1763084563.712838) can0 482#5904050008360001
(1763084563.713138) can0 000A0000#0000000000000000
