(1763088079.179424) can0 194#969797989797
(1763088079.179503) can0 382#D019D3FEF0180000
(1763088079.178380) can0 195#959696979694
(1763088079.179405) can0 291#171C1E1E1E1A
(1763088079.180356) can0 292#191D201F1F1A
(1763088079.181362) can0 293#181C1F1E1D1A
(1763088079.182367) can0 294#181D1E1E1E1A
(1763088079.183070) can0 281#6B09000040000000
(1763088079.183374) can0 295#181B1D1C1C18
(1763088079.183616) can0 181#D10300207F000009
(1763088079.183855) can0 186#09414C1D09020000
(1763088079.185761) can0 000A0003#F9490230130D0000
(1763088079.186045) can0 000A0004#FFB7FF11FF818E02
(1763088079.188211) can0 701#05
(1763088079.188762) can0 482#5F09330008360001
(1763088079.193590) can0 1A3#C023EB09000000
(1763088079.195760) can0 000A0003#FA25009D13500000
(1763088079.196050) can0 000A0004#FFC5FF07FF778E02
(1763088079.199569) can0 382#F11949FF34190000
(1763088079.205765) can0 000A0003#FAB6FF7113410000
(1763088079.206046) can0 000A0004#FFC6FEF9FF6D8E02
(1763088079.207970) can0 482#4109330008360001
(1763088079.208090) can0 701#05
(1763088079.213105) can0 682#4A50F7030000A008
(1763088079.213505) can0 4C4#054E057F056405A4
(1763088079.214512) can0 4C5#05AF05A405940584
(1763088079.215529) can0 4C6#059105970598059E
(1763088079.215814) can0 000A0003#FAFDFECD131C0000
(1763088079.216103) can0 000A0004#FFC3FEF3FF6D8E02
(1763088079.216542) can0 4C7#05A90574053C0528
(1763088079.217574) can0 4C8#0582000000000000
(1763088079.221294) can0 382#7119D2FE34190000
(1763088079.221633) can0 181#D10300207F000009
(1763088079.223529) can0 186#D6404C1D09030000
(1763088079.225388) can0 1A0#000000000000
(1763088079.225771) can0 000A0003#FB45FDE213180000
(1763088079.226053) can0 000A0004#FFBAFEF7FF6F8E02
(1763088079.226783) can0 000A0000#0000000000000000
(1763088079.227083) can0 000A0001#0000000000000000
(1763088079.227382) can0 000A0002#0000000000000000
(1763088079.227625) can0 281#4509000041000000
(1763088079.228490) can0 1A2#C01F420F000000
(1763088079.228718) can0 1A5#C01FFC0A000000
(1763088079.228949) can0 2A1#18191A1917151210
(1763088079.231974) can0 701#05
(1763088079.232336) can0 482#5209330008360001
(1763088079.233791) can0 1A4#C0231909000000
(1763088079.234020) can0 2A3#121716171513100E
(1763088079.235767) can0 000A0003#FB4DFD04132D0000
(1763088079.236049) can0 000A0004#FFB5FEF8FF768E02
(1763088079.243351) can0 382#CE18C30020190000
(1763088079.245772) can0 000A0003#FB86FC3513500000
(1763088079.246053) can0 000A0004#FFB8FEFEFF768E02
(1763088079.254049) can0 682#4A50F40300006209
(1763088079.254170) can0 701#05
(1763088079.254534) can0 482#6C09330008360001
(1763088079.255763) can0 000A0003#FC25FAA913A30000
(1763088079.256046) can0 000A0004#FFB8FF07FF788E02
(1763088079.256944) can0 19A#00007F7B787F807F
(1763088079.257946) can0 29A#8264848183840000
(1763088079.262355) can0 181#D10300207F000009
(1763088079.263563) can0 186#BE3F4C1D09040000
(1763088079.263896) can0 189#020729054C013651
(1763088079.264702) can0 080#
(1763088079.265314) can0 382#E818EC0020190000
(1763088079.265768) can0 000A0003#FCBDF97513B30000
(1763088079.266047) can0 000A0004#FFB6FF15FF798E02
(1763088079.266293) can0 286#0000580200000000
(1763088079.270454) can0 281#6609000040000000
(1763088079.271629) can0 188#0C007B0000000000
(1763088079.272407) can0 288#C827E82101340000
(1763088079.273425) can0 388#2828290000000000
(1763088079.274376) can0 191#8A8A8C8B8B87
(1763088079.275354) can0 192#8B8B8D8D8A8C
(1763088079.275771) can0 000A0003#FD51F8D513A20000
(1763088079.276053) can0 000A0004#FFB5FF1EFF798E02
(1763088079.276180) can0 701#05
(1763088079.276361) can0 193#888B8D8B8B8B
(1763088079.276597) can0 482#6309320008360001
(1763088079.277368) can0 194#8A8C8C8D8C8C
(1763088079.278372) can0 195#898B8C8D8B89
(1763088079.278624) can0 4C4#0553057F056805A4
(1763088079.279360) can0 291#171C1E1E1E1B
(1763088079.279638) can0 4C5#05AF05A80597058A
(1763088079.280365) can0 292#191D201F1F1A
(1763088079.280653) can0 4C6#05940597059B05A2
(1763088079.281364) can0 293#191C1F1E1E1A
(1763088079.281673) can0 4C7#05B3057405400537
(1763088079.282372) can0 294#191D1F1E1E1A
(1763088079.282697) can0 4C8#0582000000000000
(1763088079.283385) can0 295#171C1D1C1C18
(1763088079.285781) can0 000A0003#FD53F91613700000
(1763088079.286061) can0 000A0004#FFB7FF18FF768E02
(1763088079.286820) can0 382#451875FFB4180000
(1763088079.294607) can0 1A3#C01F3E0A000000
(1763088079.294998) can0 682#4A50F5030000D009
(1763088079.295117) can0 701#05
(1763088079.295567) can0 482#8B09320008360001
(1763088079.295853) can0 000A0003#FCCFFA6A12ED0000
(1763088079.296140) can0 000A0004#FFBBFF1BFF758E02
(1763088079.300477) can0 181#D10300207F000009
(1763088079.303518) can0 186#D3344C1D09050000
(1763088079.305777) can0 000A0003#FC44FBC912BE0000
(1763088079.306061) can0 000A0004#FFB3FF12FF6E8E02
(1763088079.308869) can0 382#6118030059170000
(1763088079.314016) can0 281#9C09000035000000
(1763088079.315770) can0 000A0003#FBA7FD4913270000
(1763088079.316054) can0 000A0004#FFA8FF23FF6D8E02
(1763088079.316525) can0 701#05
(1763088079.316987) can0 482#9209290008360001
(1763088079.325300) can0 1A0#000000000000
(1763088079.325776) can0 000A0003#FB3EFDF1134F0000
(1763088079.326054) can0 000A0004#FF9DFF2EFF6B8E02
(1763088079.326792) can0 000A0000#0000000000000000
(1763088079.327092) can0 000A0001#0000000000000000
(1763088079.327392) can0 000A0002#0000000000000000
(1763088079.330629) can0 382#6D14880078140000
(1763088079.330849) can0 1A5#0027230B000000
(1763088079.335777) can0 000A0003#FAA0FE7113630000
(1763088079.336063) can0 000A0004#FF97FF3BFF788E02
(1763088079.336293) can0 1A2#C01F950F000000
(1763088079.336516) can0 2A1#181A191917151210
(1763088079.336754) can0 682#4A5000040000C909
(1763088079.336876) can0 701#05
(1763088079.338795) can0 482#5A09290008360001
(1763088079.340853) can0 1A4#0027ED08000000
(1763088079.341078) can0 2A3#121716171612100E
(1763088079.341447) can0 181#D10300207F000009
(1763088079.343518) can0 186#21224C1D09060000
(1763088079.343752) can0 4C4#054E057A056405A8
(1763088079.344764) can0 4C5#05AF05A80597058A
(1763088079.345774) can0 000A0003#FA6AFE96136F0000
(1763088079.346054) can0 000A0004#FF9EFF2DFF748E02
(1763088079.346286) can0 4C6#05940597059B05A2
(1763088079.346797) can0 4C7#05B3057405400537
(1763088079.347826) can0 4C8#0582000000000000
(1763088079.352580) can0 382#7C1198FF6A100000
(1763088079.355780) can0 000A0003#FAC5FE3F13700000
(1763088079.356061) can0 000A0004#FFA1FF36FF748E02
(1763088079.357475) can0 701#05
(1763088079.357824) can0 281#9F09000023000000
(1763088079.358140) can0 482#9F091C0008360001
(1763088079.363563) can0 189#0C0732054C013651
(1763088079.363764) can0 080#
(1763088079.364886) can0 286#0000580200000000
(1763088079.365776) can0 000A0003#FB57FDAA13650000
(1763088079.366058) can0 000A0004#FFADFF40FF718E02
(1763088079.371621) can0 188#0C007D0000000000
(1763088079.372418) can0 288#C827EFB200340000
(1763088079.373430) can0 388#2828290000000000
(1763088079.374354) can0 191#8A8A8C8B8B87
(1763088079.374596) can0 382#7A0DF5003A0D0000
(1763088079.375342) can0 192#8B8B8D8D8A8C
(1763088079.375782) can0 000A0003#FBFEFCF013420000
(1763088079.376068) can0 000A0004#FFBBFF5BFF758E02
(1763088079.376352) can0 193#888B8D8B8B8B
(1763088079.377356) can0 194#8A8C8C8D8C8C
(1763088079.378348) can0 195#898B8C8D8B89
(1763088079.379369) can0 291#171C1E1E1E1B
(1763088079.379486) can0 701#05
(1763088079.379779) can0 482#82091B0008360001
(1763088079.380108) can0 682#4A5019040000BC08
(1763088079.380371) can0 292#191D201F1F1A
(1763088079.380613) can0 181#D10300207F000009
(1763088079.381372) can0 293#191C1F1E1E1A
(1763088079.382380) can0 294#191D1F1E1E1A
(1763088079.383344) can0 295#171C1D1C1C18
(1763088079.383577) can0 186#A2214C1D09070000
(1763088079.385782) can0 000A0003#FC97FC4D13110000
(1763088079.386063) can0 000A0004#FFBBFF72FF768E02
(1763088079.395612) can0 1A3#C027B80A000000
(1763088079.395898) can0 000A0003#FCF1FBF912DE0000
(1763088079.396187) can0 000A0004#FFB3FF82FF738E02
(1763088079.396419) can0 382#AE0C4FFF080D0000
(1763088079.401367) can0 281#8F09000022000000
(1763088079.401487) can0 701#05
(1763088079.401728) can0 482#8F091A0008360001
(1763088079.405779) can0 000A0003#FD72FBB912790000
(1763088079.406062) can0 000A0004#FFA2FFA3FF708E02
(1763088079.408881) can0 4C4#054E0584056405A0
(1763088079.409886) can0 4C5#05A805A405940584
(1763088079.410903) can0 4C6#058E0594059805A2
(1763088079.411915) can0 4C7#05B0056C05330532
(1763088079.412951) can0 4C8#0582000000000000
(1763088079.415783) can0 000A0003#FD3AFBEB11E40000
(1763088079.416067) can0 000A0004#FF99FFC6FF6E8E02
(1763088079.417969) can0 382#040D53FF080D0000
(1763088079.418232) can0 181#D10300207F000009
(1763088079.420816) can0 682#4A5020040000B107
(1763088079.420934) can0 701#05
(1763088079.421294) can0 482#B9091A0008360001
(1763088079.423508) can0 186#6D2F4C1D09080000
(1763088079.425300) can0 1A0#000000000000
(1763088079.425790) can0 000A0003#FCD7FC3411540000
(1763088079.426072) can0 000A0004#FF92FFE4FF688E02
(1763088079.426808) can0 000A0000#0000000000000000
(1763088079.427106) can0 000A0001#0000000000000000
(1763088079.427405) can0 000A0002#0000000000000000
(1763088079.433004) can0 1A5#C01FF00B000000
(1763088079.435788) can0 000A0003#FC5CFC8710F50000
(1763088079.436069) can0 000A0004#FF91FFEEFF648E02
(1763088079.439948) can0 382#4112B60061120000
(1763088079.442100) can0 701#05
(1763088079.442533) can0 482#CD09250008360001
(1763088079.443730) can0 1A2#C01F950F000000
(1763088079.443962) can0 2A1#181A191918151210
(1763088079.445186) can0 281#D90900002F000000
(1763088079.445785) can0 000A0003#FBABFCB1109B0000
(1763088079.446068) can0 000A0004#FF94FFFEFF5D8E02
(1763088079.447900) can0 1A4#8023A109000000
(1763088079.448128) can0 2A3#121817171612100E
(1763088079.455787) can0 000A0003#FB6BFC47109F0000
(1763088079.456068) can0 000A0004#FFA80009FF518E02
(1763088079.456312) can0 181#D10300207F000009
(1763088079.461761) can0 682#4A500F040000B207
(1763088079.462005) can0 382#2A13E2FE61120000
(1763088079.462942) can0 19A#00007F7C7C807F80
(1763088079.463542) can0 186#D4414C1D09090000
(1763088079.463895) can0 189#2B0745054D013851
(1763088079.464126) can0 29A#8062838484830000
(1763088079.464238) can0 701#05
(1763088079.464738) can0 482#F709250008360001
(1763088079.464840) can0 080#
(1763088079.465789) can0 000A0003#FB42FC0310A20000
(1763088079.466072) can0 000A0004#FFAD0008FF498E02
(1763088079.466316) can0 286#0000580200000000
(1763088079.471637) can0 188#0C007E0000000000
(1763088079.472423) can0 288#B028F20801340000
(1763088079.473407) can0 388#2828290000000000
(1763088079.474017) can0 4C4#054E0584056405A0
(1763088079.474360) can0 191#92929393938F
(1763088079.475027) can0 4C5#05A805A405940584
(1763088079.475366) can0 192#929294949292
(1763088079.475788) can0 000A0003#FB18FC3910B20000
(1763088079.476074) can0 000A0004#FFACFFFAFF418E02
(1763088079.476307) can0 4C6#058E0594059805A2
(1763088079.476494) can0 193#919393949392
(1763088079.477048) can0 4C7#05B0056C05330532
(1763088079.477350) can0 194#929393949393
(1763088079.478084) can0 4C8#0582000000000000
(1763088079.478354) can0 195#929495949493
(1763088079.479375) can0 291#171C1E1E1E1B
(1763088079.480378) can0 292#191D201F1F1A
(1763088079.481382) can0 293#191C1F1E1E1A
(1763088079.482358) can0 294#181D1F1E1E1A
(1763088079.483362) can0 295#171B1D1C1C18
(1763088079.483601) can0 382#4019D20082190000
(1763088079.485792) can0 000A0003#FAF0FC8E10B30000
(1763088079.486074) can0 000A0004#FFA5FFEFFF368E02
(1763088079.486189) can0 701#05
(1763088079.486439) can0 482#DF09330008360001
(1763088079.488868) can0 281#ED09000042000000
(1763088079.494328) can0 181#D10300207F000009
(1763088079.495793) can0 000A0003#FA76FD2110970000
(1763088079.496074) can0 000A0004#FF99FFE1FF348E02
(1763088079.496632) can0 1A3#4000870A000000
(1763088079.503506) can0 186#5E0C4C1D090A0000
(1763088079.505354) can0 682#4A50F2030000D708
(1763088079.505541) can0 701#05
(1763088079.505828) can0 000A0003#FA27FD8010850000
(1763088079.506108) can0 000A0004#FF99FFDCFF308E02
(1763088079.506349) can0 382#F4187C0082190000
(1763088079.506597) can0 482#080A330008360001
(1763088079.515793) can0 000A0003#F9F9FDCF10470000
(1763088079.516075) can0 000A0004#FF97FFC1FF2D8E02
(1763088079.525297) can0 1A0#000000000000
(1763088079.525798) can0 000A0003#F9CDFE1B10410000
(1763088079.526081) can0 000A0004#FF9CFFB4FF278E02
(1763088079.526808) can0 000A0000#0000000000000000
(1763088079.527108) can0 000A0001#0000000000000000
(1763088079.527406) can0 000A0002#0000000000000000
(1763088079.527524) can0 701#05
(1763088079.527766) can0 482#E4091E0008360001
(1763088079.528075) can0 382#5E105D000B100000
(1763088079.532546) can0 181#D10300207F000009
(1763088079.532859) can0 281#C20900001F000000
(1763088079.535217) can0 1A5#0026260C000000
(1763088079.535795) can0 000A0003#F9C3FDE010A20000
(1763088079.536077) can0 000A0004#FFA3FFA9FF258E02
(1763088079.539125) can0 4C4#054E057F055F05A0
(1763088079.540132) can0 4C5#05A8059D05900584
(1763088079.541145) can0 4C6#058A059005940597
(1763088079.542160) can0 4C7#05A9056C05330528
(1763088079.543192) can0 4C8#0582000000000000
(1763088079.543519) can0 186#680A4C1D090B0000
(1763088079.545798) can0 000A0003#F9BDFDBA10E10000
(1763088079.546079) can0 000A0004#FFA9FFAEFF268E02
(1763088079.546409) can0 682#4A501B0400003D08
(1763088079.548905) can0 382#0C0520FF09040000
(1763088079.549023) can0 701#05
(1763088079.549384) can0 482#7809080008360001
(1763088079.551355) can0 1A2#002CDE0F000000
(1763088079.551584) can0 2A1#181A1A1918151210
(1763088079.554978) can0 1A4#C0287A09000000
(1763088079.555204) can0 2A3#1218171616130F0E
(1763088079.555803) can0 000A0003#FA50FE04117D0000
(1763088079.556088) can0 000A0004#FFADFFABFF1F8E02
(1763088079.563548) can0 189#06072A054C013651
(1763088079.563750) can0 080#
(1763088079.564903) can0 286#0000580200000000
(1763088079.565796) can0 000A0003#FADDFE4B12050000
(1763088079.566077) can0 000A0004#FFA3FFBAFF148E02
(1763088079.570397) can0 701#05
(1763088079.570970) can0 382#4503EEFF09040000
(1763088079.571620) can0 188#0C007E0000000000
(1763088079.572380) can0 288#B028F94A00340000
(1763088079.573396) can0 388#2828290000000000
(1763088079.573640) can0 181#D10300207F000009
(1763088079.573935) can0 482#9709080008360001
(1763088079.574520) can0 191#92929393938F
(1763088079.575374) can0 192#929294949292
(1763088079.575803) can0 000A0003#FB50FE27124A0000
(1763088079.576083) can0 000A0004#FF9CFFCCFF0E8E02
(1763088079.576353) can0 281#A20900000A000000
(1763088079.576542) can0 193#919393949392
(1763088079.577360) can0 194#929393949393
(1763088079.578364) can0 195#929495949493
(1763088079.579364) can0 291#171C1E1E1E1B
(1763088079.580367) can0 292#191D201F1F1A
(1763088079.581340) can0 293#191C1F1E1E1A
(1763088079.582348) can0 294#181D1F1E1E1A
(1763088079.583370) can0 295#171B1D1C1C18
(1763088079.583600) can0 186#E50F4C1D090C0000
(1763088079.585806) can0 000A0003#FBF5FDF412AE0000
(1763088079.586088) can0 000A0004#FF95FFE4FEFE8E02
(1763088079.587255) can0 682#4A503E0400001006
(1763088079.589850) can0 382#2105430029060000
(1763088079.589971) can0 701#05
(1763088079.595345) can0 482#F1090C0008360001
(1763088079.595802) can0 000A0003#FCDCFD6113340000
(1763088079.596083) can0 000A0004#FF91FFF6FEED8E02
(1763088079.597660) can0 1A3#8027600A000000
(1763088079.604234) can0 4C4#0553057A055F05A4
(1763088079.605244) can0 4C5#05A805A105940584
(1763088079.605803) can0 000A0003#FDB9FCD513B50000
(1763088079.606089) can0 000A0004#FF91FFFFFED98E02
(1763088079.606319) can0 4C6#058D05940598059B
(1763088079.607276) can0 4C7#05AC056C05370528
(1763088079.608305) can0 4C8#0582000000000000
(1763088079.611698) can0 181#D10300207F000009
(1763088079.611817) can0 701#05
(1763088079.612163) can0 382#DB0673FF29060000
(1763088079.615801) can0 000A0003#FE0BFC9514260000
(1763088079.616085) can0 000A0004#FF95FFFCFEC88E02
(1763088079.617165) can0 482#420A0C0008360001
(1763088079.619809) can0 281#400A000010000000
(1763088079.623492) can0 186#54464C1D090D0000
(1763088079.625304) can0 1A0#000000000100
(1763088079.625807) can0 000A0003#FE82FC3814CB0000
(1763088079.626091) can0 000A0004#FF93FFF7FEAC8E02
(1763088079.626821) can0 000A0000#0000000000000000
(1763088079.627122) can0 000A0001#0000000000000000
(1763088079.627418) can0 000A0002#0000000000000000
(1763088079.628209) can0 682#4A50390400000005
(1763088079.633298) can0 701#05
(1763088079.633753) can0 382#50090100DD080000
(1763088079.635797) can0 000A0003#FEB2FBAA152A0000
(1763088079.636081) can0 000A0004#FF95FFFCFE958E02
(1763088079.637426) can0 1A5#002CC20C000000
(1763088079.639134) can0 482#EA091A0008360001
(1763088079.645808) can0 000A0003#FEDFFB2215850000
(1763088079.646088) can0 000A0004#FF960008FE778E02
(1763088079.650062) can0 181#D10300207F000009
(1763088079.655294) can0 382#1B13D9FFAF130000
(1763088079.655470) can0 701#05
(1763088079.655813) can0 000A0003#FECCFB0015AB0000
(1763088079.656095) can0 000A0004#FF98FFFDFE658E02
(1763088079.658987) can0 1A2#C01F2C10000000
(1763088079.659213) can0 2A1#181A1A1818151110
(1763088079.660959) can0 482#2B0A300008360001
(1763088079.662048) can0 1A4#C021120A000000
(1763088079.662277) can0 2A3#1218171616130F0E
(1763088079.663525) can0 186#0A334C1D090E0000
(1763088079.663898) can0 189#6F0776054C013B51
(1763088079.664140) can0 281#450A000041000000
(1763088079.664764) can0 080#
(1763088079.665802) can0 000A0003#FEB0FACD15E30000
(1763088079.666084) can0 000A0004#FFA1FFF4FE4D8E02
(1763088079.666328) can0 286#0000580200000000
(1763088079.668936) can0 19A#0000827976827E7E
(1763088079.669170) can0 682#4A5007040000FF05
(1763088079.669403) can0 4C4#0559057A056405A8
(1763088079.669939) can0 29A#7F76857D82830000
(1763088079.670380) can0 4C5#05A805A8059B0587
(1763088079.671395) can0 4C6#05910597059B059E
(1763088079.671643) can0 188#0C007D0000000000
(1763088079.672403) can0 288#B128F95101340000
(1763088079.672633) can0 4C7#05B005700537052D
(1763088079.673422) can0 388#2828290000000000
(1763088079.673668) can0 4C8#0582000000000000
(1763088079.674372) can0 191#939395949491
(1763088079.674587) can0 701#05
(1763088079.675055) can0 382#4F18F8FE63160000
(1763088079.675383) can0 192#929395949393
(1763088079.675803) can0 000A0003#FE93FA9F15990000
(1763088079.676086) can0 000A0004#FFA5FFE5FE3C8E02
(1763088079.676357) can0 193#919393949392
(1763088079.677369) can0 194#929394949393
(1763088079.678369) can0 195#909193939291
(1763088079.679391) can0 291#171C1E1E1E1B
(1763088079.680363) can0 292#191E201F1F1A
(1763088079.681363) can0 293#191C1F1E1D1A
(1763088079.682371) can0 294#191D1F1E1E1A
(1763088079.683012) can0 482#970A280008360001
(1763088079.683360) can0 295#171B1D1C1C18
(1763088079.685815) can0 000A0003#FE80FA81156A0000
(1763088079.686098) can0 000A0004#FFA0FFEDFE308E02
(1763088079.688183) can0 181#D10300207F000009
(1763088079.695815) can0 000A0003#FE70F9F915800000
(1763088079.696100) can0 000A0004#FFA4FFE0FE218E02
(1763088079.698687) can0 1A3#C0238909000000
(1763088079.698833) can0 701#05
(1763088079.699278) can0 382#42131E00C7130000
(1763088079.703483) can0 186#952A4C1D090F0000
(1763088079.704771) can0 482#ED09280008360001
(1763088079.705815) can0 000A0003#FE68F94815C00000
(1763088079.706095) can0 000A0004#FFA5FFD1FE1A8E02
(1763088079.707382) can0 281#E309000030000000
(1763088079.710112) can0 682#4A50030400004007
(1763088079.715819) can0 000A0003#FE83F90915800000
(1763088079.716099) can0 000A0004#FF9BFFC2FE168E02
(1763088079.720904) can0 382#2F106E0080100000
(1763088079.721023) can0 701#05
(1763088079.725305) can0 1A0#000000000100
(1763088079.725812) can0 000A0003#FE94F8E115570000
(1763088079.726094) can0 000A0004#FF94FFAFFE138E02
(1763088079.726371) can0 181#D10300207F000009
(1763088079.726708) can0 482#220A210008360001
(1763088079.727007) can0 000A0000#0000000000000000
(1763088079.727307) can0 000A0001#0000000000000000
(1763088079.727605) can0 000A0002#0000000000000000
(1763088079.734481) can0 4C4#0553057A055F059D
(1763088079.735489) can0 4C5#05A405A105900584
(1763088079.735814) can0 000A0003#FE7CF8D615590000
(1763088079.736095) can0 000A0004#FF91FFB5FE118E02
(1763088079.736507) can0 4C6#058E05940594059B
(1763088079.737519) can0 4C7#05AC05700537052D
(1763088079.738552) can0 4C8#0582000000000000
(1763088079.739606) can0 1A5#C0279D0B000000
(1763088079.742415) can0 701#05
(1763088079.742978) can0 382#D410620080100000
(1763088079.743489) can0 186#4F324C1D09000000
(1763088079.745847) can0 000A0003#FE4EF8E4157A0000
(1763088079.746104) can0 000A0004#FF8FFFABFE0E8E02
(1763088079.748219) can0 482#500A240008360001
(1763088079.751080) can0 281#520A000032000000
(1763088079.751490) can0 682#4A500D0400006607
(1763088079.755823) can0 000A0003#FE17F97916200000
(1763088079.756112) can0 000A0004#FF95FFB9FE0F8E02
(1763088079.761874) can0 701#05
(1763088079.763530) can0 189#4B075F054C013951
(1763088079.763767) can0 080#
(1763088079.764708) can0 382#A2134A007F130000
(1763088079.764952) can0 286#0000580200000000
(1763088079.765832) can0 000A0003#FDF0F9D8168A0000
(1763088079.766118) can0 000A0004#FF99FFBDFE0F8E02
(1763088079.766609) can0 1A2#C01FF410000000
(1763088079.766840) can0 2A1#191A1A1818151111
(1763088079.767443) can0 181#D10300207F000009
(1763088079.769127) can0 1A4#402C120A000000
(1763088079.769355) can0 2A3#1218181616130F0E
(1763088079.770184) can0 482#580A270008360001
(1763088079.775817) can0 000A0003#FE24FA01170F0000
(1763088079.776099) can0 000A0004#FF97FFD1FE108E02
(1763088079.783483) can0 186#CA214C1D09010000
(1763088079.785826) can0 000A0003#FE8AF9F917840000
(1763088079.786108) can0 000A0004#FF93FFE1FE0C8E02
(1763088079.786416) can0 382#6213300025120000
(1763088079.786536) can0 701#05
(1763088079.789401) can0 482#580A220008360001
(1763088079.792009) can0 682#4A5005040000FA07
(1763088079.794628) can0 281#510A000024000000
(1763088079.795816) can0 000A0003#FEB9F9DD17B10000
(1763088079.796100) can0 000A0004#FF8DFFEBFE0D8E02
(1763088079.799595) can0 4C4#0553057A055F059D
(1763088079.799816) can0 1A3#C023EB09000000
(1763088079.800607) can0 4C5#05A405A105900584
(1763088079.801621) can0 4C6#058E05940594059B
(1763088079.802635) can0 4C7#05AC05700537052D
(1763088079.803667) can0 4C8#0582000000000000
(1763088079.805764) can0 181#D10300207F000009
(1763088079.806043) can0 000A0003#FEE4F9B517F20000
(1763088079.806329) can0 000A0004#FF85FFFCFE068E02
(1763088079.807942) can0 701#05
(1763088079.808503) can0 382#E80C6600180D0000
(1763088079.811117) can0 482#0A0A1A0008360001
(1763088079.813882) can0 188#0C007E0000000000
(1763088079.814403) can0 288#6A28489B00340000
(1763088079.815423) can0 388#2828290000000000
(1763088079.815819) can0 000A0003#FF0AF976187F0000
(1763088079.816105) can0 000A0004#FF910004FDFE8E02
(1763088079.816380) can0 191#8F8F9190908D
(1763088079.817385) can0 192#909092929091
(1763088079.818361) can0 193#8F9192929191
(1763088079.819369) can0 194#909192929191
(1763088079.820378) can0 195#8F909192908F
(1763088079.821391) can0 291#171C1E1E1E1B
(1763088079.822365) can0 292#191E201F1F1A
(1763088079.823365) can0 293#191D1F1E1E1A
(1763088079.823596) can0 186#62214C1D09020000
(1763088079.824375) can0 294#191D1F1E1E1A
(1763088079.825305) can0 1A0#000000000100
(1763088079.825503) can0 295#181C1D1C1C18
(1763088079.825821) can0 000A0003#FF2EF92E192D0000
(1763088079.826103) can0 000A0004#FF9A0009FDEC8E02
(1763088079.826847) can0 000A0000#0000000000000000
(1763088079.827147) can0 000A0001#0000000000000000
(1763088079.827445) can0 000A0002#0000000000000000
(1763088079.829869) can0 701#05
(1763088079.830327) can0 382#810C4100F00C0000
(1763088079.830708) can0 482#300A1A0008360001
(1763088079.835825) can0 000A0003#FF35F91119620000
(1763088079.836110) can0 000A0004#FFA40004FDDF8E02
(1763088079.836344) can0 682#4A501B0400004807
(1763088079.838434) can0 281#610A000021000000
(1763088079.841808) can0 1A5#00269D0B000000
(1763088079.843790) can0 181#D10300207F000009
(1763088079.845829) can0 000A0003#FF2AF90019AE0000
(1763088079.846108) can0 000A0004#FFAEFFFDFDCC8E02
(1763088079.849235) can0 701#05
(1763088079.851868) can0 382#0E0D1C00F00C0000
(1763088079.854695) can0 482#980A1A0008360001
(1763088079.855821) can0 000A0003#FECBF929198B0000
(1763088079.856106) can0 000A0004#FFBCFFEAFDB78E02
(1763088079.857968) can0 19A#00007F7B797E7F7F
(1763088079.858939) can0 29A#8067808283840000
(1763088079.863515) can0 186#FF274C1D09030000
(1763088079.863919) can0 189#D007C2054C014051
(1763088079.864721) can0 4C4#0549057F055F05A0
(1763088079.864826) can0 080#
(1763088079.865728) can0 4C5#05A1059D0590057D
(1763088079.866012) can0 000A0003#FE48F96C19360000
(1763088079.866298) can0 000A0004#FFBDFFD1FDA58E02
(1763088079.866542) can0 286#0000580200000000
(1763088079.866772) can0 4C6#058705900594059B
(1763088079.867756) can0 4C7#05A90564052A051E
(1763088079.868790) can0 4C8#0582000000000000
(1763088079.870829) can0 701#05
(1763088079.871282) can0 382#6B0E00004A0E0000
(1763088079.871654) can0 188#0C007D0000000000
(1763088079.872417) can0 288#6A2848D700340000
(1763088079.873438) can0 388#2828290000000000
(1763088079.874236) can0 1A2#002E950F000000
(1763088079.874432) can0 191#8F8F9190908D
(1763088079.874660) can0 2A1#191A1B1918161111
(1763088079.875368) can0 192#909092929091
(1763088079.875824) can0 000A0003#FDDEF9B718B50000
(1763088079.876108) can0 000A0004#FFBAFFC0FD9C8E02
(1763088079.876337) can0 1A4#C027FC0A000000
(1763088079.876530) can0 193#8F9192929191
(1763088079.876758) can0 2A3#1218181616130F0E
(1763088079.876998) can0 482#690A1F0008360001
(1763088079.877305) can0 682#4A50180400000007
(1763088079.877499) can0 194#909192929191
(1763088079.878361) can0 195#8F909192908F
(1763088079.879376) can0 291#171C1E1E1E1B
(1763088079.880381) can0 292#191E201F1F1A
(1763088079.881379) can0 293#191D1F1E1E1A
(1763088079.882388) can0 294#191D1F1E1E1A
(1763088079.883368) can0 295#181C1D1C1C18
(1763088079.884747) can0 181#D10300207F000009
(1763088079.885044) can0 281#640A000028000000
(1763088079.885836) can0 000A0003#FD22FA5217FB0000
(1763088079.886118) can0 000A0004#FFB9FFA6FD928E02
(1763088079.892897) can0 382#E30EDA00800F0000
(1763088079.893016) can0 701#05
(1763088079.895830) can0 000A0003#FC9EFAD517510000
(1763088079.896114) can0 000A0004#FFC2FF90FD8E8E02
(1763088079.898387) can0 482#670A1F0008360001
(1763088079.900749) can0 1A3#002C3B09000000
(1763088079.903473) can0 186#99494C1D09040000
(1763088079.905831) can0 000A0003#FC58FB2416E70000
(1763088079.906117) can0 000A0004#FFCFFF8BFD8F8E02
(1763088079.914429) can0 701#05
(1763088079.914971) can0 382#5A13A500E8140000
(1763088079.915829) can0 000A0003#FC13FB6D168D0000
(1763088079.916113) can0 000A0004#FFE9FF7DFD908E02
(1763088079.917698) can0 682#4A500C0400004507
(1763088079.920205) can0 482#A40A300008360001
(1763088079.922934) can0 181#D10300207F000009
(1763088079.925397) can0 1A0#000000000000
(1763088079.925837) can0 000A0003#FC0EFB6416570000
(1763088079.926121) can0 000A0004#FFFCFF77FD8D8E02
(1763088079.926851) can0 000A0000#0000000000000000
(1763088079.927150) can0 000A0001#0000000000000000
(1763088079.927449) can0 000A0002#0000000000000000
(1763088079.928522) can0 281#D30A000047000000
(1763088079.929832) can0 4C4#0549057F055F05A0
(1763088079.930842) can0 4C5#05A1059D0590057D
(1763088079.931855) can0 4C6#058705900594059B
(1763088079.932869) can0 4C7#05AC0568052E0523
(1763088079.933868) can0 382#EC1C19FE851C0000
(1763088079.934115) can0 4C8#0582000000000000
(1763088079.934232) can0 701#05
(1763088079.935831) can0 000A0003#FC37FB1216140000
(1763088079.936113) can0 000A0004#0010FF6EFD8E8E02
(1763088079.939344) can0 482#0A0B390008360001
(1763088079.943470) can0 186#E9434C1D09050000
(1763088079.944018) can0 1A5#C0283109000000
(1763088079.945844) can0 000A0003#FC60FAC615E40000
(1763088079.946124) can0 000A0004#0015FF71FD8E8E02
(1763088079.955372) can0 701#05
(1763088079.955838) can0 000A0003#FC4EFAAE15780000
(1763088079.956126) can0 000A0004#000EFF66FD8F8E02
(1763088079.956362) can0 382#3B1B2CFE511A0000
(1763088079.958644) can0 682#4A50DE0300007309
(1763088079.961154) can0 482#AF0A350008360001
(1763088079.963513) can0 189#42075B054D013951
(1763088079.963751) can0 080#
(1763088079.963993) can0 181#D10300207F000009
(1763088079.964905) can0 286#0000580200000000
(1763088079.965835) can0 000A0003#FBA7FB4014C40000
(1763088079.966121) can0 000A0004#FFFCFF54FD8F8E02
(1763088079.971635) can0 188#0C007C0000000000
(1763088079.972068) can0 281#6F0A000044000000
(1763088079.972428) can0 288#F428326201340000
(1763088079.973414) can0 388#2828290000000000
(1763088079.974366) can0 191#949495959592
(1763088079.974710) can0 701#05
(1763088079.975143) can0 382#9619B4FE511A0000
(1763088079.975375) can0 192#949496969495
(1763088079.975840) can0 000A0003#FB34FB5E13DF0000
(1763088079.976125) can0 000A0004#FFF9FF4DFD938E02
(1763088079.976381) can0 193#949696969695
(1763088079.977357) can0 194#959696979695
(1763088079.978363) can0 195#949596969594
(1763088079.979383) can0 291#171C1E1E1E1B
(1763088079.980388) can0 482#650A350008360001
(1763088079.980584) can0 292#191E201F1F1B
(1763088079.981387) can0 293#191D1F1E1E1A
(1763088079.981886) can0 1A2#C029950F000000
(1763088079.982115) can0 2A1#191A1B1918161110
(1763088079.982363) can0 294#191D1F1E1E1A
(1763088079.983277) can0 1A4#C029730A000000
(1763088079.983511) can0 186#C2434C1D09060000
(1763088079.983709) can0 295#181C1D1C1C19
(1763088079.983937) can0 2A3#1218181616130F0E
(1763088079.985844) can0 000A0003#FAF9FB4E133A0000
(1763088079.986127) can0 000A0004#FFF7FF50FD978E02
(1763088079.994955) can0 4C4#0553057A056405A0
(1763088079.995836) can0 000A0003#FA8BFB6B12580000
(1763088079.996126) can0 000A0004#0003FF50FDA08E02
(1763088079.996358) can0 4C5#05A405A405940587
(1763088079.996474) can0 701#05
(1763088079.996897) can0 382#0C1A94FF421A0000
(1763088079.997127) can0 4C6#05910594059B059E
(1763088079.997995) can0 4C7#05B0056C05330528
(1763088079.999026) can0 4C8#0582000000000000
(1763088079.999617) can0 682#4A50E0030000810A
(1763088080.001786) can0 1A3#002CD709000000
(1763088080.002127) can0 482#EF0A350008360001
(1763088080.002566) can0 181#D10300207F000009
(1763088080.005845) can0 000A0003#F9F1FBEB119A0000
(1763088080.006124) can0 000A0004#0019FF4BFDAA8E02
(1763088080.015765) can0 281#1D0B000044000000
(1763088080.016051) can0 000A0003#F9C2FC17113E0000
(1763088080.016336) can0 000A0004#0028FF5EFDB18E02
(1763088080.018248) can0 701#05
(1763088080.018626) can0 382#BA1A87FF421A0000
(1763088080.021252) can0 482#140B350008360001
(1763088080.023506) can0 186#EF414C1D09070000
(1763088080.025400) can0 1A0#000000000100
(1763088080.025846) can0 000A0003#F9CBFC2110E60000
(1763088080.026128) can0 000A0004#0031FF77FDBA8E02
(1763088080.026856) can0 000A0000#0000000000000000
(1763088080.027156) can0 000A0001#0000000000000000
(1763088080.027454) can0 000A0002#0000000000000000
(1763088080.035853) can0 000A0003#F9D4FC0310BE0000
(1763088080.036131) can0 000A0004#0031FF8BFDC38E02
(1763088080.040318) can0 382#57194C008D190000
(1763088080.040436) can0 701#05
(1763088080.040678) can0 181#D10300207F000009
(1763088080.041145) can0 682#4A50DF030000630B
(1763088080.043182) can0 482#AA0A340008360001
(1763088080.045845) can0 000A0003#F9DCFB9B10F10000
(1763088080.046126) can0 000A0004#0034FF9EFDC88E02
(1763088080.046348) can0 1A5#C0297A09000000
(1763088080.055848) can0 000A0003#F9E1FB6E11080000
(1763088080.056130) can0 000A0004#0032FFA9FDC88E02
(1763088080.059439) can0 281#D90A000042000000
(1763088080.060069) can0 4C4#054E0576055B0595
(1763088080.061082) can0 4C5#059D059A0590057D
(1763088080.062093) can0 4C6#058E058D0591059B
(1763088080.062327) can0 382#D918EDFF8D190000
(1763088080.062490) can0 701#05
(1763088080.062732) can0 482#EE0A340008360001
(1763088080.063110) can0 4C7#05A5056405370528
(1763088080.063496) can0 186#483E4C1D09080000
(1763088080.063900) can0 189#EB0617054C013551
(1763088080.064138) can0 19A#0000806C667C8280
(1763088080.064385) can0 4C8#0582000000000000
(1763088080.064767) can0 080#
(1763088080.065003) can0 29A#7F6D807F85820000
(1763088080.065844) can0 000A0003#F9CEFB4D111C0000
(1763088080.066127) can0 000A0004#002BFFA9FDC38E02
(1763088080.066371) can0 286#0000580200000000
(1763088080.071668) can0 188#0C007C0000000000
(1763088080.072404) can0 288#F428386401340000
(1763088080.073420) can0 388#2828290000000000
(1763088080.074375) can0 191#949495959592
(1763088080.075365) can0 192#949496969495
(1763088080.075845) can0 000A0003#F9ADFB2911470000
(1763088080.076127) can0 000A0004#0024FFAAFDBD8E02
(1763088080.076371) can0 193#949696969695
(1763088080.077347) can0 194#959696979695
(1763088080.078351) can0 195#949596969594
(1763088080.078593) can0 181#D10300207F000009
(1763088080.079371) can0 291#171C1E1E1E1B
(1763088080.080376) can0 292#191E201F1F1B
(1763088080.081263) can0 701#05
(1763088080.081457) can0 293#191D1F1E1E1A
(1763088080.081699) can0 482#5F0B310008360001
(1763088080.081959) can0 682#4A50E0030000C60B
(1763088080.082200) can0 382#7118D2FE23180000
(1763088080.082393) can0 294#191D1F1E1E1A
(1763088080.083382) can0 295#181C1D1C1C19
(1763088080.085847) can0 000A0003#F970FAFF11A10000
(1763088080.086130) can0 000A0004#002AFFA1FDB08E02
(1763088080.089516) can0 1A2#0027CF0F000000
(1763088080.089740) can0 2A1#191B1B1918161110
(1763088080.090362) can0 1A4#002EB80A000000
(1763088080.090590) can0 2A3#1218181616130F0D
(1763088080.095853) can0 000A0003#F948FB3B11E00000
(1763088080.096134) can0 000A0004#003AFF96FDAA8E02
(1763088080.102822) can0 1A3#001EC809000000
(1763088080.102936) can0 701#05
(1763088080.103244) can0 382#200F54DF1415CAEB
(1763088080.103474) can0 186#E2214C1D09090000
(1763088080.103718) can0 281#1D0B00003E000000
(1763088080.104022) can0 482#1D0B310008360001
(1763088080.105856) can0 000A0003#F862FC1012440000
(1763088080.106140) can0 000A0004#0047FF7AFD9E8E02
(1763088080.115849) can0 000A0003#F7F4FC5E126B0000
(1763088080.116138) can0 000A0004#0054FF64FD918E02
(1763088080.116955) can0 181#D1031A237F000009
(1763088080.122375) can0 682#4A50D2011A033E0A
(1763088080.122714) can0 382#CE004E0000000000
(1763088080.122896) can0 701#05
(1763088080.123173) can0 482#CD09000008360101
(1763088080.125190) can0 4C4#054E0576055B0595
(1763088080.125402) can0 1A0#000000000100
(1763088080.125854) can0 000A0003#F83BFBED123B0000
(1763088080.126136) can0 000A0004#0059FF5CFD8B8E02
(1763088080.126368) can0 4C5#059D059A0590057D
(1763088080.126864) can0 000A0000#0000000000000000
(1763088080.127164) can0 000A0001#0000000000000000
(1763088080.127462) can0 000A0002#0000000000000000
(1763088080.127692) can0 4C6#058E058D0591059B
(1763088080.128232) can0 4C7#05A5056405370528
(1763088080.129263) can0 4C8#0582000000000000
(1763088080.135849) can0 000A0003#F8A3FB4B12040000
(1763088080.136134) can0 000A0004#0069FF63FD7B8E02
(1763088080.143448) can0 186#82234C1D090A0000
(1763088080.145852) can0 000A0003#F92FFAAF11ED0000
(1763088080.146136) can0 000A0004#0083FF5EFD6A8E02
(1763088080.146481) can0 701#05
(1763088080.146838) can0 281#080A000000000000
(1763088080.147150) can0 482#080A000008360101
(1763088080.147492) can0 382#F8FF910000000000
(1763088080.148474) can0 1A5#C0297009000000
(1763088080.155007) can0 181#D1031A237F000009
(1763088080.155866) can0 000A0003#F9B6FA5511F20000
(1763088080.156148) can0 000A0004#0094FF61FD5B8E02
(1763088080.163495) can0 189#0308EC0550014251
(1763088080.163769) can0 080#
(1763088080.164922) can0 286#0000580200000000
(1763088080.165857) can0 000A0003#FA0DFA6A12190000
(1763088080.166147) can0 000A0004#0091FF80FD4F8E02
(1763088080.166380) can0 682#4A508E021A03A406
(1763088080.168628) can0 701#05
(1763088080.169005) can0 482#A10B000008360101
(1763088080.169354) can0 382#2C00FBFF00000000
(1763088080.171630) can0 188#14007A0000000000
(1763088080.172412) can0 288#0B27352A00000000
(1763088080.173430) can0 388#2828290000000000
(1763088080.174384) can0 191#848385858580
(1763088080.175387) can0 192#848486868484
(1763088080.175860) can0 000A0003#FA8BFA8712A80000
(1763088080.176141) can0 000A0004#009CFF8CFD3C8E02
(1763088080.176366) can0 193#828486868584
(1763088080.177374) can0 194#858787888686
(1763088080.178382) can0 195#838486878582
(1763088080.179397) can0 291#171C1E1E1E1B
(1763088080.180372) can0 292#191E201F201B
(1763088080.181372) can0 293#191D1F1E1E1A
(1763088080.182378) can0 294#191D1F1E1E1A
(1763088080.183390) can0 295#181C1D1C1C18
(1763088080.183630) can0 186#00004C1D010B0000
(1763088080.185860) can0 000A0003#FB12FA4013DA0000
(1763088080.186142) can0 000A0004#00ABFF98FD2A8E02
(1763088080.190314) can0 4C4#0553057A056405A4
(1763088080.190426) can0 701#05
(1763088080.190696) can0 382#8D0014FDFC01E2FE
(1763088080.190962) can0 281#BA0B00001D000000
(1763088080.191283) can0 482#BA0B160008160101
(1763088080.191513) can0 4C5#05A805A105940584
(1763088080.192343) can0 4C6#059105900598059B
(1763088080.193355) can0 4C7#05B305740533051E
(1763088080.194387) can0 4C8#0582000000000000
(1763088080.195862) can0 000A0003#FB67FA0D14AB0000
(1763088080.196146) can0 000A0004#00B7FF9BFD158E02
(1763088080.196391) can0 181#C10300207F000009
(1763088080.197127) can0 1A2#0027690F000000
(1763088080.197355) can0 2A1#191B1B191815110F
(1763088080.197575) can0 1A4#80274A0B000000
(1763088080.197803) can0 2A3#1218181616130F0D
(1763088080.203837) can0 1A3#00300509000000
(1763088080.205870) can0 000A0003#FB66FA0514C20000
(1763088080.206151) can0 000A0004#00B7FFA1FD088E02
(1763088080.206886) can0 682#4A50760200008E04
(1763088080.211997) can0 701#05
(1763088080.212462) can0 482#B10A000008160101
(1763088080.212811) can0 382#0200ACFF00000000
(1763088080.215858) can0 000A0003#FB64F9F9150F0000
(1763088080.216146) can0 000A0004#00BFFF97FCE98E02
(1763088080.223452) can0 186#00004C1D010C0000
(1763088080.225396) can0 1A0#000000000100
(1763088080.225864) can0 000A0003#FBF4F94715AB0000
(1763088080.226145) can0 000A0004#00CEFF6EFCCB8E02
(1763088080.226878) can0 000A0000#0000000000000000
(1763088080.227178) can0 000A0001#0000000000000000
(1763088080.227476) can0 000A0002#0000000000000000
(1763088080.234071) can0 281#520A000000000000
(1763088080.234262) can0 701#05
(1763088080.234506) can0 482#520A000008160101
(1763088080.234752) can0 382#0100CEFF00000000
(1763088080.235219) can0 181#C10300207F000009
(1763088080.235871) can0 000A0003#FC50F8D6160F0000
(1763088080.236157) can0 000A0004#00D0FF71FCBC8E02
(1763088080.245866) can0 000A0003#FC6CF895185E0000
(1763088080.246147) can0 000A0004#00DCFF7EFC9D8E02
(1763088080.248158) can0 682#4B503A0200001C03
(1763088080.250684) can0 1A5#C0277A09000000
(1763088080.255438) can0 4C4#0553057A056405A4
(1763088080.255864) can0 000A0003#FC86F8581A920000
(1763088080.256150) can0 000A0004#00E9FFA0FC868E02
(1763088080.256269) can0 701#05
(1763088080.256498) can0 4C5#05A805A105940584
(1763088080.256735) can0 482#510A000008160101
(1763088080.257022) can0 382#F6FFA7FF00000000
(1763088080.257465) can0 4C6#059105900598059B
(1763088080.258476) can0 4C7#05B305740533051E
(1763088080.259508) can0 4C8#0582000000000000
(1763088080.263482) can0 186#00004C1D010D0000
(1763088080.263917) can0 189#0B08F4054F014301
(1763088080.264782) can0 080#
(1763088080.265864) can0 000A0003#FCD3F8E41D1D0000
(1763088080.266148) can0 000A0004#00E5FFA2FC788E02
(1763088080.266394) can0 286#0000580200000000
(1763088080.269953) can0 19A#00007C6B6583837C
(1763088080.270952) can0 29A#806E7F7F89870000
(1763088080.271634) can0 188#14007A0000000000
(1763088080.272419) can0 288#0B27352A00000000
(1763088080.273435) can0 388#2828290000000000
(1763088080.274369) can0 191#848385858580
(1763088080.274993) can0 701#05
(1763088080.275367) can0 382#0800EFFF00000000
(1763088080.275557) can0 192#848486868484
(1763088080.275802) can0 181#C10300207F000009
(1763088080.276094) can0 000A0003#FD04F93D1EBE0000
(1763088080.276379) can0 000A0004#00D6FF96FC698E02
(1763088080.276568) can0 193#828486868584
(1763088080.276806) can0 482#AB0A000008160101
(1763088080.277378) can0 194#858787888686
(1763088080.277967) can0 281#BF0A000000000000
(1763088080.278385) can0 195#838486878582
(1763088080.279371) can0 291#171C1E1E1E1B
(1763088080.280377) can0 292#191E201F201B
(1763088080.281380) can0 293#191D1F1E1E1A
(1763088080.282365) can0 294#191D1F1E1E1A
(1763088080.283345) can0 295#181C1D1C1C18
(1763088080.285867) can0 000A0003#FDD4F91220200000
(1763088080.286151) can0 000A0004#00D4FFA8FC5C8E02
(1763088080.288219) can0 682#4B503E0200001F02
(1763088080.295864) can0 000A0003#FE9BF8E921710000
(1763088080.296150) can0 000A0004#00E1FFB5FC528E02
(1763088080.296403) can0 382#0000000000000000
(1763088080.296521) can0 701#05
(1763088080.296809) can0 482#FE0A000008160101
(1763088080.303443) can0 186#00004C1D010E0000
(1763088080.304500) can0 1A4#C029D10C000000
(1763088080.304731) can0 2A3#1218181615120E0C
(1763088080.304957) can0 1A2#C023DE0F000000
(1763088080.305179) can0 1A3#0030C809000000
(1763088080.305409) can0 2A1#191C1B191815110F
(1763088080.305867) can0 000A0003#FE81F980216A0000
(1763088080.306152) can0 000A0004#00F7FFCDFC4D8E02
(1763088080.315480) can0 181#C10300207F000009
(1763088080.315873) can0 000A0003#FE70F9E021660000
(1763088080.316156) can0 000A0004#00FCFFC9FC4C8E02
(1763088080.317875) can0 701#05
(1763088080.318201) can0 482#FC0A000008160101
(1763088080.318456) can0 382#0000000000000000
(1763088080.320537) can0 4C4#05480575055E0598
(1763088080.320875) can0 281#FD0A000000000000
(1763088080.321551) can0 4C5#05A305A00593057F
(1763088080.322565) can0 4C6#058905880590059A
(1763088080.323577) can0 4C7#05A4056B052D051D
(1763088080.324608) can0 4C8#0581000000000000
(1763088080.325396) can0 1A0#000000000100
(1763088080.325869) can0 000A0003#FE18FA26203E0000
(1763088080.326151) can0 000A0004#010BFFE8FC498E02
(1763088080.326887) can0 000A0000#0000000000000000
(1763088080.327188) can0 000A0001#0000000000000000
(1763088080.327487) can0 000A0002#0000000000000000
(1763088080.329163) can0 682#4A506A0200006901
(1763088080.335867) can0 000A0003#FDC4FA691F240000
(1763088080.336150) can0 000A0004#00F50005FC488E02
(1763088080.337219) can0 701#05
(1763088080.339941) can0 482#EB0A000008160101
(1763088080.340207) can0 382#0000000000000000
(1763088080.343439) can0 186#00004C1D010F0000
(1763088080.345874) can0 000A0003#FD96FA781DFD0000
(1763088080.346155) can0 000A0004#00DB001AFC4B8E02
(1763088080.352913) can0 1A5#8027870A000000
(1763088080.353692) can0 181#C10300207F000009
(1763088080.355872) can0 000A0003#FD55FA8F1C540000
(1763088080.356154) can0 000A0004#00BC0044FC518E02
(1763088080.358831) can0 701#05
(1763088080.361812) can0 382#0000000000000000
(1763088080.362056) can0 482#CC0A000008160101
(1763088080.363481) can0 189#1E08040652014401
(1763088080.363781) can0 080#
(1763088080.364626) can0 281#CA0A000000000000
(1763088080.364910) can0 286#0000580200000000
(1763088080.365868) can0 000A0003#FCE1FA9E1A410000
(1763088080.366154) can0 000A0004#00B2005DFC558E02
(1763088080.370120) can0 682#4B5098020000F000
(1763088080.371629) can0 188#14007B0000000000
(1763088080.372427) can0 288#262B2E2A00000000
(1763088080.373441) can0 388#2828290000000000
(1763088080.374365) can0 191#A8A8A8A8A8A7
(1763088080.375375) can0 192#A7A8A8A8A8A7
(1763088080.375869) can0 000A0003#FC70FAAC18470000
(1763088080.376153) can0 000A0004#00D70073FC598E02
(1763088080.376378) can0 193#A7A8A8A8A8A8
(1763088080.377389) can0 194#A8A8A8A8A8A8
(1763088080.378358) can0 195#A7A8A8A8A8A8
(1763088080.379379) can0 291#171C1E1E1E1B
(1763088080.380384) can0 292#191E201F201B
(1763088080.380688) can0 701#05
(1763088080.381382) can0 293#191D1F1E1E1A
(1763088080.382390) can0 294#191D1F1E1E1A
(1763088080.383370) can0 295#181C1D1C1C18
(1763088080.383615) can0 186#00004C1D01000000
(1763088080.383852) can0 482#A70A000008160101
(1763088080.384107) can0 382#0000000000000000
(1763088080.385644) can0 4C4#05420579055A0598
(1763088080.385929) can0 000A0003#FC03FAA917890000
(1763088080.386213) can0 000A0004#00F500AFFC5C8E02
(1763088080.386659) can0 4C5#05A405A0058F057F
(1763088080.387669) can0 4C6#0586058F05930596
(1763088080.388687) can0 4C7#05AB056B05320522
(1763088080.389716) can0 4C8#0581000000000000
(1763088080.391815) can0 181#C10300207F000009
(1763088080.395875) can0 000A0003#FB67FAA316780000
(1763088080.396156) can0 000A0004#012300B8FC5C8E02
(1763088080.402536) can0 701#05
(1763088080.405465) can0 482#870A000008160101
(1763088080.405718) can0 382#0000000000000000
(1763088080.406001) can0 000A0003#FAE1FB2E159E0000
(1763088080.406284) can0 000A0004#01250099FC638E02
(1763088080.406510) can0 1A3#C0004E09000000
(1763088080.408198) can0 281#860A000000000000
(1763088080.411068) can0 682#4B50B70200009F00
(1763088080.411576) can0 1A4#C028B60D000000
(1763088080.411802) can0 2A3#1117171615120E0C
(1763088080.412367) can0 1A2#00300510000000
(1763088080.412596) can0 2A1#191C1B191815110E
(1763088080.415877) can0 000A0003#FA68FBB314CF0000
(1763088080.416161) can0 000A0004#01000092FC6B8E02
(1763088080.423436) can0 186#00004C1D01010000
(1763088080.424460) can0 701#05
(1763088080.425401) can0 1A0#000000000000
(1763088080.425882) can0 000A0003#FA37FB9315A40000
(1763088080.426166) can0 000A0004#00ED0087FC6F8E02
(1763088080.426891) can0 000A0000#0000000000000000
(1763088080.427190) can0 000A0001#0000000000000000
(1763088080.427487) can0 000A0002#0000000000000000
(1763088080.427738) can0 382#0000000000000000
(1763088080.427982) can0 482#710A000008160101
(1763088080.432769) can0 181#C10300207F000009
(1763088080.435879) can0 000A0003#F9F1FB6516D80000
(1763088080.436161) can0 000A0004#00D90089FC768E02
(1763088080.445889) can0 000A0003#F9B8FC3616F80000
(1763088080.446172) can0 000A0004#00C60082FC818E02
(1763088080.446288) can0 701#05
(1763088080.449174) can0 482#690A000008160101
(1763088080.449427) can0 382#0000000000000000
(1763088080.450756) can0 4C4#0543057A055B0599
(1763088080.451770) can0 4C5#05A405A105900580
(1763088080.452014) can0 281#6C0A000000000000
(1763088080.452260) can0 682#4B50CC0200006A00
(1763088080.452783) can0 4C6#0587059005940597
(1763088080.453797) can0 4C7#05AC056C05330523
(1763088080.454829) can0 4C8#0582000000000000
(1763088080.455137) can0 1A5#002C9D0B000000
(1763088080.455883) can0 000A0003#F996FCBB170D0000
(1763088080.456185) can0 000A0004#00CC0073FC8E8E02
(1763088080.458950) can0 19A#00007E71767D807F
(1763088080.459957) can0 29A#8168808182810000
(1763088080.463466) can0 186#00004C1D01020000
(1763088080.463905) can0 189#590835064E014601
(1763088080.464770) can0 080#
(1763088080.465883) can0 000A0003#F95DFD2816A80000
(1763088080.466167) can0 000A0004#00D90082FCA08E02
(1763088080.466411) can0 286#0000580200000000
(1763088080.468138) can0 701#05
(1763088080.470995) can0 482#6C0A000008160101
(1763088080.471248) can0 382#0000000000000000
(1763088080.471536) can0 181#C10300207F000009
(1763088080.471782) can0 188#1400790000000000
(1763088080.472418) can0 288#262B2E2A00000000
(1763088080.473401) can0 388#2828290000000000
(1763088080.474372) can0 191#A8A8A8A8A8A7
(1763088080.475380) can0 192#A7A8A8A8A8A7
(1763088080.475886) can0 000A0003#F923FD6716080000
(1763088080.476182) can0 000A0004#00E40083FCAC8E02
(1763088080.476385) can0 193#A7A8A8A8A8A8
(1763088080.477365) can0 194#A8A8A8A8A8A8
(1763088080.478368) can0 195#A7A8A8A8A8A8
(1763088080.479386) can0 291#171C1E1E1E1B
(1763088080.480390) can0 292#191E201F201B
(1763088080.481390) can0 293#191D1F1E1E1A
(1763088080.482368) can0 294#191D1F1E1E1A
(1763088080.483378) can0 295#181C1D1C1C18
(1763088080.485885) can0 000A0003#F967FD8315C40000
(1763088080.486166) can0 000A0004#00DD00B1FCC68E02
(1763088080.489885) can0 701#05
(1763088080.492861) can0 382#0000000000000000
(1763088080.493104) can0 482#9C0A000008160101
(1763088080.493366) can0 682#4B50E50200004700
(1763088080.495657) can0 281#A70A000000000000
(1763088080.495939) can0 000A0003#F9BCFD8B15990000
(1763088080.496225) can0 000A0004#00C30096FCDC8E02
(1763088080.503429) can0 186#00004C1D01030000
(1763088080.505888) can0 000A0003#FA46FD9315A00000
(1763088080.506171) can0 000A0004#008700ABFCF98E02
(1763088080.506871) can0 1A3#00300509000000
(1763088080.509263) can0 181#C10300207F000009
(1763088080.511726) can0 701#05
(1763088080.514703) can0 482#B80A000008160101
(1763088080.514996) can0 382#0000000000000000
(1763088080.515884) can0 000A0003#FAD2FD9915C80000
(1763088080.516182) can0 000A0004#004000B3FD0B8E02
(1763088080.516401) can0 4C4#0542057005560594
(1763088080.516891) can0 4C5#05A0059505850578
(1763088080.517903) can0 4C6#0586058805930593
(1763088080.518649) can0 1A4#0026C20C000000
(1763088080.518873) can0 2A3#1117171815130D0C
(1763088080.519103) can0 4C7#05A4056305290522
(1763088080.519951) can0 4C8#0581000000000000
(1763088080.520183) can0 1A2#C0231B11000000
(1763088080.520404) can0 2A1#1A1C1B191815110E
(1763088080.525403) can0 1A0#000000000100
(1763088080.525892) can0 000A0003#FB1FFD2D15A50000
(1763088080.526176) can0 000A0004#001D00C6FD1D8E02
(1763088080.526910) can0 000A0000#0000000000000000
(1763088080.527210) can0 000A0001#0000000000000000
(1763088080.527508) can0 000A0002#0000000000000000
(1763088080.533626) can0 701#05
(1763088080.534003) can0 682#4B50010300002F00
(1763088080.535927) can0 000A0003#FB3EFCC2158E0000
(1763088080.536229) can0 000A0004#000700DAFD258E02
(1763088080.536527) can0 482#B20A000008160101
(1763088080.536778) can0 382#0000000000000000
(1763088080.539281) can0 281#B40A000000000000
(1763088080.543431) can0 186#00004C1D01040000
(1763088080.545894) can0 000A0003#FB88FC0916AF0000
(1763088080.546178) can0 000A0004#FFFA00CFFD298E02
(1763088080.547438) can0 181#810300207F000009
(1763088080.555405) can0 701#05
(1763088080.555722) can0 482#AA0A000008160101
(1763088080.556008) can0 000A0003#FBDDFB48185F0000
(1763088080.556293) can0 000A0004#000100D7FD248E02
(1763088080.556541) can0 382#0000000000000000
(1763088080.557349) can0 1A5#00275C0E000000
(1763088080.563464) can0 189#F407DF0551014101
(1763088080.563768) can0 080#
(1763088080.564917) can0 286#0000580200000000
(1763088080.565902) can0 000A0003#FBFBFAEF19A40000
(1763088080.566185) can0 000A0004#FFF300D4FD238E02
(1763088080.574884) can0 682#4B50000300002000
(1763088080.575892) can0 000A0003#FC02FAA11B7A0000
(1763088080.576193) can0 000A0004#FFD2008DFD238E02
(1763088080.577473) can0 482#9D0A000008160101
(1763088080.577591) can0 701#05
(1763088080.577845) can0 382#0000000000000000
(1763088080.580991) can0 4C4#0542057005560594
(1763088080.582004) can0 4C5#05A0059505850578
(1763088080.582971) can0 281#9B0A000000000000
(1763088080.583201) can0 4C6#0586058805930593
(1763088080.583445) can0 186#00004C1D01050000
(1763088080.584031) can0 4C7#05A4056305290522
(1763088080.585064) can0 4C8#0581000000000000
(1763088080.585808) can0 181#810300207F000009
(1763088080.586094) can0 000A0003#FC35FA911D2E0000
(1763088080.586379) can0 000A0004#FFC9007DFD228E02
(1763088080.595893) can0 000A0003#FC7CFA9D1EC80000
(1763088080.596183) can0 000A0004#FFB00064FD1E8E02
(1763088080.599339) can0 382#0000000000000000
(1763088080.599498) can0 701#05
(1763088080.599740) can0 482#8F0A000008160101
(1763088080.605898) can0 000A0003#FCC3FA741FA90000
(1763088080.606182) can0 000A0004#FF9D002BFD1B8E02
(1763088080.607877) can0 1A3#00300907000000
(1763088080.615834) can0 682#4A50F40200001500
(1763088080.616116) can0 000A0003#FD4CF9F320B70000
(1763088080.616405) can0 000A0004#FF9CFFF1FD148E02
(1763088080.620929) can0 701#05
(1763088080.621245) can0 482#840A000008160101
(1763088080.621499) can0 382#0000000000000000
(1763088080.623415) can0 186#00004C1D01060000
(1763088080.625405) can0 1A0#000000000100
(1763088080.625722) can0 1A4#00269D0B000000
(1763088080.626005) can0 000A0003#FDF9F9C7215A0000
(1763088080.626293) can0 000A0004#FF990000FD128E02
(1763088080.626518) can0 2A3#1117171815130D0B
(1763088080.626764) can0 181#810300207F000009
(1763088080.627064) can0 000A0000#0000000000000000
(1763088080.627366) can0 000A0001#0000000000000000
(1763088080.627662) can0 000A0002#0000000000000000
(1763088080.627890) can0 1A2#00307F10000000
(1763088080.628134) can0 281#840A000000000000
(1763088080.628366) can0 2A1#1A1C1B1A1815110E
(1763088080.633879) can0 188#1400820000000000
(1763088080.634426) can0 288#302BEE1C00000000
(1763088080.635436) can0 388#2828290000000000
(1763088080.635896) can0 000A0003#FEB1F9C321C90000
(1763088080.636185) can0 000A0004#FF8FFFDBFD108E02
(1763088080.636388) can0 191#A8A8A8A8A8A8
(1763088080.637367) can0 192#A8A8A8A8A8A8
(1763088080.638374) can0 193#A8A8A8A8A8A8
(1763088080.639385) can0 194#A8A8A8A8A8A8
(1763088080.640386) can0 195#A8A8A8A8A8A8
(1763088080.641374) can0 291#171C1E1E1E1B
(1763088080.642380) can0 292#191E201F201B
(1763088080.643004) can0 482#820A000008160101
(1763088080.643124) can0 701#05
(1763088080.643378) can0 382#0000000000000000
(1763088080.643573) can0 293#191D1F1E1E1A
(1763088080.644370) can0 294#191D1F1E1E1A
(1763088080.645380) can0 295#181C1D1C1C19
(1763088080.645896) can0 000A0003#FF22F9BC21CF0000
(1763088080.646182) can0 000A0004#FF91FFC7FD188E02
(1763088080.646415) can0 4C4#0542057005510594
(1763088080.647126) can0 4C5#059C059C0588057C
(1763088080.648139) can0 4C6#0586058805930593
(1763088080.649159) can0 4C7#05A1055F0529051D
(1763088080.650185) can0 4C8#0581000000000000
(1763088080.655900) can0 000A0003#FFBDF9AB21780000
(1763088080.656198) can0 000A0004#FF97FFC3FD248E02
(1763088080.656782) can0 682#4B50E60200000E00
(1763088080.659565) can0 1A5#0030EB0B000000
(1763088080.663448) can0 186#00004C1D01070000
(1763088080.663920) can0 189#8E05FB0350012401
(1763088080.664786) can0 080#
(1763088080.665021) can0 19A#0000806C787D8180
(1763088080.665271) can0 382#0000000000000000
(1763088080.665392) can0 701#05
(1763088080.665643) can0 181#810300207F000009
(1763088080.665925) can0 000A0003#0037F98E21420000
(1763088080.666208) can0 000A0004#FF8CFFAAFD238E02
(1763088080.666452) can0 286#0000580200000000
(1763088080.666692) can0 29A#7F76818083840000
(1763088080.666930) can0 482#840A000008160101
(1763088080.670276) can0 281#830A000000000000
(1763088080.671608) can0 188#14007C0000000000
(1763088080.672407) can0 288#302BEE2A00000000
(1763088080.673415) can0 388#2828290000000000
(1763088080.674535) can0 191#A8A8A8A8A8A8
(1763088080.675391) can0 192#A8A8A8A8A8A8
(1763088080.675900) can0 000A0003#007CF976212A0000
(1763088080.676185) can0 000A0004#FF8FFF9DFD288E02
(1763088080.676374) can0 193#A8A8A8A8A8A8
(1763088080.677379) can0 194#A8A8A8A8A8A8
(1763088080.678383) can0 195#A8A8A8A8A8A8
(1763088080.679383) can0 291#171C1E1E1E1B
(1763088080.680356) can0 292#191E201F201B
(1763088080.681357) can0 293#191D1F1E1E1A
(1763088080.682382) can0 294#191D1F1E1E1A
(1763088080.683393) can0 295#181C1D1C1C19
(1763088080.685904) can0 000A0003#00EAF95120F60000
(1763088080.686185) can0 000A0004#FF91FF98FD318E02
(1763088080.686446) can0 701#05
(1763088080.686768) can0 482#8A0A000008160101
(1763088080.687022) can0 382#0000000000000000
(1763088080.695904) can0 000A0003#0166F92920A40000
(1763088080.696197) can0 000A0004#FF76FF97FD378E02
(1763088080.697739) can0 682#4B50F40200000A00
(1763088080.703057) can0 181#810300207F000009
(1763088080.703404) can0 186#00004C1D01080000
(1763088080.705909) can0 000A0003#01DCF923206F0000
(1763088080.706188) can0 000A0004#FF59FF94FD3A8E02
(1763088080.708522) can0 482#920A000008160101
(1763088080.708637) can0 701#05
(1763088080.708891) can0 382#0000000000000000
(1763088080.709115) can0 1A3#000ECA06000000
(1763088080.711220) can0 4C4#0548057505510594
(1763088080.712235) can0 4C5#05A0059C058F057C
(1763088080.713251) can0 4C6#0586058F05900593
(1763088080.714015) can0 281#920A000000000000
(1763088080.714262) can0 4C7#05A4056B05290522
(1763088080.715293) can0 4C8#0581000000000000
(1763088080.715907) can0 000A0003#0227F92A20570000
(1763088080.716206) can0 000A0004#FF50FF97FD3B8E02
(1763088080.725313) can0 1A0#000000000100
(1763088080.725908) can0 000A0003#028FF91120110000
(1763088080.726191) can0 000A0004#FF53FF97FD388E02
(1763088080.726922) can0 000A0000#0000000000000000
(1763088080.727220) can0 000A0001#0000000000000000
(1763088080.727518) can0 000A0002#0000000000000000
(1763088080.730385) can0 382#0000000000000000
(1763088080.730543) can0 701#05
(1763088080.730788) can0 482#960A000008160101
(1763088080.732819) can0 1A4#C027230B000000
(1763088080.733045) can0 2A3#1117171714130D0B
(1763088080.735207) can0 1A2#002CD90F000000
(1763088080.735439) can0 2A1#1A1C1B1A1815110F
(1763088080.735907) can0 000A0003#02E7F8B61F8E0000
(1763088080.736205) can0 000A0004#FF5AFF9FFD338E02
(1763088080.738687) can0 682#4B50110300000700
(1763088080.741386) can0 181#810300207F000009
(1763088080.743401) can0 186#00004C1D01090000
(1763088080.745912) can0 000A0003#032BF8961F220000
(1763088080.746193) can0 000A0004#FF60FFA2FD2A8E02
(1763088080.751977) can0 701#05
(1763088080.752295) can0 482#980A000008160101
(1763088080.752550) can0 382#0000000000000000
(1763088080.755908) can0 000A0003#0342F8931EE30000
(1763088080.756200) can0 000A0004#FF64FF9EFD258E02
(1763088080.757751) can0 281#940A000000000000
(1763088080.761780) can0 1A5#C027EB0B000000
(1763088080.763447) can0 189#440298014F010001
(1763088080.763784) can0 080#
(1763088080.764937) can0 286#0000580200000000
(1763088080.765909) can0 000A0003#0354F88D1E720000
(1763088080.766188) can0 000A0004#FF63FFA4FD1D8E02
(1763088080.771614) can0 188#14007A0000000000
(1763088080.772430) can0 288#302BEE2A00000000
(1763088080.773441) can0 388#2828290000000000
(1763088080.774042) can0 482#950A000008160001
(1763088080.774163) can0 701#05
(1763088080.774417) can0 382#0000000000000000
(1763088080.774609) can0 191#A8A8A8A8A8A8
(1763088080.775367) can0 192#A8A8A8A8A8A8
(1763088080.775907) can0 000A0003#034BF8821DD80000
(1763088080.776205) can0 000A0004#FF5CFFA6FD128E02
(1763088080.776385) can0 193#A8A8A8A8A8A8
(1763088080.776616) can0 4C4#0549057A05570595
(1763088080.777344) can0 4C5#05A1059D0590057D
(1763088080.777540) can0 194#A8A8A8A8A8A8
(1763088080.778359) can0 4C6#0587059005910594
(1763088080.778548) can0 195#A8A8A8A8A8A8
(1763088080.779370) can0 4C7#05A5056C052A0523
(1763088080.779617) can0 181#810300207F000009
(1763088080.779823) can0 291#171C1E1E1E1B
(1763088080.780059) can0 682#4B502C0300000500
(1763088080.780404) can0 4C8#0582000000000000
(1763088080.780603) can0 292#191E201F201B
(1763088080.781383) can0 293#191D1F1E1E1A
(1763088080.782389) can0 294#191D1F1E1E1B
(1763088080.783402) can0 186#00004C1D010A0000
(1763088080.783604) can0 295#181C1E1C1C19
(1763088080.785911) can0 000A0003#0345F8931D700000
(1763088080.786188) can0 000A0004#FF52FFA7FD0C8E02
(1763088080.795921) can0 000A0003#0341F8D51CD30000
(1763088080.796208) can0 000A0004#FF3FFFA1FD058E02
(1763088080.796459) can0 382#0000000000000000
(1763088080.796576) can0 701#05
(1763088080.796823) can0 482#8B0A000008160001
(1763088080.801321) can0 281#830A000000000000
(1763088080.805918) can0 000A0003#033FF9081C3C0000
(1763088080.806198) can0 000A0004#FF35FFA2FD008E02
(1763088080.809910) can0 1A3#0030DD06000000
(1763088080.815917) can0 000A0003#0343F91E1BA80000
(1763088080.816200) can0 000A0004#FF3AFFA6FCF98E02
(1763088080.817715) can0 181#810300207F000009
(1763088080.817835) can0 701#05
(1763088080.818081) can0 482#790A000008160001
(1763088080.818337) can0 382#0000000000000000
(1763088080.823205) can0 682#4B50470300000300
(1763088080.823442) can0 186#00004C1D010B0000
(1763088080.825317) can0 1A0#000000000100
(1763088080.825920) can0 000A0003#0345F92D1B580000
(1763088080.826207) can0 000A0004#FF3FFFA8FCF58E02
(1763088080.826933) can0 000A0000#0000000000000000
(1763088080.827232) can0 000A0001#0000000000000000
(1763088080.827532) can0 000A0002#0000000000000000
(1763088080.835915) can0 000A0003#0359F94B1AFD0000
(1763088080.836201) can0 000A0004#FF40FFADFCEF8E02
(1763088080.839558) can0 482#6B0A000008160001
(1763088080.839679) can0 701#05
(1763088080.839899) can0 1A4#80274A0B000000
(1763088080.840126) can0 2A3#1217171714130D0C
(1763088080.840378) can0 382#0000000000000000
(1763088080.841450) can0 4C4#0548057505560590
(1763088080.842458) can0 4C5#0598059905880578
(1763088080.842826) can0 1A2#C0232C10000000
(1763088080.843053) can0 2A1#1A1C1B1B1716110F
(1763088080.843476) can0 4C6#058605850589058F
(1763088080.844492) can0 4C7#059D05630524051D
(1763088080.845060) can0 281#660A000000000000
(1763088080.845520) can0 4C8#0581000000000000
(1763088080.845926) can0 000A0003#0361F93E1AB20000
(1763088080.846210) can0 000A0004#FF45FFB4FCEC8E02
(1763088080.855923) can0 000A0003#0352F8E11A860000
(1763088080.856210) can0 000A0004#FF5BFFBEFCE78E02
(1763088080.856456) can0 181#810300207F000009
(1763088080.861426) can0 382#0000000000000000
(1763088080.861545) can0 701#05
(1763088080.861834) can0 482#5E0A000008160001
(1763088080.863431) can0 186#00004C1D010C0000
(1763088080.863934) can0 189#BB053B044F012701
(1763088080.864154) can0 1A5#C029350C000000
(1763088080.864393) can0 682#4B505D0300000300
(1763088080.864771) can0 080#
(1763088080.865915) can0 000A0003#0348F8A51A9D0000
(1763088080.866197) can0 000A0004#FF62FFC7FCE38E02
(1763088080.866441) can0 286#0000580200000000
(1763088080.870974) can0 19A#00007E6D717D8080
(1763088080.871663) can0 188#14007B0000000000
(1763088080.871938) can0 29A#7E69828086840000
(1763088080.872437) can0 288#3D2BF12A00000000
(1763088080.873448) can0 388#2828290000000000
(1763088080.874369) can0 191#A8A9A9A9A9A8
(1763088080.875376) can0 192#A8A9A9A9A8A8
(1763088080.875922) can0 000A0003#0324F86B1B0B0000
(1763088080.876208) can0 000A0004#FF61FFB9FCE18E02
(1763088080.876397) can0 193#A8A9A9A9A9A8
(1763088080.877389) can0 194#A8A9A9A9A9A8
(1763088080.878365) can0 195#A8A8A9A9A9A9
(1763088080.879380) can0 291#171C1E1F1E1B
(1763088080.880388) can0 292#191E201F201B
(1763088080.881388) can0 293#191D1F1E1E1A
(1763088080.882397) can0 294#191D1F1F1E1B
(1763088080.883025) can0 701#05
(1763088080.883348) can0 482#520A000008160001
(1763088080.883550) can0 295#181C1E1C1C19
(1763088080.883801) can0 382#0000000000000000
(1763088080.885922) can0 000A0003#030DF8421B570000
(1763088080.886202) can0 000A0004#FF60FFABFCDA8E02
(1763088080.888750) can0 281#500A000000000000
(1763088080.894210) can0 181#810300207F000009
(1763088080.895928) can0 000A0003#030EF8391B650000
(1763088080.896209) can0 000A0004#FF61FFA4FCD28E02
(1763088080.903387) can0 186#00004C1D010D0000
(1763088080.905120) can0 482#4E0A000008160001
(1763088080.905274) can0 701#05
(1763088080.905510) can0 682#4B50720300000200
(1763088080.905761) can0 382#0000000000000000
(1763088080.906044) can0 000A0003#030FF82D1B790000
(1763088080.906330) can0 000A0004#FF60FF97FCCE8E02
(1763088080.906565) can0 4C4#0548057505560590
(1763088080.907571) can0 4C5#0598059905880578
(1763088080.908589) can0 4C6#058605850589058F
(1763088080.909605) can0 4C7#059D05630524051D
(1763088080.910633) can0 4C8#0581000000000000
(1763088080.910925) can0 1A3#8027C006000000
(1763088080.915928) can0 000A0003#02ABF89D1B3D0000
(1763088080.916211) can0 000A0004#FF5BFF8AFCD08E02
(1763088080.925317) can0 1A0#000000000000
(1763088080.925928) can0 000A0003#024CF8FF1AF00000
(1763088080.926210) can0 000A0004#FF56FF7FFCD38E02
(1763088080.926939) can0 000A0000#0000000000000000
(1763088080.927238) can0 000A0001#0000000000000000
(1763088080.927536) can0 000A0002#0000000000000000
(1763088080.927786) can0 382#0000000000000000
(1763088080.927910) can0 701#05
(1763088080.928155) can0 482#4F0A000008160001
(1763088080.932385) can0 181#810300207F000009
(1763088080.932631) can0 281#500A000000000000
(1763088080.935924) can0 000A0003#020EF9331AA60000
(1763088080.936207) can0 000A0004#FF58FF7FFCD88E02
(1763088080.943384) can0 186#00004C1D010E0000
(1763088080.945954) can0 000A0003#01B6F97D1A3B0000
(1763088080.946215) can0 000A0004#FF64FF84FCE18E02
(1763088080.946453) can0 682#4B50840300000100
(1763088080.946991) can0 1A4#C029260C000000
(1763088080.947217) can0 2A3#1217171614130D0C
(1763088080.948535) can0 701#05
(1763088080.948856) can0 482#510A000008160001
(1763088080.949110) can0 382#0000000000000000
(1763088080.950450) can0 1A2#C021420F000000
(1763088080.950677) can0 2A1#1A1C1B1B1716110F
(1763088080.955928) can0 000A0003#01CCF99019CA0000
(1763088080.956211) can0 000A0004#FF7EFF8AFCEB8E02
(1763088080.963425) can0 189#8608570650014901
(1763088080.963770) can0 080#
(1763088080.964921) can0 286#0000580200000000
(1763088080.965935) can0 000A0003#01E0F9BB19690000
(1763088080.966218) can0 000A0004#FF93FF9AFCF58E02
(1763088080.966437) can0 1A5#C0279D0B000000
(1763088080.970605) can0 482#570A000008160001
(1763088080.970724) can0 701#05
(1763088080.970978) can0 382#0000000000000000
(1763088080.971266) can0 181#810300207F000009
(1763088080.971659) can0 188#14007B0000000000
(1763088080.971892) can0 4C4#05480575055A0598
(1763088080.972425) can0 288#3D2BF12A00000000
(1763088080.972699) can0 4C5#05A005A3058F057F
(1763088080.973426) can0 388#2828290000000000
(1763088080.973709) can0 4C6#0589058C05930596
(1763088080.974375) can0 191#A8A9A9A9A9A8
(1763088080.974725) can0 4C7#05A8056B052D051D
(1763088080.975383) can0 192#A8A9A9A9A8A8
(1763088080.975755) can0 4C8#0581000000000000
(1763088080.976043) can0 000A0003#01EDF9FA19390000
(1763088080.976331) can0 000A0004#FF99FFB4FCFB8E02
(1763088080.976523) can0 193#A8A9A9A9A9A8
(1763088080.976766) can0 281#570A000000000000
(1763088080.977366) can0 194#A8A9A9A9A9A8
(1763088080.978371) can0 195#A8A8A9A9A9A9
(1763088080.979386) can0 291#171C1E1F1E1B
(1763088080.980394) can0 292#191E201F201B
(1763088080.981396) can0 293#191D1F1E1E1A
(1763088080.982376) can0 294#191D1F1F1E1B
(1763088080.983383) can0 186#00004C1D010F0000
(1763088080.983584) can0 295#181C1E1C1C19
(1763088080.985935) can0 000A0003#01FEFA5318F30000
(1763088080.986218) can0 000A0004#FF9EFFC8FD068E02
(1763088080.987006) can0 682#4B50950300000100
(1763088080.992472) can0 382#0000000000000000
(1763088080.992592) can0 701#05
(1763088080.992878) can0 482#600A000008160001
(1763088080.995926) can0 000A0003#0232FA9919220000
(1763088080.996211) can0 000A0004#FF9FFFDEFD0C8E02
(1763088081.005935) can0 000A0003#0253FAC619400000
(1763088081.006218) can0 000A0004#FF9FFFEBFD0E8E02
(1763088081.011663) can0 181#810300207F000009
(1763088081.011933) can0 1A3#C0117A07000000
(1763088081.014065) can0 701#05
(1763088081.014385) can0 482#640A000008160001
(1763088081.014637) can0 382#0000000000000000
(1763088081.015931) can0 000A0003#029CFB16195C0000
(1763088081.016215) can0 000A0004#FF9DFFF0FD138E02
(1763088081.019798) can0 281#610A000000000000
(1763088081.023382) can0 186#00004C1D01000000
(1763088081.025317) can0 1A0#000000000000
(1763088081.025936) can0 000A0003#02E2FB6319760000
(1763088081.026219) can0 000A0004#FF94FFECFD148E02
(1763088081.026946) can0 000A0000#0000000000000000
(1763088081.027246) can0 000A0001#0000000000000000
(1763088081.027544) can0 000A0002#0000000000000000
(1763088081.027962) can0 682#4B50A40300000200
(1763088081.035941) can0 000A0003#02FCFB6219350000
(1763088081.036224) can0 000A0004#FF95FFDBFD108E02
(1763088081.036465) can0 482#620A000008160001
(1763088081.036587) can0 701#05
(1763088081.036817) can0 4C4#0542057505560594
(1763088081.037068) can0 382#0000000000000000
(1763088081.037818) can0 4C5#05A005990588057C
(1763088081.038832) can0 4C6#05890585058C0593
(1763088081.039845) can0 4C7#05A1056B05290518
(1763088081.040876) can0 4C8#0581000000000000
(1763088081.045935) can0 000A0003#030EFB62190C0000
(1763088081.046218) can0 000A0004#FF9DFFD7FD118E02
(1763088081.049825) can0 181#810300207F000009
(1763088081.054067) can0 1A4#C029350C000000
(1763088081.054296) can0 2A3#1217171614140E0D
(1763088081.055935) can0 000A0003#02F4FB6518550000
(1763088081.056221) can0 000A0004#FFAEFFC3FD138E02
(1763088081.057993) can0 382#0000000000000000
(1763088081.058218) can0 1A2#002CAA0E000000
(1763088081.058453) can0 2A1#1A1C1C1B1716110F
(1763088081.058567) can0 701#05
(1763088081.058853) can0 482#620A000008160001
(1763088081.059965) can0 19A#00007E716D7E807F
(1763088081.060977) can0 29A#816D7F8082830000
(1763088081.063411) can0 281#5D0A000000000000
(1763088081.063655) can0 186#00004C1D01010000
(1763088081.063925) can0 189#D406040550013401
(1763088081.064786) can0 080#
(1763088081.065937) can0 000A0003#02C3FB6817A70000
(1763088081.066221) can0 000A0004#FFBEFFB2FD188E02
(1763088081.066465) can0 286#0000580200000000
(1763088081.068398) can0 1A5#C029300C000000
(1763088081.069002) can0 682#4B50B10300000100
(1763088081.071664) can0 188#14007B0000000000
(1763088081.072416) can0 288#412B342A00000000
(1763088081.073432) can0 388#2828290000000000
(1763088081.074382) can0 191#A8A9A9A9A9A8
(1763088081.075390) can0 192#A8A9A9A9A9A8
(1763088081.075937) can0 000A0003#029CFB7616C30000
(1763088081.076225) can0 000A0004#FFC0FFAEFD1C8E02
(1763088081.076414) can0 193#A8A9A9A9A9A9
(1763088081.077373) can0 194#A8A9A9A9A9A8
(1763088081.078378) can0 195#A8A9A9A9A9A9
(1763088081.079393) can0 291#171C1E1F1E1B
(1763088081.079592) can0 701#05
(1763088081.079910) can0 482#5D0A000008160001
(1763088081.080164) can0 382#0000000000000000
(1763088081.080405) can0 292#191E201F201B
(1763088081.081373) can0 293#191D1F1E1E1A
(1763088081.082381) can0 294#191D1F1F1E1B
(1763088081.083395) can0 295#181C1E1C1C19
(1763088081.085947) can0 000A0003#0282FB7E16310000
(1763088081.086229) can0 000A0004#FFC3FFABFD218E02
(1763088081.090780) can0 181#810300207F000009
(1763088081.095942) can0 000A0003#0259FB9115C00000
(1763088081.096229) can0 000A0004#FFC5FFAEFD2B8E02
(1763088081.101652) can0 482#550A000008160001
(1763088081.101771) can0 701#05
(1763088081.102003) can0 4C4#054205700551058C
(1763088081.102254) can0 382#0000000000000000
(1763088081.102917) can0 4C5#059C058E05850578
(1763088081.103374) can0 186#00004C1D01020000
(1763088081.103934) can0 4C6#058205810585058C
(1763088081.104947) can0 4C7#059A05670529051D
(1763088081.105938) can0 000A0003#0230FBA415550000
(1763088081.106220) can0 000A0004#FFBAFFABFD358E02
(1763088081.106466) can0 4C8#0581000000000000
(1763088081.107153) can0 281#500A000000000000
(1763088081.109870) can0 682#4B50BE0300000100
(1763088081.112937) can0 1A3#00277A07000000
(1763088081.115939) can0 000A0003#021DFB9F15240000
(1763088081.116227) can0 000A0004#FFB5FFA5FD378E02
(1763088081.123518) can0 382#0000000000000000
(1763088081.123639) can0 701#05
(1763088081.123922) can0 482#4A0A000008160001
(1763088081.125412) can0 1A0#000000000000
(1763088081.125950) can0 000A0003#0201FB9814DD0000
(1763088081.126234) can0 000A0004#FFB1FFAEFD438E02
(1763088081.126960) can0 000A0000#0000000000000000
(1763088081.127260) can0 000A0001#0000000000000000
(1763088081.127558) can0 000A0002#0000000000000000
(1763088081.128953) can0 181#810300207F000009
(1763088081.135949) can0 000A0003#0207FB7B14820000
(1763088081.136237) can0 000A0004#FFB6FFC0FD4F8E02
(1763088081.143371) can0 186#00004C1D01030000
(1763088081.145187) can0 701#05
(1763088081.145466) can0 482#3D0A000008160001
(1763088081.145721) can0 382#0000000000000000
(1763088081.146002) can0 000A0003#021CFB55142B0000
(1763088081.146290) can0 000A0004#FFBFFFD3FD5A8E02
(1763088081.150822) can0 682#4B50CA0300000000
(1763088081.151117) can0 281#3D0A000000000000
(1763088081.155952) can0 000A0003#021FFB4B14090000
(1763088081.156237) can0 000A0004#FFC8FFD6FD5C8E02
(1763088081.161139) can0 1A4#0026120C000000
(1763088081.161367) can0 2A3#1217171614140E0D
(1763088081.163406) can0 189#920449039C011809
(1763088081.163787) can0 080#
(1763088081.164938) can0 286#0000580200000000
(1763088081.165673) can0 1A2#C028F40E000000
(1763088081.165954) can0 000A0003#0222FB3D13D90000
(1763088081.166239) can0 000A0004#FFCEFFE6FD678E02
(1763088081.166466) can0 2A1#1A1C1C1B17161210
(1763088081.167026) can0 4C4#05420575055A0598
(1763088081.167270) can0 482#300A000008160001
(1763088081.167392) can0 701#05
(1763088081.167645) can0 382#0000000000000000
(1763088081.167895) can0 181#810300207F000009
(1763088081.168129) can0 4C5#05A0059C058C0578
(1763088081.169056) can0 4C6#0586058F058C058F
(1763088081.170066) can0 4C7#05A4056705290522
(1763088081.170594) can0 1A5#C029350C000000
(1763088081.171096) can0 4C8#0581000000000000
(1763088081.171614) can0 188#14007B0000000000
(1763088081.172406) can0 288#412B342A00000000
(1763088081.173420) can0 388#2828290000000000
(1763088081.174542) can0 191#A8A9A9A9A9A8
(1763088081.175398) can0 192#A8A9A9A9A9A8
(1763088081.175949) can0 000A0003#0221FB5113D00000
(1763088081.176236) can0 000A0004#FFC1FFF5FD6E8E02
(1763088081.176426) can0 193#A8A9A9A9A9A9
(1763088081.177382) can0 194#A8A9A9A9A9A8
(1763088081.178386) can0 195#A8A9A9A9A9A9
(1763088081.179383) can0 291#171C1E1F1E1B
(1763088081.180363) can0 292#191E201F201B
(1763088081.181365) can0 293#191D1F1E1E1A
(1763088081.182388) can0 294#191D1F1F1E1B
(1763088081.183366) can0 186#00004C1D01040000
(1763088081.183568) can0 295#181C1E1C1C19
(1763088081.185956) can0 000A0003#021DFB7513C70000
(1763088081.186238) can0 000A0004#FFB5FFF2FD728E02
(1763088081.189042) can0 382#0000000000000000
(1763088081.189161) can0 701#05
(1763088081.189451) can0 482#240A000008160001
(1763088081.191768) can0 682#4B50D40300000000
(1763088081.194463) can0 281#270A000000000000
(1763088081.195948) can0 000A0003#020FFB8613CF0000
(1763088081.196233) can0 000A0004#FFBAFFEEFD728E02
(1763088081.205446) can0 181#810300207F000009
(1763088081.205950) can0 000A0003#01FBFB9E13D90000
(1763088081.206239) can0 000A0004#FFC3FFF4FD738E02
(1763088081.210628) can0 701#05
(1763088081.210956) can0 482#160A000008160001
(1763088081.211207) can0 382#0000000000000000
(1763088081.213918) can0 1A3#002CA107000000
(1763088081.215951) can0 000A0003#0230FBA313CE0000
(1763088081.216241) can0 000A0004#FFC9FFF2FD748E02
(1763088081.223375) can0 186#00004C1D01050000
(1763088081.225412) can0 1A0#000000000000
(1763088081.225953) can0 000A0003#026BFBA013C70000
(1763088081.226235) can0 000A0004#FFC9FFF1FD758E02
(1763088081.226967) can0 000A0000#0000000000000000
(1763088081.227265) can0 000A0001#0000000000000000
(1763088081.227563) can0 000A0002#0000000000000000
(1763088081.229995) can0 382#0000000000000000
(1763088081.230114) can0 701#05
(1763088081.230399) can0 482#0F0A000008160001
(1763088081.232148) can0 4C4#05420575055A0598
(1763088081.232731) can0 682#4B50DD0300000000
(1763088081.233163) can0 4C5#05A0059C058C0578
(1763088081.234177) can0 4C6#0586058F058C058F
(1763088081.235189) can0 4C7#05A4056705290522
(1763088081.235956) can0 000A0003#02C2FBA013930000
(1763088081.236243) can0 000A0004#FFCCFFE4FD758E02
(1763088081.236485) can0 4C8#0581000000000000
(1763088081.238191) can0 281#0A0A000000000000
(1763088081.243615) can0 181#810300207F000009
(1763088081.245959) can0 000A0003#0317FBA1134E0000
(1763088081.246241) can0 000A0004#FFD5FFD2FD748E02
(1763088081.251580) can0 701#05
(1763088081.251905) can0 482#FB09000008160001
(1763088081.252160) can0 382#0000000000000000
(1763088081.255956) can0 000A0003#03A3FBB6130A0000
(1763088081.256242) can0 000A0004#FFE5FFBCFD798E02
(1763088081.263408) can0 186#00004C1D01060000
(1763088081.263957) can0 189#C302ED01A7010209
(1763088081.264762) can0 080#
(1763088081.266000) can0 000A0003#040FFBCA12DE0000
(1763088081.266245) can0 000A0004#FFEDFFABFD778E02
(1763088081.266482) can0 19A#00007D6C6F7F837E
(1763088081.266725) can0 286#0000580200000000
(1763088081.266963) can0 29A#8167818183840000
(1763088081.268214) can0 1A4#C028AF0C000000
(1763088081.268421) can0 2A3#1217171614140F0E
(1763088081.271650) can0 188#1400730000000000
(1763088081.272429) can0 288#442BF42900000000
(1763088081.272794) can0 1A5#C021D10C000000
(1763088081.273293) can0 1A2#C027940D000000
(1763088081.273522) can0 2A1#1A1C1C1A17161210
(1763088081.273770) can0 388#2828290000000000
(1763088081.274010) can0 482#E509000008160001
(1763088081.274132) can0 701#05
(1763088081.274373) can0 682#4B50E60300000100
(1763088081.274565) can0 191#A9A9A9A9A9A8
(1763088081.274815) can0 382#0000000000000000
(1763088081.275375) can0 192#A8A9A9A9A9A8
(1763088081.275965) can0 000A0003#04D3FC0413030000
(1763088081.276252) can0 000A0004#FFF5FFA1FD768E02
(1763088081.276443) can0 193#A8A9A9A9A9A9
(1763088081.277389) can0 194#A9A9A9A9A9A9
(1763088081.278394) can0 195#A8A9A9A9A9A9
(1763088081.279375) can0 291#171C1F1F1E1B
(1763088081.280385) can0 292#191E201F201B
(1763088081.281390) can0 293#191D1F1E1E1A
(1763088081.282398) can0 294#191E1F1F1E1B
(1763088081.283410) can0 295#181C1E1C1C19
(1763088081.284575) can0 181#810300207F000009
(1763088081.284825) can0 281#DB09000000000000
(1763088081.285956) can0 000A0003#05A1FC4A13570000
(1763088081.286241) can0 000A0004#FFFAFFADFD818E02
(1763088081.295563) can0 382#0000000000000000
(1763088081.295626) can0 701#05
(1763088081.295971) can0 000A0003#0671FC7713440000
(1763088081.296256) can0 000A0004#0001FFBCFD958E02
(1763088081.296494) can0 482#D409000008160001
(1763088081.297253) can0 4C4#054D057005510594
(1763088081.298270) can0 4C5#05A40599058C0575
(1763088081.299285) can0 4C6#057F0585058C0593
(1763088081.300298) can0 4C7#05A1056705290522
(1763088081.301330) can0 4C8#0581000000000000
(1763088081.303357) can0 186#00004C1D01070000
(1763088081.305965) can0 000A0003#06F9FC8E13180000
(1763088081.306252) can0 000A0004#0004FFCFFDA68E02
(1763088081.314630) can0 682#4B50ED0300000100
(1763088081.314892) can0 1A3#00070509000000
(1763088081.315964) can0 000A0003#0758FCD713130000
(1763088081.316254) can0 000A0004#FFFCFFFEFDBE8E02
(1763088081.317104) can0 701#05
(1763088081.317425) can0 482#C309000008160001
(1763088081.317677) can0 382#0000000000000000
(1763088081.322896) can0 181#810300207F000009
(1763088081.325320) can0 1A0#000000000000
(1763088081.325957) can0 000A0003#0780FD32132B0000
(1763088081.326246) can0 000A0004#FFEF0031FDDD8E02
(1763088081.326978) can0 000A0000#0000000000000000
(1763088081.327280) can0 000A0001#0000000000000000
(1763088081.327577) can0 000A0002#0000000000000000
(1763088081.328282) can0 281#B609000000000000
(1763088081.335968) can0 000A0003#078FFD6A13550000
(1763088081.336257) can0 000A0004#FFEA003EFDEF8E02
(1763088081.339172) can0 482#AD09000008160001
(1763088081.339292) can0 701#05
(1763088081.339546) can0 382#0000000000000000
(1763088081.343350) can0 186#00004C1D01080000
(1763088081.345972) can0 000A0003#0794FDB913B70000
(1763088081.346255) can0 000A0004#FFF30066FE038E02
(1763088081.355575) can0 682#4B50F40300000100
(1763088081.355960) can0 000A0003#079AFDED13A80000
(1763088081.356246) can0 000A0004#00010093FE178E02
(1763088081.361037) can0 382#0000000000000000
(1763088081.361156) can0 701#05
(1763088081.361403) can0 181#810300207F000009
(1763088081.361642) can0 482#8509000008160001
(1763088081.362380) can0 4C4#054D057005510594
(1763088081.363390) can0 189#48029701B9010009
(1763088081.363624) can0 4C5#05A40599058C0575
(1763088081.363803) can0 080#
(1763088081.364408) can0 4C6#057F0585058C0593
(1763088081.364920) can0 286#0000580200000000
(1763088081.365421) can0 4C7#05A4056B0532052C
(1763088081.365963) can0 000A0003#07A3FE1313660000
(1763088081.366253) can0 000A0004#000F00B8FE258E02
(1763088081.366499) can0 4C8#0581000000000000
(1763088081.371637) can0 188#1400750000000000
(1763088081.372031) can0 281#6009000000000000
(1763088081.372435) can0 288#442BF42900000000
(1763088081.373451) can0 388#2828290000000000
(1763088081.374375) can0 191#A9A9A9A9A9A8
(1763088081.374998) can0 1A5#C01F1D0E000000
(1763088081.375252) can0 1A4#C028720D000000
(1763088081.375444) can0 192#A8A9A9A9A9A8
(1763088081.375673) can0 2A3#1217171614140F0E
(1763088081.375968) can0 000A0003#0787FE3713440000
(1763088081.376253) can0 000A0004#000D00C2FE318E02
(1763088081.376445) can0 193#A8A9A9A9A9A9
(1763088081.377378) can0 194#A9A9A9A9A9A9
(1763088081.378368) can0 195#A8A9A9A9A9A9
(1763088081.379381) can0 291#171C1F1F1E1B
(1763088081.380395) can0 292#191E201F201B
(1763088081.380918) can0 1A2#C01F720D000000
(1763088081.381148) can0 2A1#1A1C1C1A18171311
(1763088081.381394) can0 293#191D1F1E1E1A
(1763088081.382406) can0 294#191E1F1F1E1B
(1763088081.382636) can0 701#05
(1763088081.382955) can0 482#4009000008160001
(1763088081.383209) can0 382#0000000000000000
(1763088081.383449) can0 186#00004C1D01090000
(1763088081.383653) can0 295#181C1E1C1C19
(1763088081.385968) can0 000A0003#072CFE7C13220000
(1763088081.386255) can0 000A0004#000200DDFE438E02
(1763088081.395972) can0 000A0003#06FCFE7C12C70000
(1763088081.396255) can0 000A0004#FFE900E3FE558E02
(1763088081.396532) can0 682#4B50FA0300000000
(1763088081.399232) can0 181#810300207F000009
(1763088081.404700) can0 482#0C09000008160001
(1763088081.404819) can0 701#05
(1763088081.405072) can0 382#0000000000000000
(1763088081.405972) can0 000A0003#0718FE5C12520000
(1763088081.406254) can0 000A0004#FFCD00D8FE648E02
(1763088081.415556) can0 281#F708000000000000
(1763088081.415870) can0 1A3#001CB208000000
(1763088081.416150) can0 000A0003#070AFE6E12570000
(1763088081.416435) can0 000A0004#FFCD00CCFE708E02
(1763088081.423346) can0 186#00004C1D010A0000
(1763088081.425335) can0 1A0#000000000000
(1763088081.425978) can0 000A0003#06C7FEBF12D20000
(1763088081.426265) can0 000A0004#FFD400BFFE818E02
(1763088081.426571) can0 382#0000000000000000
(1763088081.426727) can0 701#05
(1763088081.427027) can0 000A0000#0000000000000000
(1763088081.427327) can0 000A0001#0000000000000000
(1763088081.427627) can0 000A0002#0000000000000000
(1763088081.427865) can0 482#CF08000008160001
(1763088081.428098) can0 4C4#0577058C055E059C
(1763088081.428522) can0 4C5#05A705A305960583
(1763088081.429536) can0 4C6#058D058F059A05A1
(1763088081.430547) can0 4C7#05A8057605360536
(1763088081.431578) can0 4C8#0581000000000000
(1763088081.435975) can0 000A0003#0695FF1812CD0000
(1763088081.436260) can0 000A0004#FFE300A8FE8F8E02
(1763088081.437482) can0 682#4B50000400000100
(1763088081.437732) can0 181#810300207F000009
(1763088081.445975) can0 000A0003#0686FF5412A20000
(1763088081.446259) can0 000A0004#FFEC009EFE998E02
(1763088081.448128) can0 701#05
(1763088081.448473) can0 482#9008000008160001
(1763088081.448726) can0 382#0000000000000000
(1763088081.454959) can0 19A#00007C68757D847C
(1763088081.455976) can0 000A0003#067FFFC1124F0000
(1763088081.456259) can0 000A0004#FFEE0086FEAD8E02
(1763088081.456494) can0 29A#7F68828582830000
(1763088081.459334) can0 281#8208000000000000
(1763088081.463375) can0 186#00004C1D010B0000
(1763088081.463926) can0 189#47029801ED010008
(1763088081.464787) can0 080#
(1763088081.465971) can0 000A0003#0693005511D40000
(1763088081.466254) can0 000A0004#FFDD0073FEC68E02
(1763088081.466498) can0 286#0000580200000000
(1763088081.467379) can0 701#05
(1763088081.470221) can0 482#8308000008160001
(1763088081.470471) can0 382#0000000000000000
(1763088081.471663) can0 188#1400760000000000
(1763088081.472444) can0 288#472BF42A00000000
(1763088081.473429) can0 388#2828290000000000
(1763088081.474380) can0 191#A9A9A9A9A9A9
(1763088081.475387) can0 192#A9A9A9A9A9A9
(1763088081.475774) can0 181#810300207F000009
(1763088081.476059) can0 000A0003#06BB00C111510000
(1763088081.476344) can0 000A0004#FFBE006EFEE28E02
(1763088081.476533) can0 193#A9A9A9A9A9A9
(1763088081.477206) can0 1A5#C0212C10000000
(1763088081.477400) can0 194#A9A9A9A9A9A9
(1763088081.478378) can0 195#A9A9A9A9A9A9
(1763088081.478621) can0 682#4B50050400000100
(1763088081.479388) can0 291#171C1F1F1E1B
(1763088081.480403) can0 292#191E201F201B
(1763088081.481400) can0 293#191D1F1E1E1A
(1763088081.482331) can0 1A4#C01F810D000000
(1763088081.482529) can0 294#191E1F1F1E1B
(1763088081.482763) can0 2A3#121717161413100E
(1763088081.483393) can0 295#181C1E1C1C19
(1763088081.485975) can0 000A0003#06ED00DB10F70000
(1763088081.486254) can0 000A0004#FFAE006BFEF58E02
(1763088081.488553) can0 1A2#C01FAF0C000000
(1763088081.488777) can0 2A1#1B1D1C1A18171311
(1763088081.489120) can0 701#05
(1763088081.492082) can0 382#0000000000000000
(1763088081.492335) can0 482#BE08000008160001
(1763088081.492654) can0 4C4#059F05AC057005B2
(1763088081.493663) can0 4C5#05C705BC05AE058D
(1763088081.494681) can0 4C6#059A05A105A805AF
(1763088081.495701) can0 4C7#05C0058E05560558
(1763088081.495985) can0 000A0003#073000ED10950000
(1763088081.496266) can0 000A0004#FFA50065FF188E02
(1763088081.496725) can0 4C8#0581000000000000
(1763088081.503037) can0 281#FE08000000000000
(1763088081.503367) can0 186#00004C1D010C0000
(1763088081.505980) can0 000A0003#076300D710750000
(1763088081.506260) can0 000A0004#FFAE006DFF358E02
(1763088081.510954) can0 701#05
(1763088081.513898) can0 181#810300207F000009
(1763088081.514145) can0 482#1E09000008160001
(1763088081.514399) can0 382#0000000000000000
(1763088081.515985) can0 000A0003#078B00C1103B0000
(1763088081.516266) can0 000A0004#FFBA0074FF518E02
(1763088081.516867) can0 1A3#C01F1608000000
(1763088081.519384) can0 682#4B500A0400000100
(1763088081.525334) can0 1A0#000000000000
(1763088081.525986) can0 000A0003#079900AF100D0000
(1763088081.526265) can0 000A0004#FFB70071FF618E02
(1763088081.526993) can0 000A0000#0000000000000000
(1763088081.527295) can0 000A0001#0000000000000000
(1763088081.527591) can0 000A0002#0000000000000000
(1763088081.532807) can0 701#05
(1763088081.535740) can0 482#1A09000008160001
(1763088081.536028) can0 000A0003#07D7008B0FAC0000
(1763088081.536311) can0 000A0004#FFAE0075FF7E8E02
(1763088081.536560) can0 382#0000000000000000
(1763088081.543333) can0 186#00004C1D010D0000
(1763088081.545988) can0 000A0003#086500520F110000
(1763088081.546268) can0 000A0004#FFA00066FF978E02
(1763088081.546643) can0 281#1009000000000000
(1763088081.552229) can0 181#810300207F000009
(1763088081.554632) can0 701#05
(1763088081.555982) can0 000A0003#08C1002E0EA30000
(1763088081.556267) can0 000A0004#FF93005FFFA78E02
(1763088081.557610) can0 382#0000000000000000
(1763088081.557848) can0 4C4#059F05AC057005B2
(1763088081.558088) can0 482#D308000008160001
(1763088081.558806) can0 4C5#05C705BC05AE058D
(1763088081.559823) can0 4C6#059A05A105A805AF
(1763088081.560351) can0 682#4B500E0400000100
(1763088081.560841) can0 4C7#05C0058E05560558
(1763088081.561868) can0 4C8#0581000000000000
(1763088081.563372) can0 189#45029901E9010008
(1763088081.563790) can0 080#
(1763088081.564940) can0 286#0000580200000000
(1763088081.565990) can0 000A0003#0934003D0DF10000
(1763088081.566278) can0 000A0004#FF820049FFBC8E02
(1763088081.571653) can0 188#1400760000000000
(1763088081.572421) can0 288#472BF42900000000
(1763088081.573437) can0 388#2828290000000000
(1763088081.574370) can0 191#A9A9A9A9A9A9
(1763088081.575377) can0 192#A9A9A9A9A9A9
(1763088081.575982) can0 000A0003#098500680D450000
(1763088081.576267) can0 000A0004#FF74003CFFD38E02
(1763088081.576456) can0 193#A9A9A9A9A9A9
(1763088081.576574) can0 701#05
(1763088081.577378) can0 194#A9A9A9A9A9A9
(1763088081.578386) can0 195#A9A9A9A9A9A9
(1763088081.579404) can0 1A5#C01F2A11000000
(1763088081.579602) can0 291#171C1F1F1E1B
(1763088081.579841) can0 482#4D08000008160001
(1763088081.580095) can0 382#0000000000000000
(1763088081.580409) can0 292#191E201F201B
(1763088081.581381) can0 293#191D1F1E1E1A
(1763088081.582371) can0 294#191E1F1F1E1B
(1763088081.583328) can0 186#00004C1D010E0000
(1763088081.583530) can0 295#181C1E1C1C19
(1763088081.585991) can0 000A0003#099900C60C9A0000
(1763088081.586272) can0 000A0004#FF6F0022FFE48E02
(1763088081.589397) can0 1A4#801FD10C000000
(1763088081.589625) can0 2A3#121717161413100F
(1763088081.590448) can0 181#810300207F000009
(1763088081.590701) can0 281#3808000000000000
(1763088081.595988) can0 000A0003#09A701030C2C0000
(1763088081.596274) can0 000A0004#FF6F0012FFEB8E02
(1763088081.596495) can0 1A2#001F9D0B000000
(1763088081.596724) can0 2A1#1B1D1C1B18171411
(1763088081.598328) can0 701#05
(1763088081.601266) can0 482#3208000008160001
(1763088081.601509) can0 682#4B50120400000000
(1763088081.601762) can0 382#0000000000000000
(1763088081.605990) can0 000A0003#095F018E0C1F0000
(1763088081.606275) can0 000A0004#FF71FFFBFFFC8E02
(1763088081.615998) can0 000A0003#091A02080C160000
(1763088081.616282) can0 000A0004#FF73FFE0000C8E02
(1763088081.617838) can0 1A3#C01FCD07000000
(1763088081.620150) can0 701#05
(1763088081.622924) can0 4C4#05D005CF058105C5
(1763088081.623173) can0 382#0000000000000000
(1763088081.623415) can0 186#00004C1D010F0000
(1763088081.623663) can0 482#2008000008160001
(1763088081.623934) can0 4C5#05D505CD05B80597
(1763088081.624951) can0 4C6#05A805AB05B505C4
(1763088081.625334) can0 1A0#000000000000
(1763088081.625991) can0 000A0003#08D502690C120000
(1763088081.626277) can0 000A0004#FF71FFD3001B8E02
(1763088081.626507) can0 4C7#05D505A10563057D
(1763088081.627007) can0 000A0000#0000000000000000
(1763088081.627308) can0 000A0001#0000000000000000
(1763088081.627607) can0 000A0002#0000000000000000
(1763088081.627851) can0 4C8#0581000000000000
(1763088081.628572) can0 181#810300207F000009
(1763088081.634077) can0 281#2308000000000000
(1763088081.635994) can0 000A0003#08A802A70C100000
(1763088081.636277) can0 000A0004#FF77FFD000258E02
(1763088081.642000) can0 701#05
(1763088081.642314) can0 682#4B50160400000000
(1763088081.644974) can0 482#2108000008160001
(1763088081.645224) can0 382#0000000000000000
(1763088081.645990) can0 000A0003#08B702AC0C230000
(1763088081.646275) can0 000A0004#FF72FFCC00358E02
(1763088081.655994) can0 000A0003#08B602D90C070000
(1763088081.656279) can0 000A0004#FF6CFFD600408E02
(1763088081.660951) can0 19A#0000826F717E7C81
(1763088081.661956) can0 29A#7D7B7F7F84820000
(1763088081.663364) can0 186#00004C1D01000000
(1763088081.663942) can0 189#43029C01E6010008
(1763088081.664058) can0 701#05
(1763088081.664804) can0 080#
(1763088081.665924) can0 286#0000580200000000
(1763088081.666210) can0 000A0003#08A2032A0BB80000
(1763088081.666492) can0 000A0004#FF69FFD300488E02
(1763088081.666889) can0 482#2608000008160001
(1763088081.667145) can0 382#0000000000000000
(1763088081.667393) can0 181#810300207F000009
(1763088081.671641) can0 188#1400760000000000
(1763088081.672428) can0 288#4A2B372900000000
(1763088081.673445) can0 388#2828290000000000
(1763088081.674395) can0 191#A9A9A9A9A9A9
(1763088081.675401) can0 192#A9A9A9A9A9A9
(1763088081.675993) can0 000A0003#0884039E0B480000
(1763088081.676281) can0 000A0004#FF5BFFD400578E02
(1763088081.676468) can0 193#A9A9A9A9A9A9
(1763088081.677386) can0 194#A9A9A9A9A9A9
(1763088081.677700) can0 281#2708000000000000
(1763088081.678394) can0 195#A9A9A9A9A9A9
(1763088081.679402) can0 291#171C1F1F1E1B
(1763088081.680385) can0 292#191E201F201B
(1763088081.681384) can0 293#191D1F1E1E1A
(1763088081.681604) can0 1A5#001E1B11000000
(1763088081.682396) can0 294#191E1F1F1E1B
(1763088081.683201) can0 682#4B50190400000000
(1763088081.683408) can0 295#181C1E1C1C19
(1763088081.685676) can0 701#05
(1763088081.685992) can0 000A0003#086803900B5C0000
(1763088081.686277) can0 000A0004#FF49FFD200618E02
(1763088081.688051) can0 4C4#05D005CF058105C5
(1763088081.688663) can0 382#0000000000000000
(1763088081.688948) can0 482#2F08000008160001
(1763088081.689178) can0 4C5#05D505CD05B80597
(1763088081.690076) can0 4C6#05A805AB05B505C4
(1763088081.691088) can0 4C7#05D505A10563057D
(1763088081.692117) can0 4C8#0581000000000000
(1763088081.696003) can0 000A0003#084E03850B780000
(1763088081.696287) can0 000A0004#FF3BFFCD006A8E02
(1763088081.696513) can0 1A4#C019350C000000
(1763088081.696741) can0 2A3#121717161413100F
(1763088081.703322) can0 186#00004C1D01010000
(1763088081.703775) can0 1A2#8023760B000000
(1763088081.704008) can0 2A1#1C1D1C1B18171411
(1763088081.705141) can0 181#810300207F000009
(1763088081.706002) can0 000A0003#084B03800B940000
(1763088081.706284) can0 000A0004#FF38FFC3006E8E02
(1763088081.707522) can0 701#05
(1763088081.710502) can0 482#2008000008160001
(1763088081.710793) can0 382#0000000000000000
(1763088081.716004) can0 000A0003#0847037A0BBD0000
(1763088081.716288) can0 000A0004#FF3EFFB900758E02
(1763088081.718804) can0 1A3#C01F6607000000
(1763088081.721424) can0 281#1A08000000000000
(1763088081.724148) can0 682#4B501C0400000100
(1763088081.725427) can0 1A0#000000000000
(1763088081.726004) can0 000A0003#08B503620B9A0000
(1763088081.726285) can0 000A0004#FF50FFBA00778E02
(1763088081.727011) can0 000A0000#0000000000000000
(1763088081.727312) can0 000A0001#0000000000000000
(1763088081.727609) can0 000A0002#0000000000000000
(1763088081.729375) can0 701#05
(1763088081.732313) can0 482#0908000008160001
(1763088081.732568) can0 382#0000000000000000
(1763088081.735999) can0 000A0003#091E03510B880000
(1763088081.736287) can0 000A0004#FF5FFFAD007D8E02
(1763088081.743229) can0 181#810300207F000009
(1763088081.743472) can0 186#00004C1D01020000
(1763088081.746000) can0 000A0003#0944034F0B8E0000
(1763088081.746285) can0 000A0004#FF5AFFAA00828E02
(1763088081.751199) can0 701#05
(1763088081.753162) can0 4C4#05DE05E8059205D4
(1763088081.754184) can0 382#0000000000000000
(1763088081.754416) can0 4C5#05EA05DB05C3059E
(1763088081.754658) can0 482#CC07000008160001
(1763088081.755186) can0 4C6#05B205B805C305CA
(1763088081.756005) can0 000A0003#097A034B0B970000
(1763088081.756290) can0 000A0004#FF4DFFA100888E02
(1763088081.756520) can0 4C7#05E605B70574059D
(1763088081.757232) can0 4C8#0581000000000000
(1763088081.763358) can0 189#44029C01EA010008
(1763088081.763805) can0 080#
(1763088081.764956) can0 286#0000580200000000
(1763088081.765197) can0 682#4B501F0400000000
(1763088081.765445) can0 281#A507000000000000
(1763088081.765999) can0 000A0003#093E036C0B2F0000
(1763088081.766281) can0 000A0004#FF3AFF97008C8E02
(1763088081.771690) can0 188#1400760000000000
(1763088081.772435) can0 288#4C2B372900000000
(1763088081.773053) can0 701#05
(1763088081.773463) can0 388#2828290000000000
(1763088081.774424) can0 191#A9A9A9A9A9A9
(1763088081.775401) can0 192#A9A9A9A9A9A9
(1763088081.776047) can0 000A0003#091703810AED0000
(1763088081.776319) can0 000A0004#FF39FF9600938E02
(1763088081.776486) can0 193#A9A9A9A9A9A9
(1763088081.776731) can0 482#8E07000008160001
(1763088081.777012) can0 382#0000000000000000
(1763088081.777415) can0 194#A9A9A9A9A9A9
(1763088081.778427) can0 195#A9A9A9A9A9A9
(1763088081.779386) can0 291#171C1F1F1E1B
(1763088081.780395) can0 292#191E201F201B
(1763088081.781394) can0 293#191D1F1E1E1A
(1763088081.781641) can0 181#810300207F000009
(1763088081.782403) can0 294#191E1F1F1E1B
(1763088081.783317) can0 186#00004C1D01030000
(1763088081.783517) can0 295#181C1E1C1C19
(1763088081.783784) can0 1A5#C0212A11000000
(1763088081.786011) can0 000A0003#0904039C0A6F0000
(1763088081.786299) can0 000A0004#FF3FFF8C00978E02
(1763088081.794895) can0 701#05
(1763088081.796013) can0 000A0003#090303B409F80000
(1763088081.796295) can0 000A0004#FF4CFF8B00998E02
(1763088081.797834) can0 482#7307000008160001
(1763088081.798090) can0 382#0000000000000000
(1763088081.803527) can0 1A4#001E260C000000
(1763088081.803756) can0 2A3#121717161413100F
(1763088081.806010) can0 000A0003#090703E509EF0000
(1763088081.806288) can0 000A0004#FF52FF85009E8E02
(1763088081.808733) can0 281#7007000000000000
(1763088081.808977) can0 682#4B50210400000100
(1763088081.811398) can0 1A2#C01F9D0B000000
(1763088081.811628) can0 2A1#1C1D1C1B19171411
(1763088081.816010) can0 000A0003#090A040409E90000
(1763088081.816296) can0 000A0004#FF53FF8A00A38E02
(1763088081.816719) can0 701#05
(1763088081.818284) can0 4C4#05F005FD059A05DB
(1763088081.819289) can0 4C5#05F405EC05D005A5
(1763088081.819710) can0 382#0000000000000000
(1763088081.819932) can0 1A3#001C7A07000000
(1763088081.820192) can0 181#810300207F000009
(1763088081.820409) can0 4C6#05BC05C205CD05D8
(1763088081.820657) can0 482#6407000008160001
(1763088081.821321) can0 4C7#05F605C9058505C0
(1763088081.822347) can0 4C8#0581000000000000
(1763088081.823312) can0 186#00004C1D01040000
(1763088081.825439) can0 1A0#000000000000
(1763088081.826013) can0 000A0003#092503FF09C60000
(1763088081.826296) can0 000A0004#FF49FF81009E8E02
(1763088081.827022) can0 000A0000#0000000000000000
(1763088081.827323) can0 000A0001#0000000000000000
(1763088081.827620) can0 000A0002#0000000000000000
(1763088081.836015) can0 000A0003#094B03E209A40000
(1763088081.836301) can0 000A0004#FF50FF8800A28E02
(1763088081.838567) can0 701#05
(1763088081.841538) can0 482#5907000008160001
(1763088081.841791) can0 382#0000000000000000
(1763088081.846010) can0 000A0003#09A503AA09620000
(1763088081.846291) can0 000A0004#FF64FF9000A38E02
(1763088081.849801) can0 682#4B50220400000100
(1763088081.852467) can0 281#4807000000000000
(1763088081.856007) can0 000A0003#09DE038709370000
(1763088081.856297) can0 000A0004#FF73FF9900A38E02
(1763088081.857893) can0 181#810300207F000009
(1763088081.860422) can0 701#05
(1763088081.863343) can0 186#00004C1D01050000
(1763088081.863588) can0 482#3A07000008160001
(1763088081.863842) can0 382#0000000000000000
(1763088081.864076) can0 189#42029A01ED010008
(1763088081.864790) can0 080#
(1763088081.865939) can0 286#0000580200000000
(1763088081.866225) can0 000A0003#0A09037908A20000
(1763088081.866509) can0 000A0004#FF82FFA400A28E02
(1763088081.866974) can0 19A#00007E75717B847F
(1763088081.867950) can0 29A#83728D8184820000
(1763088081.871690) can0 188#0C00740000000000
(1763088081.872441) can0 288#4C2B372900340000
(1763088081.873458) can0 388#2828290000000000
(1763088081.874378) can0 191#A9A9A9A9A9A9
(1763088081.875387) can0 192#A9A9A9A9A9A9
(1763088081.876017) can0 000A0003#0A1D037E08150000
(1763088081.876304) can0 000A0004#FF7DFFAF00A48E02
(1763088081.876491) can0 193#A9A9A9A9A9A9
(1763088081.877401) can0 194#A9A9A9A9A9A9
(1763088081.878377) can0 195#A9A9A9A9A9A9
(1763088081.879388) can0 291#171C1F1F1E1B
(1763088081.880400) can0 292#191E201F201B
(1763088081.881399) can0 293#191D1F1E1E1A
(1763088081.882246) can0 701#05
(1763088081.882446) can0 294#191E1F1F1E1B
(1763088081.883410) can0 4C4#05F005FD059A05DB
(1763088081.883612) can0 295#181C1E1C1C19
(1763088081.884419) can0 4C5#05F405EC05D005A5
(1763088081.885231) can0 382#0000000000000000
(1763088081.885460) can0 4C6#05BC05C205CD05D8
(1763088081.885704) can0 482#2307000008160001
(1763088081.886012) can0 000A0003#0A54037508650000
(1763088081.886298) can0 000A0004#FF7BFFAB00A58E02
(1763088081.886516) can0 1A5#001CA110000000
(1763088081.886752) can0 4C7#05F605C9058505C0
(1763088081.887472) can0 4C8#0581000000000000
(1763088081.890753) can0 682#4B504C0400000000
(1763088081.896016) can0 000A0003#0AA3036808DA0000
(1763088081.896300) can0 000A0004#FF71FFAD00A88E02
(1763088081.896546) can0 181#810300207F000009
(1763088081.896798) can0 281#1407000000000000
(1763088081.903303) can0 186#00004C1D01060000
(1763088081.904202) can0 701#05
(1763088081.906017) can0 000A0003#0A8C035709010000
(1763088081.906301) can0 000A0004#FF80FFAE00A98E02
(1763088081.907062) can0 482#1007000008160001
(1763088081.907317) can0 382#0000000000000000
(1763088081.910581) can0 1A4#001CC20C000000
(1763088081.910810) can0 2A3#121717161513100F
(1763088081.916018) can0 000A0003#0A46034509030000
(1763088081.916300) can0 000A0004#FF87FFAF00AE8E02
(1763088081.919037) can0 1A2#0018FC0A000000
(1763088081.919266) can0 2A1#1C1D1C1B19171311
(1763088081.920734) can0 1A3#C018EA07000000
(1763088081.925421) can0 1A0#000000000000
(1763088081.926020) can0 000A0003#0A69034D09BF0000
(1763088081.926301) can0 000A0004#FF9CFFAF00AE8E02
(1763088081.926416) can0 701#05
(1763088081.927038) can0 000A0000#0000000000000000
(1763088081.927337) can0 000A0001#0000000000000000
(1763088081.927638) can0 000A0002#0000000000000000
(1763088081.928879) can0 482#EF06000008160001
(1763088081.929132) can0 382#0000000000000000
(1763088081.931711) can0 682#4B50510400000100
(1763088081.934388) can0 181#810300207F000009
(1763088081.936019) can0 000A0003#0A9C03580ACF0000
(1763088081.936300) can0 000A0004#FFAEFFB900B48E02
(1763088081.939781) can0 281#E906000000000000
(1763088081.943303) can0 186#00004C1D01070000
(1763088081.946023) can0 000A0003#0AC1033D0B850000
(1763088081.946308) can0 000A0004#FFADFFBC00B48E02
(1763088081.947766) can0 701#05
(1763088081.948457) can0 4C4#05F5061205AA05ED
(1763088081.949466) can0 4C5#060205F605DA05B2
(1763088081.950478) can0 4C6#05C205C605D605E2
(1763088081.950752) can0 382#0000000000000000
(1763088081.951038) can0 482#D706000008160001
(1763088081.951493) can0 4C7#060705D4059605D9
(1763088081.952525) can0 4C8#0581000000000000
(1763088081.956029) can0 000A0003#0ADF030F0C0E0000
(1763088081.956315) can0 000A0004#FFB6FFBF00B78E02
(1763088081.963339) can0 189#43029A01E5010048
(1763088081.963788) can0 080#
(1763088081.964941) can0 286#0000580200000000
(1763088081.966023) can0 000A0003#0AB702C20BA00000
(1763088081.966305) can0 000A0004#FFB2FFC500C28E02
(1763088081.969607) can0 701#05
(1763088081.971671) can0 188#0C007F0000000000
(1763088081.972451) can0 288#4E2B372200340000
(1763088081.972694) can0 181#810300207F000009
(1763088081.972942) can0 482#C206000008160001
(1763088081.973217) can0 682#4B50520400000000
(1763088081.973466) can0 388#2828290000000000
(1763088081.973715) can0 382#0000000000000000
(1763088081.974386) can0 191#A9A9A9A9A9A9
(1763088081.975393) can0 192#A9A9A9A9A9A9
