(1763088623.193217) can0 000A0003#FF1BFFF310550000
(1763088623.193297) can0 000A0004#FFE9FFE5FF7F8E02
(1763088623.193309) can0 1A0#000000000000
(1763088623.191906) can0 000A0000#0000000000000000
(1763088623.192197) can0 000A0001#0000000000000000
(1763088623.192503) can0 000A0002#0000000000000000
(1763088623.192855) can0 682#4E4D140400000000
(1763088623.198335) can0 181#810100207F000009
(1763088623.198536) can0 1A5#0000810D000000
(1763088623.198934) can0 186#00004C1D010C0000
(1763088623.199258) can0 189#4902A301600100C0
(1763088623.200715) can0 000A0003#FF1BFFEE10560000
(1763088623.201003) can0 000A0004#FFE9FFE6FF7F8E02
(1763088623.201120) can0 701#05
(1763088623.203783) can0 482#0000000008140001
(1763088623.204057) can0 382#0000000000000000
(1763088623.208937) can0 189#4902A301630100C0
(1763088623.210721) can0 000A0003#FF1AFFEC10540000
(1763088623.211009) can0 000A0004#FFE6FFE6FF808E02
(1763088623.217188) can0 4C4#04D904E105230540
(1763088623.218202) can0 4C5#054505300541053A
(1763088623.218950) can0 189#4902A301640100C0
(1763088623.219084) can0 080#
(1763088623.219313) can0 4C6#053A0536052F053A
(1763088623.220231) can0 286#6400900100000000
(1763088623.220462) can0 4C7#0549052404A2049D
(1763088623.220752) can0 000A0003#FF19FFEC10510000
(1763088623.221040) can0 000A0004#FFE5FFE5FF818E02
(1763088623.221286) can0 4C8#0520000000000000
(1763088623.222702) can0 701#05
(1763088623.225202) can0 188#0C00362A00000000
(1763088623.225583) can0 482#0000000008140001
(1763088623.225839) can0 382#0000000000000000
(1763088623.226079) can0 288#D8281328004C0000
(1763088623.226923) can0 388#3030352B29000000
(1763088623.227869) can0 191#949494949494
(1763088623.228875) can0 192#949494949494
(1763088623.229107) can0 189#4802A201610100C0
(1763088623.229880) can0 193#949494949494
(1763088623.230721) can0 000A0003#FF16FFEE104E0000
(1763088623.231009) can0 000A0004#FFE5FFE5FF818E02
(1763088623.231201) can0 194#949494949494
(1763088623.231453) can0 281#0000000000000000
(1763088623.231879) can0 195#949494949494
(1763088623.232891) can0 291#202527262824
(1763088623.233794) can0 682#4E4D140400000000
(1763088623.233987) can0 292#222729272924
(1763088623.234905) can0 293#222628262724
(1763088623.235861) can0 294#222727262727
(1763088623.236520) can0 181#810100207F000009
(1763088623.236868) can0 295#212526232522
(1763088623.238927) can0 186#00004C1D010D0000
(1763088623.239264) can0 189#4702A201630100C0
(1763088623.240720) can0 000A0003#FF14FFF1104B0000
(1763088623.241006) can0 000A0004#FFE5FFE4FF818E02
(1763088623.244481) can0 701#05
(1763088623.247431) can0 382#0000000000000000
(1763088623.247682) can0 482#0000000008140001
(1763088623.248936) can0 189#4902A401610100C0
(1763088623.250722) can0 000A0003#FF13FFF310490000
(1763088623.251009) can0 000A0004#FFE6FFE4FF828E02
(1763088623.258935) can0 189#4A02A401620100C0
(1763088623.260724) can0 000A0003#FF12FFF410470000
(1763088623.261013) can0 000A0004#FFE6FFE5FF828E02
(1763088623.266304) can0 701#05
(1763088623.268934) can0 189#4902A401610100C0
(1763088623.269358) can0 482#0000000008140001
(1763088623.269613) can0 382#0000000000000000
(1763088623.270723) can0 000A0003#FF12FFF210430000
(1763088623.271011) can0 000A0004#FFE6FFE3FF838E02
(1763088623.274740) can0 682#4E4D150400000000
(1763088623.274988) can0 181#810100207F000009
(1763088623.275273) can0 281#0000000000000000
(1763088623.278926) can0 186#00004C1D010E0000
(1763088623.279243) can0 189#4802A201620100C0
(1763088623.280731) can0 000A0003#FF13FFF0103F0000
(1763088623.281017) can0 000A0004#FFE6FFE3FF818E02
(1763088623.282304) can0 4C4#04D904DB05270540
(1763088623.283315) can0 4C5#054505300541053A
(1763088623.284331) can0 4C6#053A05320533053E
(1763088623.285345) can0 4C7#0549052404A2049D
(1763088623.286376) can0 4C8#0520000000000000
(1763088623.287192) can0 1A3#40003E0A000000
(1763088623.288153) can0 701#05
(1763088623.288932) can0 189#4902A301610100C0
(1763088623.290725) can0 000A0003#FF13FFEF103D0000
(1763088623.291015) can0 000A0004#FFEAFFE3FF818E02
(1763088623.291262) can0 482#0000000008140001
(1763088623.291538) can0 382#0000000000000000
(1763088623.291838) can0 000A0000#0000000000000000
(1763088623.292138) can0 000A0001#0000000000000000
(1763088623.292437) can0 000A0002#0000000000000000
(1763088623.292648) can0 1A0#000000000000
(1763088623.292877) can0 1A2#0000AA0E000000
(1763088623.293107) can0 2A1#1214151413130F0A
(1763088623.297096) can0 1A4#0000A109000000
(1763088623.297320) can0 2A3#0E14151513110B09
(1763088623.298932) can0 189#4902A301600100C0
(1763088623.300727) can0 000A0003#FF13FFF1103D0000
(1763088623.301017) can0 000A0004#FFEAFFE3FF828E02
(1763088623.301240) can0 1A5#0000810D000000
(1763088623.308930) can0 189#4902A301630100C0
(1763088623.310005) can0 701#05
(1763088623.310737) can0 000A0003#FF13FFF1103E0000
(1763088623.311023) can0 000A0004#FFEAFFE4FF838E02
(1763088623.312955) can0 382#0000000000000000
(1763088623.313202) can0 181#810100207F000009
(1763088623.313489) can0 482#0000000008140001
(1763088623.315690) can0 682#4E4D140400000000
(1763088623.318415) can0 281#0000000000000000
(1763088623.318946) can0 186#00004C1D010F0000
(1763088623.319240) can0 189#4902A201600100C0
(1763088623.320100) can0 080#
(1763088623.320731) can0 000A0003#FF11FFF210400000
(1763088623.321016) can0 000A0004#FFE9FFE4FF838E02
(1763088623.321260) can0 286#6400900100000000
(1763088623.321590) can0 19A#00007F70787F817E
(1763088623.322586) can0 29A#806F837F84810000
(1763088623.325206) can0 188#0C00A92900000000
(1763088623.325924) can0 288#D8281328004C0000
(1763088623.326930) can0 388#3030352B29000000
(1763088623.327894) can0 191#949494949494
(1763088623.328932) can0 189#4902A001630100C0
(1763088623.329124) can0 192#949494949494
(1763088623.329904) can0 193#949494949494
(1763088623.330732) can0 000A0003#FF11FFF210400000
(1763088623.331020) can0 000A0004#FFE8FFE3FF838E02
(1763088623.331212) can0 194#949494949494
(1763088623.331888) can0 195#949494949494
(1763088623.332004) can0 701#05
(1763088623.332899) can0 291#202527262724
(1763088623.333905) can0 292#222729272924
(1763088623.334882) can0 482#0000000008140001
(1763088623.335076) can0 293#222628262724
(1763088623.335326) can0 382#0000000000000000
(1763088623.335888) can0 294#222727262724
(1763088623.336894) can0 295#212526232522
(1763088623.338928) can0 189#4802A301610100C0
(1763088623.340734) can0 000A0003#FF11FFF2103F0000
(1763088623.341020) can0 000A0004#FFE8FFE3FF848E02
(1763088623.347426) can0 4C4#04D304DB052C0540
(1763088623.348440) can0 4C5#05490534053D053A
(1763088623.348927) can0 189#4902A301630100C0
(1763088623.349455) can0 4C6#053A05360533053E
(1763088623.350469) can0 4C7#054D052004A7049D
(1763088623.350758) can0 000A0003#FF12FFF3103F0000
(1763088623.351046) can0 000A0004#FFE8FFE3FF848E02
(1763088623.351290) can0 181#810100207F000009
(1763088623.351536) can0 4C8#0520000000000000
(1763088623.353675) can0 701#05
(1763088623.356619) can0 482#0000000008140001
(1763088623.356862) can0 682#4E4D150400000000
(1763088623.357116) can0 382#0000000000000000
(1763088623.358920) can0 186#00004C1D01000000
(1763088623.359262) can0 189#4902A301610100C0
(1763088623.360740) can0 000A0003#FF13FFF4103F0000
(1763088623.361023) can0 000A0004#FFE9FFE4FF848E02
(1763088623.362110) can0 281#0000000000000000
(1763088623.368925) can0 189#4802A301630100C0
(1763088623.370733) can0 000A0003#FF16FFF510400000
(1763088623.371023) can0 000A0004#FFE9FFE3FF838E02
(1763088623.375523) can0 701#05
(1763088623.378479) can0 382#0000000000000000
(1763088623.378728) can0 482#0000000008140001
(1763088623.378964) can0 189#4A02A401600100C0
(1763088623.380737) can0 000A0003#FF1BFFF310420000
(1763088623.381024) can0 000A0004#FFE9FFE3FF818E02
(1763088623.388315) can0 1A3#40003E0A000000
(1763088623.388921) can0 189#4902A401610100C0
(1763088623.389499) can0 181#810100207F000009
(1763088623.390739) can0 000A0003#FF1DFFF210440000
(1763088623.391029) can0 000A0004#FFE8FFE3FF818E02
(1763088623.391597) can0 1A0#000000000000
(1763088623.391897) can0 000A0000#0000000000000000
(1763088623.392197) can0 000A0001#0000000000000000
(1763088623.392498) can0 000A0002#0000000000000000
(1763088623.397352) can0 701#05
(1763088623.397620) can0 682#4E4D140400000000
(1763088623.397968) can0 382#0000000000000000
(1763088623.398915) can0 186#00004C1D01010000
(1763088623.399271) can0 189#4902A101600100C0
(1763088623.400278) can0 1A2#0000AA0E000000
(1763088623.400512) can0 2A1#1214151413130F0A
(1763088623.400801) can0 000A0003#FF1EFFF410460000
(1763088623.401088) can0 000A0004#FFE9FFE2FF818E02
(1763088623.401333) can0 482#0000000008140001
(1763088623.402983) can0 1A5#0000810D000000
(1763088623.404216) can0 1A4#0000A109000000
(1763088623.404444) can0 2A3#0E14151513110B0A
(1763088623.408505) can0 281#0000000000000000
(1763088623.408920) can0 189#4802A201620100C0
(1763088623.410732) can0 000A0003#FF1EFFF610490000
(1763088623.411020) can0 000A0004#FFEDFFE2FF818E02
(1763088623.412559) can0 4C4#04D304DC052C0540
(1763088623.413568) can0 4C5#054905280541053A
(1763088623.414585) can0 4C6#053E053A05330542
(1763088623.415597) can0 4C7#0545052404A704A3
(1763088623.416630) can0 4C8#0520000000000000
(1763088623.418937) can0 189#4902A301610100C0
(1763088623.419101) can0 080#
(1763088623.419446) can0 382#0000000000000000
(1763088623.419565) can0 701#05
(1763088623.419852) can0 482#0000000008140001
(1763088623.420250) can0 286#6400900100000000
(1763088623.420739) can0 000A0003#FF1EFFF7104B0000
(1763088623.421024) can0 000A0004#FFECFFE2FF818E02
(1763088623.425158) can0 188#0C00EA2C00000000
(1763088623.425912) can0 288#D8281329004C0000
(1763088623.426920) can0 388#3030352B29000000
(1763088623.427649) can0 181#810100207F000009
(1763088623.427901) can0 191#949494949494
(1763088623.428921) can0 189#4902A301600100C0
(1763088623.429110) can0 192#949494949494
(1763088623.429878) can0 193#949494949494
(1763088623.430740) can0 000A0003#FF1FFFF8104D0000
(1763088623.431028) can0 000A0004#FFEDFFE2FF818E02
(1763088623.431220) can0 194#949494949494
(1763088623.431892) can0 195#949494949494
(1763088623.432905) can0 291#202527262724
(1763088623.433883) can0 292#222729272924
(1763088623.434890) can0 293#222628262724
(1763088623.435897) can0 294#222727262724
(1763088623.436900) can0 295#212526232522
(1763088623.438547) can0 682#4E4D140400000000
(1763088623.438914) can0 186#00004C1D01020000
(1763088623.439255) can0 189#4902A201600100C0
(1763088623.440746) can0 000A0003#FF21FFF8104E0000
(1763088623.441031) can0 000A0004#FFEEFFE2FF818E02
(1763088623.441148) can0 701#05
(1763088623.441398) can0 482#0000000008140001
(1763088623.441648) can0 382#0000000000000000
(1763088623.448918) can0 189#4B02A501610100C0
(1763088623.450742) can0 000A0003#FF23FFF9104F0000
(1763088623.451030) can0 000A0004#FFEEFFE2FF828E02
(1763088623.452203) can0 281#0000000000000000
(1763088623.458917) can0 189#4B02A401610100C0
(1763088623.460747) can0 000A0003#FF23FFF910500000
(1763088623.461033) can0 000A0004#FFEEFFE1FF828E02
(1763088623.463095) can0 482#0000000008140001
(1763088623.463215) can0 701#05
(1763088623.463470) can0 382#0000000000000000
(1763088623.465846) can0 181#810100207F000009
(1763088623.468917) can0 189#4902A301630100C0
(1763088623.470741) can0 000A0003#FF24FFFA10510000
(1763088623.471030) can0 000A0004#FFEFFFE2FF828E02
(1763088623.477672) can0 4C4#04D304DC052C0540
(1763088623.478682) can0 4C5#054905280541053A
(1763088623.478928) can0 186#00004C1D01030000
(1763088623.479273) can0 189#4902A301600100C0
(1763088623.479613) can0 682#4E4D150400000000
(1763088623.479845) can0 4C6#053E053A05330542
(1763088623.480747) can0 000A0003#FF24FFFB10570000
(1763088623.481031) can0 000A0004#FFECFFE2FF818E02
(1763088623.481261) can0 4C7#0545052404A704A3
(1763088623.481741) can0 4C8#0520000000000000
(1763088623.484954) can0 382#0000000000000000
(1763088623.485072) can0 701#05
(1763088623.485323) can0 482#0000000008140001
(1763088623.488914) can0 189#4902A401610100C0
(1763088623.489439) can0 1A3#40003E0A000000
(1763088623.490747) can0 000A0003#FF24FFFB105C0000
(1763088623.491033) can0 000A0004#FFECFFE2FF818E02
(1763088623.491597) can0 1A0#000000000000
(1763088623.491897) can0 000A0000#0000000000000000
(1763088623.492197) can0 000A0001#0000000000000000
(1763088623.492496) can0 000A0002#0000000000000000
(1763088623.495910) can0 281#0000000000000000
(1763088623.498916) can0 189#4902A301600100C0
(1763088623.500752) can0 000A0003#FF20FFFA10610000
(1763088623.501038) can0 000A0004#FFEBFFE3FF818E02
(1763088623.504150) can0 181#810100207F000009
(1763088623.504417) can0 382#0000000000000000
(1763088623.504522) can0 701#05
(1763088623.505237) can0 1A5#0000810D000000
(1763088623.506891) can0 482#0000000008140001
(1763088623.507899) can0 1A2#0000AA0E000000
(1763088623.508129) can0 2A1#1214151413130F0A
(1763088623.508914) can0 189#4902A301600100C0
(1763088623.510577) can0 19A#00007F766B807F7F
(1763088623.510865) can0 000A0003#FF1DFFFA10640000
(1763088623.511153) can0 000A0004#FFEBFFE3FF818E02
(1763088623.511377) can0 1A4#0000A109000000
(1763088623.511613) can0 29A#7F6D838182840000
(1763088623.511840) can0 2A3#0E14151513110B0A
(1763088623.518933) can0 186#00004C1D01040000
(1763088623.519251) can0 189#4802A301620100C0
(1763088623.520055) can0 080#
(1763088623.520548) can0 682#4E4D140400000000
(1763088623.520834) can0 000A0003#FF1EFFFB10610000
(1763088623.521121) can0 000A0004#FFEBFFE3FF818E02
(1763088623.521366) can0 286#6400900100000000
(1763088623.525192) can0 188#0C008C2A00000000
(1763088623.525915) can0 382#0000000000000000
(1763088623.526155) can0 288#D8281328004C0000
(1763088623.526271) can0 701#05
(1763088623.526556) can0 482#0000000008140001
(1763088623.526946) can0 388#3030352B29000000
(1763088623.527891) can0 191#949494949494
(1763088623.528869) can0 192#949494949494
(1763088623.529102) can0 189#4802A301600100C0
(1763088623.529888) can0 193#949494949494
(1763088623.530750) can0 000A0003#FF1DFFFB10600000
(1763088623.531036) can0 000A0004#FFEAFFE4FF818E02
(1763088623.531228) can0 194#949494949494
(1763088623.531903) can0 195#949494949494
(1763088623.532884) can0 291#202527262724
(1763088623.533891) can0 292#222729272924
(1763088623.534897) can0 293#222628262724
(1763088623.535902) can0 294#222727262724
(1763088623.536908) can0 295#212526232522
(1763088623.538912) can0 189#4902A301600100C0
(1763088623.539559) can0 281#0000000000000000
(1763088623.540751) can0 000A0003#FF1CFFFB10600000
(1763088623.541037) can0 000A0004#FFE9FFE3FF818E02
(1763088623.542307) can0 181#810100207F000009
(1763088623.542823) can0 4C4#04D404E705280541
(1763088623.543835) can0 4C5#054905310537053F
(1763088623.544851) can0 4C6#053B053B0530053B
(1763088623.545862) can0 4C7#054A052104A804A4
(1763088623.546894) can0 4C8#0521000000000000
(1763088623.547537) can0 701#05
(1763088623.547861) can0 482#0000000008140001
(1763088623.548116) can0 382#0000000000000000
(1763088623.548910) can0 189#4602A201610100C0
(1763088623.550752) can0 000A0003#FF1BFFFB10600000
(1763088623.551040) can0 000A0004#FFE9FFE3FF818E02
(1763088623.558900) can0 186#00004C1D01050000
(1763088623.559245) can0 189#4902A401620100C0
(1763088623.560758) can0 000A0003#FF1CFFFA10600000
(1763088623.561047) can0 000A0004#FFE8FFE3FF818E02
(1763088623.561484) can0 682#4E4D150400000000
(1763088623.568910) can0 189#4902A301630100C0
(1763088623.569583) can0 482#0000000008140001
(1763088623.569703) can0 701#05
(1763088623.569957) can0 382#0000000000000000
(1763088623.570755) can0 000A0003#FF1DFFFA105E0000
(1763088623.571043) can0 000A0004#FFE8FFE4FF818E02
(1763088623.578909) can0 189#4802A301620100C0
(1763088623.580512) can0 181#810100207F000009
(1763088623.580799) can0 000A0003#FF1DFFFD105B0000
(1763088623.581087) can0 000A0004#FFE7FFE4FF828E02
(1763088623.583250) can0 281#0000000000000000
(1763088623.588478) can0 701#05
(1763088623.588799) can0 482#0000000008140001
(1763088623.589031) can0 189#4802A301620100C0
(1763088623.589281) can0 382#0000000000000000
(1763088623.590585) can0 1A3#40003E0A000000
(1763088623.590876) can0 000A0003#FF1DFFFF10590000
(1763088623.591164) can0 000A0004#FFE8FFE3FF838E02
(1763088623.591596) can0 1A0#000000000000
(1763088623.591895) can0 000A0000#0000000000000000
(1763088623.592196) can0 000A0001#0000000000000000
(1763088623.592501) can0 000A0002#0000000000000000
(1763088623.598913) can0 186#00004C1D01060000
(1763088623.599259) can0 189#4902A301600100C0
(1763088623.600753) can0 000A0003#FF1B000310550000
(1763088623.601039) can0 000A0004#FFE8FFE2FF838E02
(1763088623.602359) can0 682#4E4D140400000000
(1763088623.607509) can0 1A5#0000810D000000
(1763088623.607971) can0 4C4#04D404E705280541
(1763088623.608904) can0 189#4902A301630100C0
(1763088623.609138) can0 4C5#054905310537053F
(1763088623.609995) can0 4C6#053B053B0530053B
(1763088623.610534) can0 482#0000000008140001
(1763088623.610824) can0 000A0003#FF1A000810530000
(1763088623.611110) can0 000A0004#FFE8FFE2FF828E02
(1763088623.611341) can0 4C7#054A052104AE04AA
(1763088623.611456) can0 701#05
(1763088623.611710) can0 382#0000000000000000
(1763088623.612041) can0 4C8#0521000000000000
(1763088623.615540) can0 1A2#0000AA0E000000
(1763088623.615773) can0 2A1#1214141413130F0A
(1763088623.618480) can0 1A4#0000A109000000
(1763088623.618707) can0 2A3#0E14151513110B0A
(1763088623.618957) can0 181#810100207F000009
(1763088623.619183) can0 189#4902A101610100C0
(1763088623.619289) can0 080#
(1763088623.620240) can0 286#6400900100000000
(1763088623.620760) can0 000A0003#FF19000B10530000
(1763088623.621047) can0 000A0004#FFE9FFE2FF828E02
(1763088623.625199) can0 188#0C00282A00000000
(1763088623.625945) can0 288#D7281328004C0000
(1763088623.626966) can0 281#0000000000000000
(1763088623.627203) can0 388#3030352B29000000
(1763088623.627885) can0 191#949494949494
(1763088623.628905) can0 189#4802A101610100C0
(1763088623.629098) can0 192#949494949494
(1763088623.629895) can0 193#949494949494
(1763088623.630759) can0 000A0003#FF18000F10540000
(1763088623.631047) can0 000A0004#FFE8FFE1FF828E02
(1763088623.631239) can0 194#949494949494
(1763088623.631879) can0 195#949494949494
(1763088623.632422) can0 382#0000000000000000
(1763088623.632558) can0 701#05
(1763088623.632812) can0 482#0000000008140001
(1763088623.633003) can0 291#202527262724
(1763088623.633897) can0 292#222729272924
(1763088623.634902) can0 293#222628262724
(1763088623.635911) can0 294#222727262724
(1763088623.636885) can0 295#212526232522
(1763088623.638895) can0 186#00004C1D01070000
(1763088623.639269) can0 189#4702A201610100C0
(1763088623.640755) can0 000A0003#FF18001210580000
(1763088623.641043) can0 000A0004#FFE8FFE0FF818E02
(1763088623.643306) can0 682#4E4D140400000000
(1763088623.648900) can0 189#4902A301620100C0
(1763088623.650762) can0 000A0003#FF180014105B0000
(1763088623.651054) can0 000A0004#FFE7FFE1FF818E02
(1763088623.654004) can0 701#05
(1763088623.654325) can0 482#0000000008140001
(1763088623.654579) can0 382#0000000000000000
(1763088623.656977) can0 181#810100207F000009
(1763088623.658902) can0 189#4902A401600100C0
(1763088623.660762) can0 000A0003#FF180015105E0000
(1763088623.661046) can0 000A0004#FFE7FFE2FF818E02
(1763088623.668902) can0 189#4A02A401610100C0
(1763088623.670599) can0 281#0000000000000000
(1763088623.670884) can0 000A0003#FF19001610620000
(1763088623.671170) can0 000A0004#FFE9FFE2FF818E02
(1763088623.673094) can0 4C4#04D304DB052C0544
(1763088623.674101) can0 4C5#05490530053A053E
(1763088623.675115) can0 4C6#0537053A052F053A
(1763088623.676056) can0 482#0000000008140001
(1763088623.676287) can0 4C7#054D052404A704A9
(1763088623.676414) can0 701#05
(1763088623.676657) can0 382#0000000000000000
(1763088623.677161) can0 4C8#0520000000000000
(1763088623.678887) can0 186#00004C1D01080000
(1763088623.679279) can0 189#4702A201600100C0
(1763088623.680765) can0 000A0003#FF19001510630000
(1763088623.681053) can0 000A0004#FFE9FFE1FF818E02
(1763088623.684262) can0 682#4E4D140400000000
(1763088623.688900) can0 189#4902A301630100C0
(1763088623.690768) can0 000A0003#FF1A001410630000
(1763088623.691055) can0 000A0004#FFE7FFE1FF808E02
(1763088623.691599) can0 1A0#000000000000
(1763088623.691899) can0 000A0000#0000000000000000
(1763088623.692199) can0 000A0001#0000000000000000
(1763088623.692499) can0 000A0002#0000000000000000
(1763088623.692723) can0 1A3#40003E0A000000
(1763088623.695177) can0 181#810100207F000009
(1763088623.697905) can0 382#0000000000000000
(1763088623.698023) can0 701#05
(1763088623.698273) can0 482#0000000008140001
(1763088623.698896) can0 189#4702A201610100C0
(1763088623.700759) can0 000A0003#FF1C001310610000
(1763088623.701049) can0 000A0004#FFE7FFE1FF818E02
(1763088623.708898) can0 189#4902A301630100C0
(1763088623.709765) can0 1A5#0000810D000000
(1763088623.710773) can0 000A0003#FF1F0012105F0000
(1763088623.711061) can0 000A0004#FFE6FFE1FF808E02
(1763088623.714298) can0 281#0000000000000000
(1763088623.716575) can0 19A#00007B7E6F827C84
(1763088623.717576) can0 29A#7F88868186830000
(1763088623.718910) can0 186#00004C1D01090000
(1763088623.719238) can0 189#4802A201630100C0
(1763088623.719632) can0 701#05
(1763088623.719955) can0 482#0000000008140001
(1763088623.720209) can0 382#0000000000000000
(1763088623.720316) can0 080#
(1763088623.720770) can0 000A0003#FF210014105C0000
(1763088623.721062) can0 000A0004#FFE6FFE0FF808E02
(1763088623.721306) can0 286#6400900100000000
(1763088623.723168) can0 1A2#0000AA0E000000
(1763088623.723399) can0 2A1#1214141413130F0A
(1763088623.725205) can0 188#0C00462900000000
(1763088623.725443) can0 682#4E4D150400000000
(1763088623.725668) can0 1A4#0000A109000000
(1763088623.725894) can0 2A3#0E14151513110B0A
(1763088623.726132) can0 288#D7281328004C0000
(1763088623.726930) can0 388#3030352B29000000
(1763088623.727874) can0 191#949494949494
(1763088623.728894) can0 189#4802A201600100C0
(1763088623.729086) can0 192#949494949494
(1763088623.729884) can0 193#949494949494
(1763088623.730763) can0 000A0003#FF220015105B0000
(1763088623.731053) can0 000A0004#FFE7FFE0FF808E02
(1763088623.731245) can0 194#949494949494
(1763088623.731886) can0 195#949494949494
(1763088623.732899) can0 291#202527262724
(1763088623.733492) can0 181#810100207F000009
(1763088623.733903) can0 292#222729272924
(1763088623.734912) can0 293#222628262724
(1763088623.735870) can0 294#222727262724
(1763088623.736875) can0 295#212526232522
(1763088623.738218) can0 4C4#04D904E1052C0544
(1763088623.738894) can0 189#4702A201600100C0
(1763088623.739234) can0 4C5#0549052C053A0537
(1763088623.740253) can0 4C6#053A053E0533053E
(1763088623.740763) can0 000A0003#FF240015105A0000
(1763088623.741050) can0 000A0004#FFE8FFE1FF818E02
(1763088623.741281) can0 4C7#0549052904A704A9
(1763088623.741579) can0 482#0000000008140001
(1763088623.741699) can0 701#05
(1763088623.741953) can0 382#0000000000000000
(1763088623.742293) can0 4C8#0520000000000000
(1763088623.748890) can0 189#4902A301620100C0
(1763088623.750765) can0 000A0003#FF250015105A0000
(1763088623.751053) can0 000A0004#FFE8FFE1FF818E02
(1763088623.758005) can0 281#0000000000000000
(1763088623.758883) can0 186#00004C1D010A0000
(1763088623.759267) can0 189#4902A301600100C0
(1763088623.760772) can0 000A0003#FF24001410580000
(1763088623.761057) can0 000A0004#FFE8FFE2FF828E02
(1763088623.763426) can0 382#0000000000000000
(1763088623.763547) can0 701#05
(1763088623.763797) can0 482#0000000008140001
(1763088623.766169) can0 682#4E4D140400000000
(1763088623.768890) can0 189#4902A401610100C0
(1763088623.770772) can0 000A0003#FF24001410560000
(1763088623.771058) can0 000A0004#FFE4FFE2FF828E02
(1763088623.771639) can0 181#810100207F000009
(1763088623.778895) can0 189#4A02A501610100C0
(1763088623.780798) can0 000A0003#FF23001210540000
(1763088623.781060) can0 000A0004#FFE4FFE2FF828E02
(1763088623.785048) can0 701#05
(1763088623.785377) can0 482#0000000008140001
(1763088623.785631) can0 382#0000000000000000
(1763088623.788891) can0 189#4902A401600100C0
(1763088623.790778) can0 000A0003#FF22001010530000
(1763088623.791069) can0 000A0004#FFE4FFE3FF838E02
(1763088623.791601) can0 1A0#000000000000
(1763088623.791900) can0 000A0000#0000000000000000
(1763088623.792200) can0 000A0001#0000000000000000
(1763088623.792499) can0 000A0002#0000000000000000
(1763088623.792859) can0 1A3#40003E0A000000
(1763088623.798878) can0 186#00004C1D010B0000
(1763088623.799275) can0 189#4902A301600100C0
(1763088623.800779) can0 000A0003#FF22000C10530000
(1763088623.801065) can0 000A0004#FFE5FFE3FF848E02
(1763088623.801679) can0 281#0000000000000000
(1763088623.803347) can0 4C4#04D904E1052C0544
(1763088623.804361) can0 4C5#0549052C053A0537
(1763088623.805386) can0 4C6#053A053E0533053E
(1763088623.806393) can0 4C7#0549052904A704A9
(1763088623.807104) can0 482#0000000008140001
(1763088623.807225) can0 701#05
(1763088623.807471) can0 4C8#0520000000000000
(1763088623.807710) can0 682#4E4D140400000000
(1763088623.807991) can0 382#0000000000000000
(1763088623.808888) can0 189#4902A3015F0100C0
(1763088623.810774) can0 000A0003#FF22000910540000
(1763088623.811062) can0 000A0004#FFE2FFE3FF848E02
(1763088623.812026) can0 1A5#0000810D000000
(1763088623.812599) can0 181#810100207F000009
(1763088623.818903) can0 189#4902A401630100C0
(1763088623.819103) can0 080#
(1763088623.820253) can0 286#6400900100000000
(1763088623.820779) can0 000A0003#FF1F000610520000
(1763088623.821064) can0 000A0004#FFE2FFE4FF838E02
(1763088623.825212) can0 188#0C00BB2B00000000
(1763088623.825931) can0 288#D8281328004C0000
(1763088623.826935) can0 388#3030352B29000000
(1763088623.827899) can0 191#949494949494
(1763088623.828884) can0 189#4702A301610100C0
(1763088623.829077) can0 192#949494949494
(1763088623.829327) can0 382#0000000000000000
(1763088623.829470) can0 701#05
(1763088623.829720) can0 482#0000000008140001
(1763088623.829910) can0 193#949494949494
(1763088623.830778) can0 000A0003#FF1B0002104F0000
(1763088623.831064) can0 000A0004#FFE1FFE4FF848E02
(1763088623.831256) can0 194#949494949494
(1763088623.831486) can0 1A2#0000AA0E000000
(1763088623.831718) can0 2A1#1214141413130F0A
(1763088623.831908) can0 195#949494949494
(1763088623.832763) can0 1A4#0000A109000000
(1763088623.832956) can0 291#202527262724
(1763088623.833182) can0 2A3#0E14151513110B0A
(1763088623.833910) can0 292#222729272924
(1763088623.834888) can0 293#222628262724
(1763088623.835894) can0 294#222727262724
(1763088623.836900) can0 295#212526232522
(1763088623.838878) can0 186#00004C1D010C0000
(1763088623.839252) can0 189#4902A301600100C0
(1763088623.840785) can0 000A0003#FF17FFFF104D0000
(1763088623.841070) can0 000A0004#FFE1FFE5FF848E02
(1763088623.845346) can0 281#0000000000000000
(1763088623.848072) can0 682#4E4D140400000000
(1763088623.848886) can0 189#4902A301610100C0
(1763088623.850782) can0 000A0003#FF13FFFC104A0000
(1763088623.851068) can0 000A0004#FFE2FFE6FF848E02
(1763088623.851312) can0 181#810100207F000009
(1763088623.851433) can0 701#05
(1763088623.851683) can0 482#0000000008140001
(1763088623.851937) can0 382#0000000000000000
(1763088623.858882) can0 189#4902A301620100C0
(1763088623.860781) can0 000A0003#FF0DFFF910490000
(1763088623.861063) can0 000A0004#FFE2FFE2FF848E02
(1763088623.868489) can0 4C4#04D904E6052C0544
(1763088623.868879) can0 189#4902A501610100C0
(1763088623.869499) can0 4C5#05450530053D053A
(1763088623.870520) can0 4C6#053E05360533053E
(1763088623.870812) can0 000A0003#FF07FFF8104B0000
(1763088623.871095) can0 000A0004#FFE2FFE2FF848E02
(1763088623.871532) can0 4C7#0545052004A704A3
(1763088623.872563) can0 4C8#0520000000000000
(1763088623.872808) can0 482#0000000008140001
(1763088623.872928) can0 701#05
(1763088623.873183) can0 382#0000000000000000
(1763088623.878872) can0 186#00004C1D010D0000
(1763088623.879258) can0 189#4802A201610100C0
(1763088623.880779) can0 000A0003#FF08FFF9104C0000
(1763088623.881069) can0 000A0004#FFE2FFE3FF848E02
(1763088623.888882) can0 189#4A02A401610100C0
(1763088623.889121) can0 682#4E4D140400000000
(1763088623.889370) can0 181#810100207F000009
(1763088623.889626) can0 281#0000000000000000
(1763088623.890785) can0 000A0003#FF03FFFB104E0000
(1763088623.891071) can0 000A0004#FFE3FFE3FF858E02
(1763088623.891602) can0 1A0#000000000000
(1763088623.891902) can0 000A0000#0000000000000000
(1763088623.892202) can0 000A0001#0000000000000000
(1763088623.892501) can0 000A0002#0000000000000000
(1763088623.894004) can0 1A3#40003E0A000000
(1763088623.894482) can0 382#0000000000000000
(1763088623.894603) can0 701#05
(1763088623.894853) can0 482#0000000008140001
(1763088623.898879) can0 189#4802A301640100C0
(1763088623.900797) can0 000A0003#FF01FFFF10500000
(1763088623.901084) can0 000A0004#FFE4FFDFFF848E02
(1763088623.908878) can0 189#4B02A301630100C0
(1763088623.910790) can0 000A0003#FF00000410520000
(1763088623.911076) can0 000A0004#FFE5FFE2FF848E02
(1763088623.914292) can0 1A5#0000810D000000
(1763088623.916097) can0 701#05
(1763088623.916435) can0 482#0000000008140001
(1763088623.916674) can0 382#0000000000000000
(1763088623.918892) can0 186#00004C1D010E0000
(1763088623.919256) can0 189#4902A301600100C0
(1763088623.920118) can0 080#
(1763088623.920789) can0 000A0003#FF01000710550000
(1763088623.921075) can0 000A0004#FFE5FFE2FF848E02
(1763088623.921319) can0 286#6400900100000000
(1763088623.922567) can0 19A#00007C668A817C82
(1763088623.923573) can0 29A#838A858089810000
(1763088623.927257) can0 181#810100207F000009
(1763088623.928877) can0 189#4902A301640100C0
(1763088623.929983) can0 682#4E4D140400000000
(1763088623.930787) can0 000A0003#FF04000C10590000
(1763088623.931073) can0 000A0004#FFE5FFE2FF848E02
(1763088623.932692) can0 281#0000000000000000
(1763088623.933620) can0 4C4#04D904E6052C0544
(1763088623.934224) can0 188#0C00B62B00000000
(1763088623.934632) can0 4C5#05450530053D053A
(1763088623.934918) can0 288#D8281319004C0000
(1763088623.935652) can0 4C6#053E05360533053E
(1763088623.935928) can0 388#3030352B29000000
(1763088623.936666) can0 4C7#0545052004A704A3
(1763088623.936911) can0 191#949494949494
(1763088623.937693) can0 4C8#0520000000000000
(1763088623.937887) can0 192#949494949494
(1763088623.938157) can0 482#0000000008140001
(1763088623.938278) can0 701#05
(1763088623.938507) can0 1A2#0000AA0E000000
(1763088623.938739) can0 2A1#1214141413130F0A
(1763088623.938975) can0 189#4702A2015F0100C0
(1763088623.939165) can0 193#949494949494
(1763088623.939416) can0 382#0000000000000000
(1763088623.939894) can0 1A4#0000A109000000
(1763088623.940086) can0 194#949494949494
(1763088623.940312) can0 2A3#0E14151513110B0A
(1763088623.940787) can0 000A0003#FF07000F105C0000
(1763088623.941069) can0 000A0004#FFE5FFE1FF848E02
(1763088623.941259) can0 195#949494949494
(1763088623.941912) can0 291#202527262724
(1763088623.942888) can0 292#222729272924
(1763088623.943894) can0 293#222628262724
(1763088623.944905) can0 294#222727262724
(1763088623.945906) can0 295#212526232522
(1763088623.948877) can0 189#4802A201620100C0
(1763088623.950788) can0 000A0003#FF090010105E0000
(1763088623.951075) can0 000A0004#FFE4FFE1FF848E02
(1763088623.958869) can0 186#00004C1D010F0000
(1763088623.959280) can0 189#4A02A301610100C0
(1763088623.960110) can0 382#0000000000000000
(1763088623.960230) can0 701#05
(1763088623.960481) can0 482#0000000008140001
(1763088623.960790) can0 000A0003#FF0B001010610000
(1763088623.961074) can0 000A0004#FFE4FFE2FF848E02
(1763088623.965462) can0 181#810100207F000009
(1763088623.968877) can0 189#4902A401620100C0
(1763088623.970790) can0 000A0003#FF0A000E10620000
(1763088623.971074) can0 000A0004#FFE4FFE2FF858E02
(1763088623.971314) can0 682#4E4D140400000000
(1763088623.976392) can0 281#0000000000000000
(1763088623.978872) can0 189#4902A301630100C0
(1763088623.979322) can0 382#0000000000000000
(1763088623.979442) can0 701#05
(1763088623.980792) can0 000A0003#FF0D000D10630000
(1763088623.981078) can0 000A0004#FFE4FFDFFF858E02
(1763088623.981873) can0 482#0000000008140001
(1763088623.988870) can0 189#4A02A501620100C0
(1763088623.990789) can0 000A0003#FF10000C10640000
(1763088623.991077) can0 000A0004#FFE4FFDFFF858E02
(1763088623.991603) can0 1A0#000000000000
(1763088623.991903) can0 000A0000#0000000000000000
(1763088623.992203) can0 000A0001#0000000000000000
(1763088623.992503) can0 000A0002#0000000000000000
(1763088623.995151) can0 1A3#40003E0A000000
(1763088623.998741) can0 4C4#04DF04E605270544
(1763088623.998984) can0 186#00004C1D01000000
(1763088623.999270) can0 189#4902A301610100C0
(1763088623.999752) can0 4C5#05490531053D0537
(1763088624.000789) can0 000A0003#FF13000B10630000
(1763088624.001080) can0 000A0004#FFE4FFE0FF858E02
(1763088624.001331) can0 382#0000000000000000
(1763088624.001562) can0 4C6#053A053A0533053E
(1763088624.001679) can0 701#05
(1763088624.001909) can0 4C7#0549052404B204A9
(1763088624.002829) can0 4C8#0520000000000000
(1763088624.003662) can0 482#0000000008140001
(1763088624.006416) can0 181#810100207F000009
(1763088624.008869) can0 189#4802A301640100C0
(1763088624.010794) can0 000A0003#FF14000910620000
(1763088624.011087) can0 000A0004#FFE4FFE0FF858E02
(1763088624.011880) can0 682#4E4D140400000000
(1763088624.016531) can0 1A5#0000810D000000
(1763088624.018883) can0 189#4A02A501630100C0
(1763088624.019119) can0 080#
(1763088624.020155) can0 281#0000000000000000
(1763088624.020411) can0 286#6400900100000000
(1763088624.020796) can0 000A0003#FF160006105F0000
(1763088624.021086) can0 000A0004#FFE6FFE1FF868E02
(1763088624.022652) can0 701#05
(1763088624.022934) can0 482#0000000008140001
(1763088624.023218) can0 382#0000000000000000
(1763088624.025194) can0 188#0C00432A00000000
(1763088624.025942) can0 288#D8281329004C0000
(1763088624.026950) can0 388#3030352B29000000
(1763088624.027915) can0 191#949494949494
(1763088624.028867) can0 189#4802A201630100C0
(1763088624.029061) can0 192#949494949494
(1763088624.029895) can0 193#949494949494
(1763088624.030801) can0 000A0003#FF170004105D0000
(1763088624.031090) can0 000A0004#FFE6FFE1FF868E02
(1763088624.031282) can0 194#949494949494
(1763088624.031908) can0 195#949494949494
(1763088624.032891) can0 291#202527262724
(1763088624.033895) can0 292#222729272924
(1763088624.034902) can0 293#222628262724
(1763088624.035908) can0 294#222727262724
(1763088624.036915) can0 295#212526232522
(1763088624.038860) can0 186#00004C1D01010000
(1763088624.039268) can0 189#4902A301620100C0
(1763088624.040792) can0 000A0003#FF170003105A0000
(1763088624.041080) can0 000A0004#FFEBFFE1FF868E02
(1763088624.044621) can0 482#0000000008140001
(1763088624.044740) can0 701#05
(1763088624.044994) can0 382#0000000000000000
(1763088624.045239) can0 181#810100207F000009
(1763088624.046135) can0 1A2#0000AA0E000000
(1763088624.046366) can0 2A1#1214141413130F0A
(1763088624.047013) can0 1A4#0000A109000000
(1763088624.047239) can0 2A3#0E14151513110B0A
(1763088624.048868) can0 189#4702A201610100C0
(1763088624.050796) can0 000A0003#FF16000310570000
(1763088624.051084) can0 000A0004#FFEBFFE1FF848E02
(1763088624.052829) can0 682#4E4D140400000000
(1763088624.058869) can0 189#4A02A401640100C0
(1763088624.060797) can0 000A0003#FF16000310550000
(1763088624.061083) can0 000A0004#FFEAFFE5FF848E02
(1763088624.063741) can0 281#0000000000000000
(1763088624.063972) can0 4C4#04D904E605270544
(1763088624.064916) can0 4C5#0549052C0541053A
(1763088624.065929) can0 4C6#053A053A0537053E
(1763088624.066484) can0 382#0000000000000000
(1763088624.066604) can0 701#05
(1763088624.066896) can0 482#0000000008140001
(1763088624.067126) can0 4C7#054D052404AD04A9
(1763088624.067974) can0 4C8#0520000000000000
(1763088624.068868) can0 189#4802A301610100C0
(1763088624.070802) can0 000A0003#FF16000210540000
(1763088624.071086) can0 000A0004#FFEAFFE6FF858E02
(1763088624.078861) can0 186#00004C1D01020000
(1763088624.079278) can0 189#4902A301630100C0
(1763088624.080803) can0 000A0003#FF16000210520000
(1763088624.081086) can0 000A0004#FFEEFFE6FF848E02
(1763088624.082875) can0 181#810100207F000009
(1763088624.088100) can0 701#05
(1763088624.088432) can0 482#0000000008140001
(1763088624.088675) can0 382#0000000000000000
(1763088624.088909) can0 189#4902A401620100C0
(1763088624.090805) can0 000A0003#FF17000610500000
(1763088624.091092) can0 000A0004#FFEEFFE6FF848E02
(1763088624.091603) can0 1A0#000000000000
(1763088624.091903) can0 000A0000#0000000000000000
(1763088624.092203) can0 000A0001#0000000000000000
(1763088624.092503) can0 000A0002#0000000000000000
(1763088624.093783) can0 682#4E4D140400000000
(1763088624.096287) can0 1A3#40003E0A000000
(1763088624.098863) can0 189#4902A201640100C0
(1763088624.100813) can0 000A0003#FF180008104F0000
(1763088624.101098) can0 000A0004#FFEEFFE6FF848E02
(1763088624.107441) can0 281#0000000000000000
(1763088624.108862) can0 189#4A02A301640100C0
(1763088624.110142) can0 482#0000000008140001
(1763088624.110262) can0 701#05
(1763088624.110517) can0 382#0000000000000000
(1763088624.110805) can0 000A0003#FF1B000A104F0000
(1763088624.111090) can0 000A0004#FFEDFFE6FF848E02
(1763088624.111593) can0 19A#00007C855E7C7D80
(1763088624.112571) can0 29A#7E64828182820000
(1763088624.118781) can0 1A5#0000810D000000
(1763088624.119025) can0 186#00004C1D01030000
(1763088624.119273) can0 189#4902A301640100C0
(1763088624.120108) can0 080#
(1763088624.120809) can0 000A0003#FF1C000C104F0000
(1763088624.121094) can0 000A0004#FFEDFFE6FF838E02
(1763088624.121338) can0 181#810100207F000009
(1763088624.121583) can0 286#6400900100000000
(1763088624.125188) can0 188#0C00C22A00000000
(1763088624.125932) can0 288#D8281329004C0000
(1763088624.126971) can0 388#3030352B29000000
(1763088624.127895) can0 191#949494949494
(1763088624.128864) can0 189#4802A201650100C0
(1763088624.129053) can0 192#949494949494
(1763088624.129287) can0 4C4#04D904E605270544
(1763088624.129901) can0 193#949494949494
(1763088624.130132) can0 4C5#0549052C0541053A
(1763088624.130800) can0 000A0003#FF1D000F10500000
(1763088624.131089) can0 000A0004#FFEDFFE5FF848E02
(1763088624.131281) can0 194#949494949494
(1763088624.131512) can0 4C6#053A053A0537053E
(1763088624.131884) can0 195#949494949494
(1763088624.132135) can0 382#0000000000000000
(1763088624.132365) can0 4C7#054D052404AD04A9
(1763088624.132487) can0 701#05
(1763088624.132759) can0 482#0000000008140001
(1763088624.132953) can0 291#202527262724
(1763088624.133199) can0 4C8#0520000000000000
(1763088624.133902) can0 292#222729272924
(1763088624.134741) can0 682#4E4D140400000000
(1763088624.134935) can0 293#222628262724
(1763088624.135898) can0 294#222727262724
(1763088624.136872) can0 295#212526232522
(1763088624.138857) can0 189#4802A301640100C0
(1763088624.140804) can0 000A0003#FF1D000F10510000
(1763088624.141090) can0 000A0004#FFEDFFE6FF848E02
(1763088624.148857) can0 189#4902A501660100C0
(1763088624.150820) can0 000A0003#FF1C000E10520000
(1763088624.151108) can0 000A0004#FFEDFFE7FF848E02
(1763088624.151360) can0 281#0000000000000000
(1763088624.153617) can0 701#05
(1763088624.153845) can0 1A2#0000AA0E000000
(1763088624.154077) can0 2A1#1214141413130F0A
(1763088624.154301) can0 1A4#0000A109000000
(1763088624.154527) can0 2A3#0E14151513110B0A
(1763088624.154773) can0 482#0000000008140001
(1763088624.155060) can0 382#0000000000000000
(1763088624.158854) can0 186#00004C1D01040000
(1763088624.159266) can0 189#4902A401640100C0
(1763088624.159510) can0 181#810100207F000009
(1763088624.160805) can0 000A0003#FF1B000E10540000
(1763088624.161093) can0 000A0004#FFEDFFE7FF848E02
(1763088624.168856) can0 189#4A02A401660100C0
(1763088624.170807) can0 000A0003#FF1B000E10550000
(1763088624.171094) can0 000A0004#FFEEFFE7FF848E02
(1763088624.175666) can0 482#0000000008140001
(1763088624.175786) can0 701#05
(1763088624.176031) can0 682#4E4D140400000000
(1763088624.176285) can0 382#0000000000000000
(1763088624.178855) can0 189#4902A201650100C0
(1763088624.180810) can0 000A0003#FF1A000E10560000
(1763088624.181097) can0 000A0004#FFEDFFE7FF848E02
(1763088624.188854) can0 189#4A02A401660100C0
(1763088624.190810) can0 000A0003#FF1C000C10590000
(1763088624.191097) can0 000A0004#FFECFFE7FF838E02
(1763088624.191606) can0 1A0#000000000000
(1763088624.191906) can0 000A0000#0000000000000000
(1763088624.192206) can0 000A0001#0000000000000000
(1763088624.192505) can0 000A0002#0000000000000000
(1763088624.194156) can0 4C4#04D304E105310544
(1763088624.194793) can0 281#0000000000000000
(1763088624.195169) can0 4C5#054C052C053A053A
(1763088624.196188) can0 4C6#053A0536052F053E
(1763088624.197202) can0 4C7#054D052404A704A9
(1763088624.197434) can0 1A3#40003E0A000000
(1763088624.197684) can0 382#0000000000000000
(1763088624.197813) can0 701#05
(1763088624.198061) can0 181#810100207F000009
(1763088624.198307) can0 4C8#0520000000000000
(1763088624.198554) can0 482#0000000008140001
(1763088624.198859) can0 186#00004C1D01050000
(1763088624.199288) can0 189#4702A101630100C0
(1763088624.200813) can0 000A0003#FF1D000A105A0000
(1763088624.201100) can0 000A0004#FFECFFE7FF848E02
(1763088624.208855) can0 189#4902A501670100C0
(1763088624.210810) can0 000A0003#FF1C0009105A0000
(1763088624.211097) can0 000A0004#FFEBFFE6FF838E02
(1763088624.216639) can0 682#4E4D140400000000
(1763088624.218868) can0 189#4A02A501690100C0
(1763088624.219106) can0 080#
(1763088624.219222) can0 701#05
(1763088624.219486) can0 482#0000000008140001
(1763088624.219741) can0 382#0000000000000000
(1763088624.220256) can0 286#6400900100000000
(1763088624.220818) can0 000A0003#FF1B000810590000
(1763088624.221104) can0 000A0004#FFEAFFE6FF838E02
(1763088624.221328) can0 1A5#0000810D000000
(1763088624.225211) can0 188#0C00772B00000000
(1763088624.225956) can0 288#D7281328004C0000
(1763088624.226934) can0 388#3030352B29000000
(1763088624.227898) can0 191#949494949494
(1763088624.228851) can0 189#4902A301660100C0
(1763088624.229044) can0 192#949494949494
(1763088624.229908) can0 193#949494949494
(1763088624.230812) can0 000A0003#FF1C000710590000
(1763088624.231100) can0 000A0004#FFEBFFE5FF828E02
(1763088624.231292) can0 194#949494949494
(1763088624.231893) can0 195#949494949494
(1763088624.232904) can0 291#202527262724
(1763088624.233908) can0 292#222729272924
(1763088624.234916) can0 293#222628262724
(1763088624.235756) can0 181#810100207F000009
(1763088624.235950) can0 294#222727262724
(1763088624.236897) can0 295#212526232522
(1763088624.238486) can0 281#0000000000000000
(1763088624.238840) can0 186#00004C1D01060000
(1763088624.239287) can0 189#4902A301660100C0
(1763088624.240815) can0 000A0003#FF1D000710590000
(1763088624.241102) can0 000A0004#FFEBFFE5FF828E02
(1763088624.241348) can0 482#0000000008140001
(1763088624.241495) can0 701#05
(1763088624.241749) can0 382#0000000000000000
(1763088624.248850) can0 189#4902A401660100C0
(1763088624.250821) can0 000A0003#FF1E000810590000
(1763088624.251106) can0 000A0004#FFEAFFE6FF828E02
(1763088624.257593) can0 682#4E4D140400000000
(1763088624.258846) can0 189#4A02A401670100C0
(1763088624.259270) can0 4C4#04D304E105310544
(1763088624.260282) can0 4C5#054C052C053A053A
(1763088624.260821) can0 000A0003#FF1F000810580000
(1763088624.261108) can0 000A0004#FFE9FFE5FF828E02
(1763088624.261332) can0 1A4#0000A109000000
(1763088624.261562) can0 1A2#0000AA0E000000
(1763088624.261794) can0 2A1#1214141413130F0A
(1763088624.262020) can0 2A3#0E14151513110B0A
(1763088624.262252) can0 4C6#053A0536052F053E
(1763088624.262482) can0 4C7#054D052404A704A9
(1763088624.263069) can0 382#0000000000000000
(1763088624.263228) can0 701#05
(1763088624.263474) can0 4C8#0520000000000000
(1763088624.263720) can0 482#0000000008140001
(1763088624.268849) can0 189#4902A301660100C0
(1763088624.270818) can0 000A0003#FF22000810560000
(1763088624.271106) can0 000A0004#FFE9FFE6FF828E02
(1763088624.274053) can0 181#810100207F000009
(1763088624.278873) can0 186#00004C1D01070000
(1763088624.279270) can0 189#4902A401670100C0
(1763088624.280873) can0 000A0003#FF24000710550000
(1763088624.281115) can0 000A0004#FFE9FFE6FF828E02
(1763088624.282226) can0 281#0000000000000000
(1763088624.284716) can0 701#05
(1763088624.285019) can0 482#0000000008140001
(1763088624.285265) can0 382#0000000000000000
(1763088624.288872) can0 189#4902A301670100C0
(1763088624.290823) can0 000A0003#FF29000A10570000
(1763088624.291108) can0 000A0004#FFE9FFEAFF838E02
(1763088624.291604) can0 1A0#000000000000
(1763088624.291903) can0 000A0000#0000000000000000
(1763088624.292203) can0 000A0001#0000000000000000
(1763088624.292501) can0 000A0002#0000000000000000
(1763088624.298541) can0 682#4E4D140400000000
(1763088624.298767) can0 1A3#40003E0A000000
(1763088624.299000) can0 189#4A02A501670100C0
(1763088624.300818) can0 000A0003#FF2D000D10590000
(1763088624.301104) can0 000A0004#FFEAFFEAFF838E02
(1763088624.306713) can0 482#0000000008140001
(1763088624.306831) can0 701#05
(1763088624.307086) can0 382#0000000000000000
(1763088624.308845) can0 189#4902A401660100C0
(1763088624.310826) can0 000A0003#FF31000E105B0000
(1763088624.311112) can0 000A0004#FFEAFFEAFF838E02
(1763088624.312206) can0 181#810100207F000009
(1763088624.317584) can0 19A#00007D606F7C867B
(1763088624.318591) can0 29A#7D677F7F80850000
(1763088624.318871) can0 186#00004C1D01080000
(1763088624.319258) can0 189#4902A301670100C0
(1763088624.320120) can0 080#
(1763088624.320821) can0 000A0003#FF33000F105D0000
(1763088624.321109) can0 000A0004#FFE9FFE9FF838E02
(1763088624.321354) can0 286#6400900100000000
(1763088624.323302) can0 1A5#0000810D000000
(1763088624.324452) can0 4C4#04D904E1052C0544
(1763088624.325185) can0 188#0C00B92A00000000
(1763088624.325431) can0 4C5#05450534053D053A
(1763088624.325847) can0 281#0000000000000000
(1763088624.326085) can0 288#D7281328004C0000
(1763088624.326445) can0 4C6#053A05360537053A
(1763088624.326939) can0 388#3030352B29000000
(1763088624.327463) can0 4C7#0545052404A7049D
(1763088624.327903) can0 191#949494949494
(1763088624.328491) can0 4C8#0520000000000000
(1763088624.328742) can0 382#0000000000000000
(1763088624.328976) can0 189#4702A101660100C0
(1763088624.329171) can0 192#949494949494
(1763088624.329286) can0 701#05
(1763088624.329556) can0 482#0000000008140001
(1763088624.329914) can0 193#949494949494
(1763088624.330826) can0 000A0003#FF360011105F0000
(1763088624.331114) can0 000A0004#FFE9FFE8FF838E02
(1763088624.331306) can0 194#949494949494
(1763088624.331878) can0 195#949494949494
(1763088624.332889) can0 291#202527262724
(1763088624.333914) can0 292#222729272924
(1763088624.334890) can0 293#222628262724
(1763088624.335896) can0 294#222727262724
(1763088624.336902) can0 295#212526232522
(1763088624.338838) can0 189#4902A301660100C0
(1763088624.339502) can0 682#4E4D140400000000
(1763088624.340818) can0 000A0003#FF38001310610000
(1763088624.341104) can0 000A0004#FFEAFFE8FF848E02
(1763088624.348837) can0 189#4902A301690100C0
(1763088624.350410) can0 181#810100207F000009
(1763088624.350530) can0 701#05
(1763088624.350824) can0 000A0003#FF36001210630000
(1763088624.351110) can0 000A0004#FFE9FFE8FF848E02
(1763088624.351356) can0 482#0000000008140001
(1763088624.351628) can0 382#0000000000000000
(1763088624.358833) can0 186#00004C1D01090000
(1763088624.359283) can0 189#4A02A301660100C0
(1763088624.360829) can0 000A0003#FF35001210640000
(1763088624.361112) can0 000A0004#FFE9FFE8FF848E02
(1763088624.368391) can0 1A4#0000A109000000
(1763088624.368616) can0 2A3#0E14151513110B0A
(1763088624.368852) can0 189#4902A401680100C0
(1763088624.369127) can0 1A2#0000AA0E000000
(1763088624.369360) can0 2A1#1214141413130F0A
(1763088624.369611) can0 281#0000000000000000
(1763088624.369733) can0 701#05
(1763088624.370827) can0 000A0003#FF33001010630000
(1763088624.371113) can0 000A0004#FFE9FFE7FF848E02
(1763088624.372223) can0 482#0000000008140001
(1763088624.375095) can0 382#0000000000000000
(1763088624.378845) can0 189#4902A301650100C0
(1763088624.380450) can0 682#4E4D150400000000
(1763088624.380820) can0 000A0003#FF32000F10610000
(1763088624.381107) can0 000A0004#FFE8FFE7FF848E02
(1763088624.388714) can0 181#810100207F000009
(1763088624.388949) can0 189#4902A401660100C0
(1763088624.389548) can0 4C4#04D304DB052C0544
(1763088624.390562) can0 4C5#054D052C05410537
(1763088624.390852) can0 000A0003#FF30000D10600000
(1763088624.391138) can0 000A0004#FFE9FFE7FF848E02
(1763088624.391574) can0 4C6#053E053A0537053E
(1763088624.391876) can0 000A0000#0000000000000000
(1763088624.392174) can0 000A0001#0000000000000000
(1763088624.392473) can0 000A0002#0000000000000000
(1763088624.392684) can0 1A0#000000000000
(1763088624.392916) can0 4C7#054D052404AD04A9
(1763088624.393617) can0 4C8#0520000000000000
(1763088624.393875) can0 701#05
(1763088624.394228) can0 482#0000000008140001
(1763088624.396978) can0 382#0000000000000000
(1763088624.398826) can0 186#00004C1D010A0000
(1763088624.399290) can0 189#4902A301640100C0
(1763088624.399694) can0 1A3#40003E0A000000
(1763088624.400834) can0 000A0003#FF2D000B105E0000
(1763088624.401117) can0 000A0004#FFE7FFE8FF848E02
(1763088624.408836) can0 189#4902A501670100C0
(1763088624.410827) can0 000A0003#FF2B0007105C0000
(1763088624.411113) can0 000A0004#FFE6FFE8FF848E02
(1763088624.413238) can0 281#0000000000000000
(1763088624.415708) can0 701#05
(1763088624.416036) can0 482#0000000008140001
(1763088624.418661) can0 382#0000000000000000
(1763088624.418894) can0 189#4902A301670100C0
(1763088624.419120) can0 080#
(1763088624.420268) can0 286#6400900100000000
(1763088624.420840) can0 000A0003#FF290004105A0000
(1763088624.421124) can0 000A0004#FFE6FFE9FF848E02
(1763088624.421497) can0 682#4E4D150400000000
(1763088624.425188) can0 188#0C00712A00000000
(1763088624.425572) can0 1A5#0000810D000000
(1763088624.425939) can0 288#D7281328004C0000
(1763088624.426881) can0 181#810100207F000009
(1763088624.427118) can0 388#3030352B29000000
(1763088624.427912) can0 191#949494949494
(1763088624.428834) can0 189#4902A301660100C0
(1763088624.429026) can0 192#949494949494
(1763088624.429890) can0 193#949494949494
(1763088624.430830) can0 000A0003#FF260002105A0000
(1763088624.431116) can0 000A0004#FFE6FFE9FF848E02
(1763088624.431308) can0 194#949494949494
(1763088624.431904) can0 195#949494949494
(1763088624.432918) can0 291#202527262724
(1763088624.433891) can0 292#222729272924
(1763088624.434898) can0 293#222628262724
(1763088624.435904) can0 294#222727262724
(1763088624.436912) can0 295#212526232522
(1763088624.437765) can0 482#0000000008140001
(1763088624.437886) can0 701#05
(1763088624.438142) can0 382#0000000000000000
(1763088624.438822) can0 186#00004C1D010B0000
(1763088624.439272) can0 189#4602A001670100C0
(1763088624.440830) can0 000A0003#FF210000105A0000
(1763088624.441116) can0 000A0004#FFE5FFE9FF838E02
(1763088624.448831) can0 189#4A02A401650100C0
(1763088624.450828) can0 000A0003#FF1EFFFF10570000
(1763088624.451116) can0 000A0004#FFE6FFEAFF838E02
(1763088624.454673) can0 4C4#04D304DB052C0544
(1763088624.455682) can0 4C5#054D052C05410537
(1763088624.456697) can0 4C6#053E053A0537053E
(1763088624.456947) can0 281#0000000000000000
(1763088624.457224) can0 482#0000000008140001
(1763088624.457346) can0 701#05
(1763088624.457706) can0 4C7#054D052404AD04A9
(1763088624.458738) can0 4C8#0520000000000000
(1763088624.458972) can0 189#4802A101670100C0
(1763088624.460838) can0 000A0003#FF1BFFFD10550000
(1763088624.461124) can0 000A0004#FFE7FFE9FF828E02
(1763088624.462348) can0 682#4E4D140400000000
(1763088624.462602) can0 382#0000000000000000
(1763088624.467825) can0 181#810100207F000009
(1763088624.468828) can0 189#4902A501660100C0
(1763088624.470840) can0 000A0003#FF1BFFFE10550000
(1763088624.471127) can0 000A0004#FFE7FFE8FF828E02
(1763088624.475528) can0 1A4#0000A109000000
(1763088624.475750) can0 2A3#0E14151513110B0A
(1763088624.476791) can0 1A2#0000AA0E000000
(1763088624.477022) can0 2A1#1214141413130F0A
(1763088624.478710) can0 482#0000000008140001
(1763088624.478950) can0 186#00004C1D010C0000
(1763088624.479067) can0 701#05
(1763088624.479303) can0 189#4902A301670100C0
(1763088624.480840) can0 000A0003#FF1AFFFE10550000
(1763088624.481128) can0 000A0004#FFE7FFE8FF828E02
(1763088624.484177) can0 382#0000000000000000
(1763088624.488827) can0 189#4902A501660100C0
(1763088624.490837) can0 000A0003#FF1CFFFF10590000
(1763088624.491123) can0 000A0004#FFE8FFE7FF828E02
(1763088624.491605) can0 1A0#000000000000
(1763088624.491905) can0 000A0000#0000000000000000
(1763088624.492207) can0 000A0001#0000000000000000
(1763088624.492505) can0 000A0002#0000000000000000
(1763088624.498824) can0 189#4B02A401660100C0
(1763088624.500334) can0 701#05
(1763088624.500609) can0 281#0000000000000000
(1763088624.500897) can0 000A0003#FF1E0000105C0000
(1763088624.501183) can0 000A0004#FFE7FFE6FF828E02
(1763088624.501409) can0 1A3#40003E0A000000
(1763088624.501657) can0 482#0000000008140001
(1763088624.503304) can0 682#4E4D150400000000
(1763088624.506029) can0 181#810100207F000009
(1763088624.506282) can0 382#0000000000000000
(1763088624.508827) can0 189#4A02A401660100C0
(1763088624.510834) can0 000A0003#FF210003105D0000
(1763088624.511124) can0 000A0004#FFE8FFE5FF828E02
(1763088624.518839) can0 186#00004C1D010D0000
(1763088624.519275) can0 189#4902A301670100C0
(1763088624.519796) can0 4C4#04D304E105270549
(1763088624.520134) can0 080#
(1763088624.520838) can0 000A0003#FF240005105D0000
(1763088624.521126) can0 000A0004#FFE8FFE4FF828E02
(1763088624.521368) can0 286#6400900100000000
(1763088624.521600) can0 4C5#05490531053A0537
(1763088624.521842) can0 4C6#053A053A0533053A
(1763088624.522305) can0 701#05
(1763088624.522625) can0 482#0000000008140001
(1763088624.522859) can0 4C7#0545052004A704A9
(1763088624.523577) can0 19A#00007C9A5A887C88
(1763088624.523891) can0 4C8#0520000000000000
(1763088624.524581) can0 29A#7C738C8481870000
(1763088624.525224) can0 188#0C004E2D00000000
(1763088624.525942) can0 288#D7281329004C0000
(1763088624.526956) can0 388#3030352B29000000
(1763088624.527839) can0 1A5#0000810D000000
(1763088624.528032) can0 191#949494949494
(1763088624.528283) can0 382#0000000000000000
(1763088624.528826) can0 189#4902A201640100C0
(1763088624.529017) can0 192#949494949494
(1763088624.529897) can0 193#949494949494
(1763088624.530843) can0 000A0003#FF250003105E0000
(1763088624.531133) can0 000A0004#FFE8FFE3FF838E02
(1763088624.531323) can0 194#949494949494
(1763088624.531911) can0 195#949494949494
(1763088624.532893) can0 291#202527262724
(1763088624.533899) can0 292#222729272924
(1763088624.534905) can0 293#222628262724
(1763088624.535911) can0 294#222727262724
(1763088624.536917) can0 295#212526232522
(1763088624.538821) can0 189#4802A201660100C0
(1763088624.540841) can0 000A0003#FF250002105E0000
(1763088624.541127) can0 000A0004#FFE8FFE3FF838E02
(1763088624.544232) can0 482#0000000008140001
(1763088624.544354) can0 701#05
(1763088624.544597) can0 682#4E4D140400000000
(1763088624.544844) can0 181#810100207F000009
(1763088624.545129) can0 281#0000000000000000
(1763088624.548821) can0 189#4A02A401650100C0
(1763088624.549715) can0 382#0000000000000000
(1763088624.550844) can0 000A0003#FF250000105E0000
(1763088624.551130) can0 000A0004#FFE8FFE2FF838E02
(1763088624.558814) can0 186#00004C1D010E0000
(1763088624.559266) can0 189#4A02A301660100C0
(1763088624.560843) can0 000A0003#FF26FFFF105E0000
(1763088624.561130) can0 000A0004#FFE9FFE1FF838E02
(1763088624.565858) can0 701#05
(1763088624.566207) can0 482#0000000008140001
(1763088624.568818) can0 189#4902A501660100C0
(1763088624.570846) can0 000A0003#FF27FFFD105E0000
(1763088624.571136) can0 000A0004#FFE7FFE1FF838E02
(1763088624.571661) can0 382#0000000000000000
(1763088624.578816) can0 189#4A02A401670100C0
(1763088624.580853) can0 000A0003#FF28FFFC105E0000
(1763088624.581141) can0 000A0004#FFE7FFE1FF838E02
(1763088624.582662) can0 1A4#0000A109000000
(1763088624.582887) can0 2A3#0E14151513110B09
(1763088624.584464) can0 1A2#0000AA0E000000
(1763088624.584695) can0 2A1#1214151413130F0A
(1763088624.584943) can0 4C4#04D304E105270549
(1763088624.585234) can0 682#4E4D140400000000
(1763088624.585504) can0 181#810100207F000009
(1763088624.585958) can0 4C5#05490531053A0537
(1763088624.586971) can0 4C6#053A053A0533053A
(1763088624.587692) can0 701#05
(1763088624.587988) can0 4C7#0545052004A704A9
(1763088624.588236) can0 482#0000000008140001
(1763088624.588819) can0 189#4702A001640100C0
(1763088624.589064) can0 4C8#0520000000000000
(1763088624.590675) can0 281#0000000000000000
(1763088624.590964) can0 000A0003#FF27FFFA105D0000
(1763088624.591251) can0 000A0004#FFE7FFE3FF838E02
(1763088624.591607) can0 1A0#000000000000
(1763088624.591907) can0 000A0000#0000000000000000
(1763088624.592208) can0 000A0001#0000000000000000
(1763088624.592506) can0 000A0002#0000000000000000
(1763088624.596236) can0 382#0000000000000000
(1763088624.598813) can0 186#00004C1D010F0000
(1763088624.599276) can0 189#4802A201660100C0
(1763088624.600848) can0 000A0003#FF24FFF8105B0000
(1763088624.601134) can0 000A0004#FFE7FFE3FF848E02
(1763088624.601923) can0 1A3#40003E0A000000
(1763088624.606813) can0 701#05
(1763088624.607163) can0 482#0000000008140001
(1763088624.608815) can0 189#4902A401640100C0
(1763088624.610842) can0 000A0003#FF23FFF6105A0000
(1763088624.611129) can0 000A0004#FFE9FFE3FF858E02
(1763088624.617986) can0 382#0000000000000000
(1763088624.618831) can0 189#4902A201670100C0
(1763088624.619135) can0 080#
(1763088624.620258) can0 286#6400900100000000
(1763088624.620853) can0 000A0003#FF23FFF310580000
(1763088624.621138) can0 000A0004#FFE9FFE3FF858E02
(1763088624.623441) can0 181#810100207F000009
(1763088624.625221) can0 188#0C00652B00000000
(1763088624.625953) can0 288#D7281328004C0000
(1763088624.626193) can0 682#4E4D140400000000
(1763088624.626960) can0 388#3030352B29000000
(1763088624.627896) can0 191#949494949494
(1763088624.628674) can0 701#05
(1763088624.628907) can0 189#4902A301650100C0
(1763088624.629101) can0 192#949494949494
(1763088624.629349) can0 482#0000000008140001
(1763088624.629904) can0 193#949494949494
(1763088624.630127) can0 1A5#0000810D000000
(1763088624.630845) can0 000A0003#FF21FFF210560000
(1763088624.631135) can0 000A0004#FFE8FFE3FF848E02
(1763088624.631326) can0 194#949494949494
(1763088624.631888) can0 195#949494949494
(1763088624.632900) can0 291#202527262724
(1763088624.633907) can0 292#222729272924
(1763088624.634388) can0 281#0000000000000000
(1763088624.634912) can0 293#222628262724
(1763088624.635919) can0 294#222727262724
(1763088624.636896) can0 295#212526232522
(1763088624.638811) can0 186#00004C1D01000000
(1763088624.639285) can0 189#4802A201650100C0
(1763088624.639910) can0 382#0000000000000000
(1763088624.640855) can0 000A0003#FF1FFFF110540000
(1763088624.641136) can0 000A0004#FFE8FFE4FF858E02
(1763088624.648812) can0 189#4902A401650100C0
(1763088624.650073) can0 4C4#04D904E1052C0544
(1763088624.650720) can0 482#0000000008140001
(1763088624.651006) can0 000A0003#FF1DFFF110510000
(1763088624.651294) can0 000A0004#FFE8FFE3FF858E02
(1763088624.651524) can0 4C5#05490530053D053A
(1763088624.651642) can0 701#05
(1763088624.652106) can0 4C6#053E053A052F053E
(1763088624.653118) can0 4C7#0545052404A704A3
(1763088624.654149) can0 4C8#0520000000000000
(1763088624.658812) can0 189#4A02A301660100C0
(1763088624.660850) can0 000A0003#FF1CFFF1104E0000
(1763088624.661135) can0 000A0004#FFE9FFE3FF858E02
(1763088624.661648) can0 181#810100207F000009
(1763088624.661905) can0 382#0000000000000000
(1763088624.667112) can0 682#4E4D140400000000
(1763088624.668810) can0 189#4802A301670100C0
(1763088624.670053) can0 482#0000000008140001
(1763088624.670174) can0 701#05
(1763088624.670851) can0 000A0003#FF1AFFF1104C0000
(1763088624.671139) can0 000A0004#FFEAFFE7FF858E02
(1763088624.678025) can0 281#0000000000000000
(1763088624.678808) can0 186#00004C1D01010000
(1763088624.679295) can0 189#4902A301650100C0
(1763088624.680852) can0 000A0003#FF19FFF1104B0000
(1763088624.681141) can0 000A0004#FFEAFFE5FF858E02
(1763088624.683510) can0 382#0000000000000000
(1763088624.688810) can0 189#4A02A301670100C0
(1763088624.689805) can0 1A4#0000A109000000
(1763088624.690030) can0 2A3#0E14151513110B09
(1763088624.690856) can0 000A0003#FF18FFF1104B0000
(1763088624.691140) can0 000A0004#FFE9FFE4FF868E02
(1763088624.691608) can0 1A0#000000000000
(1763088624.691908) can0 000A0000#0000000000000000
(1763088624.692210) can0 000A0001#0000000000000000
(1763088624.692507) can0 000A0002#0000000000000000
(1763088624.692736) can0 1A2#0000AA0E000000
(1763088624.692966) can0 2A1#1214151413130F0A
(1763088624.693214) can0 482#0000000008140001
(1763088624.693333) can0 701#05
(1763088624.698808) can0 189#4902A401640100C0
(1763088624.699960) can0 181#810100207F000009
(1763088624.700854) can0 000A0003#FF18FFF3104D0000
(1763088624.701136) can0 000A0004#FFE9FFE4FF868E02
(1763088624.703044) can0 1A3#40003E0A000000
(1763088624.705330) can0 382#0000000000000000
(1763088624.708809) can0 189#4902A501650100C0
(1763088624.710855) can0 000A0003#FF17FFF5104D0000
(1763088624.711141) can0 000A0004#FFE8FFE4FF868E02
(1763088624.711382) can0 682#4E4D150400000000
(1763088624.712577) can0 19A#00007C9663877D82
(1763088624.713292) can0 701#05
(1763088624.713577) can0 29A#7C5E888980870000
(1763088624.713823) can0 482#0000000008140001
(1763088624.715207) can0 4C4#04D904E1052C0544
(1763088624.716220) can0 4C5#05490534053A053A
(1763088624.717241) can0 4C6#053E053A0533053E
(1763088624.718246) can0 4C7#0545052904A704A3
(1763088624.718828) can0 186#00004C1D01020000
(1763088624.719256) can0 189#4802A201640100C0
(1763088624.719502) can0 4C8#0520000000000000
(1763088624.720122) can0 080#
(1763088624.720862) can0 000A0003#FF17FFF5104D0000
(1763088624.721145) can0 000A0004#FFE8FFE4FF868E02
(1763088624.721388) can0 286#6400900100000000
(1763088624.721739) can0 281#0000000000000000
(1763088624.727286) can0 382#0000000000000000
(1763088624.728808) can0 189#4902A401660100C0
(1763088624.730859) can0 000A0003#FF17FFF7104F0000
(1763088624.731147) can0 000A0004#FFE9FFE5FF868E02
(1763088624.732375) can0 1A5#0000810D000000
(1763088624.735138) can0 701#05
(1763088624.735462) can0 482#0000000008140001
(1763088624.738109) can0 181#810100207F000009
(1763088624.738806) can0 189#4902A301650100C0
(1763088624.740864) can0 000A0003#FF17FFF810550000
(1763088624.741151) can0 000A0004#FFE8FFE5FF858E02
(1763088624.748805) can0 189#4902A301680100C0
(1763088624.749055) can0 382#0000000000000000
(1763088624.750865) can0 000A0003#FF17FFF910590000
(1763088624.751149) can0 000A0004#FFE7FFE4FF848E02
(1763088624.751834) can0 682#4E4D140400000000
(1763088624.757185) can0 482#0000000008140001
(1763088624.757302) can0 701#05
(1763088624.758798) can0 186#00004C1D01030000
(1763088624.759282) can0 189#4902A301640100C0
(1763088624.760861) can0 000A0003#FF17FFF9105B0000
(1763088624.761142) can0 000A0004#FFE7FFE4FF848E02
(1763088624.765429) can0 281#0000000000000000
(1763088624.768802) can0 189#4902A401650100C0
(1763088624.770861) can0 000A0003#FF17FFF9105F0000
(1763088624.771144) can0 000A0004#FFE6FFE4FF858E02
(1763088624.771394) can0 382#0000000000000000
(1763088624.776315) can0 181#810100207F000009
(1763088624.778801) can0 189#4802A301670100C0
(1763088624.778915) can0 701#05
(1763088624.779161) can0 482#0000000008140001
(1763088624.779403) can0 188#0C00B42A00000000
(1763088624.779925) can0 288#D7281319004C0000
(1763088624.780338) can0 4C4#04D304E6052C0549
(1763088624.780861) can0 000A0003#FF15FFF810620000
(1763088624.781144) can0 000A0004#FFE7FFE4FF858E02
(1763088624.781384) can0 388#3030352B29000000
(1763088624.781612) can0 4C5#05490534053D0537
(1763088624.781900) can0 191#949494949494
(1763088624.782368) can0 4C6#053A053A0537053E
(1763088624.782878) can0 192#949494949494
(1763088624.783386) can0 4C7#0549052904A704A3
(1763088624.783896) can0 193#949494949494
(1763088624.784427) can0 4C8#0520000000000000
(1763088624.784909) can0 194#949494949494
(1763088624.785911) can0 195#949494949494
(1763088624.786921) can0 291#202527262724
(1763088624.787899) can0 292#222729272924
(1763088624.788803) can0 189#4702A101650100C0
(1763088624.788994) can0 293#222628262724
(1763088624.789913) can0 294#222727262724
(1763088624.790865) can0 000A0003#FF14FFF810630000
(1763088624.791150) can0 000A0004#FFE8FFE4FF858E02
(1763088624.791339) can0 295#212526232522
(1763088624.791609) can0 1A0#000000000000
(1763088624.791909) can0 000A0000#0000000000000000
(1763088624.792211) can0 000A0001#0000000000000000
(1763088624.792508) can0 000A0002#0000000000000000
(1763088624.792798) can0 682#4E4D140400000000
(1763088624.793052) can0 382#0000000000000000
(1763088624.796940) can0 1A4#0000A109000000
(1763088624.797164) can0 2A3#0E14151513110B09
(1763088624.798792) can0 186#00004C1D01040000
(1763088624.799292) can0 189#4802A301650100C0
(1763088624.799734) can0 1A2#0000AA0E000000
(1763088624.799962) can0 2A1#1214151413130F0A
(1763088624.800870) can0 000A0003#FF14FFF910630000
(1763088624.801156) can0 000A0004#FFE8FFE3FF858E02
(1763088624.801274) can0 701#05
(1763088624.801531) can0 482#0000000008140001
(1763088624.804151) can0 1A3#40003E0A000000
(1763088624.808802) can0 189#4902A301670100C0
(1763088624.809079) can0 281#0000000000000000
(1763088624.810863) can0 000A0003#FF12FFF810620000
(1763088624.811151) can0 000A0004#FFE8FFE3FF848E02
(1763088624.814558) can0 382#0000000000000000
(1763088624.814839) can0 181#810100207F000009
(1763088624.818817) can0 189#4902A501650100C0
(1763088624.819125) can0 080#
(1763088624.820273) can0 286#6400900100000000
(1763088624.820877) can0 000A0003#FF0FFFF7105F0000
(1763088624.821159) can0 000A0004#FFE7FFE3FF858E02
(1763088624.822743) can0 482#0000000008140001
(1763088624.822899) can0 701#05
(1763088624.825224) can0 188#0C004C2A00000000
(1763088624.825937) can0 288#D7281328004C0000
(1763088624.826945) can0 388#3030352B29000000
(1763088624.827909) can0 191#949494949494
(1763088624.828801) can0 189#4902A201660100C0
(1763088624.828991) can0 192#949494949494
(1763088624.829919) can0 193#949494949494
(1763088624.830873) can0 000A0003#FF0DFFF7105D0000
(1763088624.831164) can0 000A0004#FFE6FFE3FF868E02
(1763088624.831355) can0 194#949494949494
(1763088624.831901) can0 195#949494949494
(1763088624.832915) can0 291#202527262724
(1763088624.833748) can0 682#4E4D140400000000
(1763088624.833940) can0 292#222729272924
(1763088624.834656) can0 1A5#0000810D000000
(1763088624.834896) can0 293#222628262724
(1763088624.835902) can0 294#222727262727
(1763088624.836383) can0 382#0000000000000000
(1763088624.836910) can0 295#212526232522
(1763088624.838787) can0 186#00004C1D01050000
(1763088624.839273) can0 189#4902A201660100C0
(1763088624.840871) can0 000A0003#FF0DFFF810590000
(1763088624.841155) can0 000A0004#FFE7FFE3FF868E02
(1763088624.845474) can0 4C4#04D304E6052C0544
(1763088624.846483) can0 4C5#05490530053D053A
(1763088624.847038) can0 701#05
(1763088624.847315) can0 482#0000000008140001
(1763088624.847545) can0 4C6#053A053A05330542
(1763088624.848515) can0 4C7#0545052404A704A9
(1763088624.848809) can0 189#4902A301650100C0
(1763088624.849543) can0 4C8#0520000000000000
(1763088624.850870) can0 000A0003#FF0DFFF810550000
(1763088624.851157) can0 000A0004#FFE7FFE3FF868E02
(1763088624.852775) can0 181#810100207F000009
(1763088624.853068) can0 281#0000000000000000
(1763088624.858334) can0 382#0000000000000000
(1763088624.858797) can0 189#4902A301670100C0
(1763088624.860873) can0 000A0003#FF0EFFF810510000
(1763088624.861158) can0 000A0004#FFE7FFE4FF868E02
(1763088624.866187) can0 701#05
(1763088624.868796) can0 189#4A02A501670100C0
(1763088624.869235) can0 482#0000000008140001
(1763088624.870871) can0 000A0003#FF0EFFFA10500000
(1763088624.871157) can0 000A0004#FFE7FFE4FF878E02
(1763088624.874697) can0 682#4E4D150400000000
(1763088624.878787) can0 186#00004C1D01060000
(1763088624.879284) can0 189#4902A301660100C0
(1763088624.880167) can0 382#0000000000000000
(1763088624.880875) can0 000A0003#FF15FFFD104F0000
(1763088624.881159) can0 000A0004#FFE7FFE3FF888E02
(1763088624.888007) can0 701#05
(1763088624.888793) can0 189#4A02A401640100C0
(1763088624.890875) can0 000A0003#FF1B0000104F0000
(1763088624.891161) can0 000A0004#FFE7FFE3FF888E02
(1763088624.891405) can0 181#810100207F000009
(1763088624.891617) can0 1A0#000000000000
(1763088624.891919) can0 000A0000#0000000000000000
(1763088624.892217) can0 000A0001#0000000000000000
(1763088624.892516) can0 000A0002#0000000000000000
(1763088624.892761) can0 482#0000000008140001
(1763088624.896478) can0 281#0000000000000000
(1763088624.898791) can0 189#4902A301640100C0
(1763088624.900884) can0 000A0003#FF1F000210500000
(1763088624.901168) can0 000A0004#FFE6FFE4FF888E02
(1763088624.901897) can0 382#0000000000000000
(1763088624.904070) can0 1A4#0000A109000000
(1763088624.904298) can0 2A3#0E14151513110B08
(1763088624.905258) can0 1A3#40003E0A000000
(1763088624.907366) can0 1A2#0000AA0E000000
(1763088624.907594) can0 2A1#1214151413130F0A
(1763088624.908791) can0 189#4902A301660100C0
(1763088624.909854) can0 701#05
(1763088624.910596) can0 4C4#04D304E6052C0544
(1763088624.910882) can0 000A0003#FF21000410510000
(1763088624.911168) can0 000A0004#FFE6FFE4FF888E02
(1763088624.911605) can0 4C5#05490530053D053A
(1763088624.912624) can0 4C6#053A053A05330542
(1763088624.912867) can0 482#0000000008140001
(1763088624.913633) can0 4C7#0545052404A704A9
(1763088624.914667) can0 4C8#0520000000000000
(1763088624.915654) can0 682#4E4D140400000000
(1763088624.918572) can0 19A#00007E7C617B837B
(1763088624.918813) can0 186#00004C1D01070000
(1763088624.919273) can0 189#4802A301660100C0
(1763088624.919576) can0 29A#7D577F8280890000
(1763088624.920137) can0 080#
(1763088624.920876) can0 000A0003#FF25000710520000
(1763088624.921163) can0 000A0004#FFE5FFE3FF888E02
(1763088624.921408) can0 286#6400900100000000
(1763088624.923890) can0 382#0000000000000000
(1763088624.925195) can0 188#0C006A2900000000
(1763088624.925944) can0 288#D7281328004C0000
(1763088624.926954) can0 388#3030352B29000000
(1763088624.927898) can0 191#949494949494
(1763088624.928790) can0 189#4902A301650100C0
(1763088624.928982) can0 192#949494949494
(1763088624.929301) can0 181#810100207F000009
(1763088624.929877) can0 193#949494949494
(1763088624.930879) can0 000A0003#FF28000910530000
(1763088624.931165) can0 000A0004#FFE6FFE3FF878E02
(1763088624.931359) can0 194#949494949494
(1763088624.931909) can0 195#949494949494
(1763088624.932026) can0 701#05
(1763088624.932276) can0 482#0000000008140001
(1763088624.932924) can0 291#202527262724
(1763088624.933896) can0 292#222729272924
(1763088624.934904) can0 293#222628262724
(1763088624.935890) can0 294#222727262727
(1763088624.936900) can0 295#212526232522
(1763088624.937120) can0 1A5#0000810D000000
(1763088624.938785) can0 189#4802A201660100C0
(1763088624.940116) can0 281#0000000000000000
(1763088624.940878) can0 000A0003#FF29000910550000
(1763088624.941158) can0 000A0004#FFE5FFE2FF878E02
(1763088624.945605) can0 382#0000000000000000
(1763088624.948791) can0 189#4902A301670100C0
(1763088624.950878) can0 000A0003#FF2B000A10590000
(1763088624.951160) can0 000A0004#FFE6FFE2FF878E02
(1763088624.953755) can0 482#0000000008140001
(1763088624.953875) can0 701#05
(1763088624.956601) can0 682#4E4D150400000000
(1763088624.958776) can0 186#00004C1D01080000
(1763088624.959302) can0 189#4902A301650100C0
(1763088624.960878) can0 000A0003#FF2B0007105D0000
(1763088624.961162) can0 000A0004#FFE6FFE2FF868E02
(1763088624.967426) can0 382#0000000000000000
(1763088624.967670) can0 181#810100207F000009
(1763088624.968785) can0 189#4902A401650100C0
(1763088624.970880) can0 000A0003#FF2A000410610000
(1763088624.971171) can0 000A0004#FFE6FFE0FF868E02
(1763088624.975379) can0 701#05
(1763088624.975731) can0 482#0000000008140001
(1763088624.975967) can0 4C4#04D904E6052C0540
(1763088624.976739) can0 4C5#05450531053A053E
(1763088624.977751) can0 4C6#053A05360537053A
(1763088624.978770) can0 4C7#0549052004A704AE
(1763088624.979006) can0 189#4802A101660100C0
(1763088624.979811) can0 4C8#0520000000000000
(1763088624.980905) can0 000A0003#FF2A000310630000
(1763088624.981177) can0 000A0004#FFE6FFE0FF868E02
(1763088624.983821) can0 281#0000000000000000
(1763088624.988785) can0 189#4B02A501660100C0
(1763088624.989389) can0 382#0000000000000000
(1763088624.990888) can0 000A0003#FF2A000010640000
(1763088624.991179) can0 000A0004#FFE6FFE0FF858E02
(1763088624.991613) can0 1A0#000000000000
(1763088624.991913) can0 000A0000#0000000000000000
(1763088624.992212) can0 000A0001#0000000000000000
(1763088624.992511) can0 000A0002#0000000000000000
(1763088624.997234) can0 701#05
(1763088624.997556) can0 482#0000000008140001
(1763088624.997799) can0 682#4E4D140400000000
(1763088624.998774) can0 186#00004C1D01090000
(1763088624.999278) can0 189#4902A301640100C0
(1763088625.000888) can0 000A0003#FF2A000010640000
(1763088625.001179) can0 000A0004#FFE7FFE0FF858E02
(1763088625.005651) can0 181#810100207F000009
(1763088625.006372) can0 1A3#40003E0A000000
(1763088625.008787) can0 189#4902A401660100C0
(1763088625.010885) can0 000A0003#FF28FFFF10620000
(1763088625.011175) can0 000A0004#FFE7FFE0FF868E02
(1763088625.011399) can0 1A4#0000A109000000
(1763088625.011627) can0 2A3#0E14151513110B08
(1763088625.011877) can0 382#0000000000000000
(1763088625.014999) can0 1A2#0000AA0E000000
(1763088625.015226) can0 2A1#1314151413130F0A
(1763088625.018803) can0 189#4902A301670100C0
(1763088625.019140) can0 080#
(1763088625.020290) can0 286#6400900100000000
(1763088625.020892) can0 000A0003#FF27FFFF10610000
(1763088625.021176) can0 000A0004#FFE6FFDFFF868E02
(1763088625.021807) can0 701#05
(1763088625.022169) can0 482#0000000008140001
(1763088625.025207) can0 188#0C00F22900000000
(1763088625.025955) can0 288#D8281328004C0000
(1763088625.026961) can0 388#3030352B29000000
(1763088625.027532) can0 281#0000000000000000
(1763088625.027926) can0 191#949494949494
(1763088625.028781) can0 189#4902A301640100C0
(1763088625.028974) can0 192#949494949494
(1763088625.029904) can0 193#949494949494
(1763088625.030892) can0 000A0003#FF24FFFE105F0000
(1763088625.031182) can0 000A0004#FFE6FFE0FF858E02
(1763088625.031374) can0 194#949494949494
(1763088625.031918) can0 195#949494949494
(1763088625.032899) can0 291#202527262724
(1763088625.033148) can0 382#0000000000000000
(1763088625.033908) can0 292#222728272924
(1763088625.034914) can0 293#222628262724
(1763088625.035921) can0 294#222727262724
(1763088625.036924) can0 295#212526232522
(1763088625.038505) can0 682#4E4D140400000000
(1763088625.038789) can0 186#00004C1D010A0000
(1763088625.039193) can0 1A5#0000810D000000
(1763088625.039425) can0 189#4802A201660100C0
(1763088625.040893) can0 000A0003#FF23FFFC105B0000
(1763088625.041178) can0 000A0004#FFE5FFE0FF868E02
(1763088625.041412) can0 4C4#04D904E6052C0540
(1763088625.041528) can0 701#05
(1763088625.041861) can0 4C5#05450531053A053A
(1763088625.042873) can0 4C6#053A053A0537053A
(1763088625.043858) can0 482#0000000008140001
(1763088625.044092) can0 4C7#0545052004AD04AE
(1763088625.044337) can0 181#810100207F000009
(1763088625.044925) can0 4C8#0520000000000000
(1763088625.048780) can0 189#4902A301640100C0
(1763088625.050889) can0 000A0003#FF23FFFA10590000
(1763088625.051179) can0 000A0004#FFE4FFE0FF868E02
(1763088625.054905) can0 382#0000000000000000
(1763088625.058782) can0 189#4902A301680100C0
(1763088625.060892) can0 000A0003#FF24FFF810550000
(1763088625.061181) can0 000A0004#FFE5FFE0FF868E02
(1763088625.062757) can0 701#05
(1763088625.065803) can0 482#0000000008140001
(1763088625.068780) can0 189#4902A301680100C0
(1763088625.070893) can0 000A0003#FF24FFF610500000
(1763088625.071185) can0 000A0004#FFE6FFE0FF868E02
(1763088625.071437) can0 281#0000000000000000
(1763088625.076654) can0 382#0000000000000000
(1763088625.078768) can0 186#00004C1D010B0000
(1763088625.079303) can0 189#4902A201670100C0
(1763088625.079561) can0 682#4E4D150400000000
(1763088625.080898) can0 000A0003#FF26FFF4104F0000
(1763088625.081191) can0 000A0004#FFE6FFE1FF878E02
(1763088625.084581) can0 701#05
(1763088625.084932) can0 181#810100207F000009
(1763088625.087763) can0 482#0000000008140001
(1763088625.088778) can0 189#4902A301650100C0
(1763088625.090892) can0 000A0003#FF27FFF3104E0000
(1763088625.091178) can0 000A0004#FFE6FFE1FF888E02
(1763088625.091614) can0 1A0#000000000000
(1763088625.091914) can0 000A0000#0000000000000000
(1763088625.092214) can0 000A0001#0000000000000000
(1763088625.092514) can0 000A0002#0000000000000000
(1763088625.098469) can0 382#0000000000000000
(1763088625.098801) can0 189#4902A401640100C0
(1763088625.100892) can0 000A0003#FF2BFFF1104E0000
(1763088625.101176) can0 000A0004#FFE6FFE2FF878E02
(1763088625.105986) can0 4C4#04D304E105270540
(1763088625.106644) can0 701#05
(1763088625.106996) can0 4C5#05490531053D053A
(1763088625.107486) can0 1A3#40003E0A000000
(1763088625.108014) can0 4C6#053A053E0537053E
(1763088625.108777) can0 189#4902A301660100C0
(1763088625.109029) can0 4C7#0545052004AD04A9
(1763088625.109393) can0 482#0000000008140001
(1763088625.110057) can0 4C8#0520000000000000
(1763088625.110891) can0 000A0003#FF2FFFEF104F0000
(1763088625.111175) can0 000A0004#FFE6FFE2FF868E02
(1763088625.114866) can0 281#0000000000000000
(1763088625.118328) can0 1A4#0000A109000000
(1763088625.118555) can0 2A3#0E14151513110B08
(1763088625.118797) can0 186#00004C1D010C0000
(1763088625.119291) can0 189#4902A201650100C0
(1763088625.120125) can0 080#
(1763088625.120508) can0 682#4E4D150400000000
(1763088625.120760) can0 382#0000000000000000
(1763088625.121046) can0 000A0003#FF30FFED104D0000
(1763088625.121332) can0 000A0004#FFE6FFE3FF878E02
(1763088625.121576) can0 286#6400900100000000
(1763088625.122662) can0 1A2#0000AA0E000000
(1763088625.122890) can0 2A1#1314151413130F0A
(1763088625.124595) can0 19A#0000815C857B827C
(1763088625.125184) can0 188#0C00AB2C00000000
(1763088625.125576) can0 29A#7E67807E81820000
(1763088625.125882) can0 181#810100207F000009
(1763088625.126121) can0 288#D8281329004C0000
(1763088625.126951) can0 388#3030352B29000000
(1763088625.127901) can0 191#949494949494
(1763088625.128772) can0 189#4902A301640100C0
(1763088625.128965) can0 192#949494949494
(1763088625.129911) can0 193#949494949494
(1763088625.130897) can0 000A0003#FF31FFEC104D0000
(1763088625.131183) can0 000A0004#FFE6FFE7FF878E02
(1763088625.131374) can0 194#949494949494
(1763088625.131491) can0 701#05
(1763088625.131767) can0 482#0000000008140001
(1763088625.131957) can0 195#949494949494
(1763088625.132907) can0 291#202527262724
(1763088625.133929) can0 292#222728272924
(1763088625.134918) can0 293#222628262724
(1763088625.135928) can0 294#222727262724
(1763088625.136901) can0 295#212526232522
(1763088625.138771) can0 189#4802A301660100C0
(1763088625.140900) can0 000A0003#FF32FFEC104E0000
(1763088625.141186) can0 000A0004#FFE6FFE7FF868E02
(1763088625.141462) can0 1A5#0000810D000000
(1763088625.142184) can0 382#0000000000000000
(1763088625.148773) can0 189#4902A301660100C0
(1763088625.150902) can0 000A0003#FF33FFEC10500000
(1763088625.151186) can0 000A0004#FFEAFFE6FF878E02
(1763088625.152856) can0 701#05
(1763088625.153177) can0 482#0000000008140001
(1763088625.158573) can0 281#0000000000000000
(1763088625.158810) can0 186#00004C1D010D0000
(1763088625.159301) can0 189#4902A301670100C0
(1763088625.160902) can0 000A0003#FF33FFEB10510000
(1763088625.161195) can0 000A0004#FFE9FFE5FF878E02
(1763088625.161435) can0 682#4E4D140400000000
(1763088625.163994) can0 382#0000000000000000
(1763088625.164242) can0 181#810100207F000009
(1763088625.168774) can0 189#4902A301680100C0
(1763088625.170897) can0 000A0003#FF33FFEA10530000
(1763088625.171183) can0 000A0004#FFE9FFE4FF868E02
(1763088625.171419) can0 4C4#04D904E105310540
(1763088625.172124) can0 4C5#05490531053A0537
(1763088625.173142) can0 4C6#053E053A0537053A
(1763088625.174155) can0 4C7#0545052904AD04AE
(1763088625.174909) can0 482#0000000008140001
(1763088625.175028) can0 701#05
(1763088625.175274) can0 4C8#0520000000000000
(1763088625.178770) can0 189#4902A301650100C0
(1763088625.180901) can0 000A0003#FF33FFEB10530000
(1763088625.181188) can0 000A0004#FFE9FFE3FF868E02
(1763088625.185952) can0 382#0000000000000000
(1763088625.188773) can0 189#4902A301670100C0
(1763088625.190903) can0 000A0003#FF34FFED10530000
(1763088625.191188) can0 000A0004#FFE7FFE3FF878E02
(1763088625.191616) can0 1A0#000000000000
(1763088625.191917) can0 000A0000#0000000000000000
(1763088625.192217) can0 000A0001#0000000000000000
(1763088625.192517) can0 000A0002#0000000000000000
(1763088625.193995) can0 701#05
(1763088625.194261) can0 482#0000000008140001
(1763088625.198759) can0 186#00004C1D010E0000
(1763088625.199295) can0 189#4902A401650100C0
(1763088625.200905) can0 000A0003#FF32FFED10530000
(1763088625.201187) can0 000A0004#FFE7FFE2FF878E02
(1763088625.202219) can0 181#810100207F000009
(1763088625.202475) can0 281#0000000000000000
(1763088625.202746) can0 682#4E4D140400000000
(1763088625.207701) can0 382#0000000000000000
(1763088625.208593) can0 1A3#40003E0A000000
(1763088625.208826) can0 189#4902A301650100C0
(1763088625.210910) can0 000A0003#FF2FFFEE10530000
(1763088625.211194) can0 000A0004#FFE7FFE2FF878E02
(1763088625.215852) can0 482#0000000008140001
(1763088625.215971) can0 701#05
(1763088625.218784) can0 189#4902A301670100C0
(1763088625.219127) can0 080#
(1763088625.220275) can0 286#6400900100000000
(1763088625.220905) can0 000A0003#FF2CFFED104F0000
(1763088625.221187) can0 000A0004#FFE8FFE2FF878E02
(1763088625.225222) can0 188#0C00D72900000000
(1763088625.225445) can0 1A4#0000A109000000
(1763088625.225673) can0 2A3#0E14151514110B08
(1763088625.225968) can0 288#D7281328004C0000
(1763088625.226947) can0 388#3030352B29000000
(1763088625.227890) can0 191#949494949494
(1763088625.228767) can0 189#4802A301650100C0
(1763088625.228959) can0 192#949494949494
(1763088625.229533) can0 382#0000000000000000
(1763088625.229919) can0 193#949494949494
(1763088625.230291) can0 1A2#0000AA0E000000
(1763088625.230520) can0 2A1#1314151413130F0A
(1763088625.230912) can0 000A0003#FF29FFEC104C0000
(1763088625.231197) can0 000A0004#FFE7FFE3FF878E02
(1763088625.231389) can0 194#949494949494
(1763088625.231903) can0 195#949494949494
(1763088625.232914) can0 291#202527262724
(1763088625.233933) can0 292#222728272924
(1763088625.234928) can0 293#222628262724
(1763088625.235904) can0 294#222727262724
(1763088625.236228) can0 4C4#04D904E105310540
(1763088625.236909) can0 295#212526232522
(1763088625.237238) can0 4C5#05490531053A0537
(1763088625.237490) can0 701#05
(1763088625.237843) can0 482#0000000008140001
(1763088625.238254) can0 4C6#053E053A0537053A
(1763088625.238757) can0 186#00004C1D010F0000
(1763088625.239267) can0 4C7#0545052904AD04AE
(1763088625.239501) can0 189#4602A001640100C0
(1763088625.240298) can0 4C8#0520000000000000
(1763088625.240587) can0 181#810100207F000009
(1763088625.240912) can0 000A0003#FF27FFEE10490000
(1763088625.241195) can0 000A0004#FFE7FFDEFF878E02
(1763088625.243268) can0 682#4E4D140400000000
(1763088625.243725) can0 1A5#0000810D000000
(1763088625.245914) can0 281#0000000000000000
(1763088625.248767) can0 189#4902A301650100C0
(1763088625.250906) can0 000A0003#FF24FFF010450000
(1763088625.251193) can0 000A0004#FFE7FFDEFF888E02
(1763088625.251474) can0 382#0000000000000000
(1763088625.258762) can0 189#4A02A401660100C0
(1763088625.259336) can0 701#05
(1763088625.259659) can0 482#0000000008140001
(1763088625.260912) can0 000A0003#FF22FFF210420000
(1763088625.261195) can0 000A0004#FFE8FFDEFF888E02
(1763088625.268762) can0 189#4902A501660100C0
(1763088625.270916) can0 000A0003#FF22FFF4103F0000
(1763088625.271204) can0 000A0004#FFE7FFDEFF888E02
(1763088625.273225) can0 382#0000000000000000
(1763088625.278681) can0 181#810100207F000009
(1763088625.278923) can0 186#00004C1D01000000
(1763088625.279297) can0 189#4902A301660100C0
(1763088625.280912) can0 000A0003#FF22FFF5103C0000
(1763088625.281196) can0 000A0004#FFE7FFDFFF888E02
(1763088625.281345) can0 701#05
(1763088625.281612) can0 482#0000000008140001
(1763088625.284218) can0 682#4E4D140400000000
(1763088625.288765) can0 189#4902A301670100C0
(1763088625.289624) can0 281#0000000000000000
(1763088625.290908) can0 000A0003#FF22FFF610390000
(1763088625.291198) can0 000A0004#FFEAFFE0FF888E02
(1763088625.291614) can0 1A0#000000000000
(1763088625.291926) can0 000A0000#0000000000000000
(1763088625.292226) can0 000A0001#0000000000000000
(1763088625.292527) can0 000A0002#0000000000000000
(1763088625.295041) can0 382#0000000000000000
(1763088625.298758) can0 189#4A02A501660100C0
(1763088625.300918) can0 000A0003#FF23FFFA10360000
(1763088625.301206) can0 000A0004#FFE9FFE0FF888E02
(1763088625.301439) can0 4C4#04D904E105310544
(1763088625.302375) can0 4C5#054C052C0541053E
(1763088625.303005) can0 701#05
(1763088625.303358) can0 482#0000000008140001
(1763088625.303588) can0 4C6#053A053A0537053A
(1763088625.304415) can0 4C7#054D052404A204A3
(1763088625.305431) can0 4C8#0520000000000000
(1763088625.308763) can0 189#4902A301670100C0
(1763088625.309696) can0 1A3#40003E0A000000
(1763088625.310916) can0 000A0003#FF25FFFE10350000
(1763088625.311206) can0 000A0004#FFEAFFE0FF888E02
(1763088625.313595) can0 19A#00007C79617E7D86
(1763088625.314600) can0 29A#817F857D83820000
(1763088625.316885) can0 181#810100207F000009
(1763088625.317135) can0 382#0000000000000000
(1763088625.318773) can0 186#00004C1D01010000
(1763088625.319273) can0 189#4802A301640100C0
(1763088625.320139) can0 080#
(1763088625.320914) can0 000A0003#FF28000210350000
(1763088625.321204) can0 000A0004#FFEAFFE0FF898E02
(1763088625.321448) can0 286#6400900100000000
(1763088625.324862) can0 701#05
(1763088625.325179) can0 482#0000000008140001
(1763088625.325421) can0 188#0C002D2A00000000
(1763088625.325661) can0 682#4E4D150400000000
(1763088625.325943) can0 288#D7281328004C0000
(1763088625.326951) can0 388#3030352B29000000
(1763088625.327915) can0 191#949494949494
(1763088625.328755) can0 189#4802A301650100C0
(1763088625.328949) can0 192#949494949494
(1763088625.329926) can0 193#949494949494
(1763088625.330917) can0 000A0003#FF2D000410370000
(1763088625.331201) can0 000A0004#FFEAFFE2FF888E02
(1763088625.331393) can0 194#949494949494
(1763088625.331909) can0 195#949494949494
(1763088625.332521) can0 1A4#0000A109000000
(1763088625.332749) can0 2A3#0E14151514110B08
(1763088625.332943) can0 291#202527262724
(1763088625.333284) can0 281#0000000000000000
(1763088625.333940) can0 292#222728272924
(1763088625.334904) can0 293#222628262724
(1763088625.335910) can0 294#222727262724
(1763088625.336915) can0 295#212526232522
(1763088625.337937) can0 1A2#0000AA0E000000
(1763088625.338169) can0 2A1#1314151414130F0A
(1763088625.338765) can0 382#0000000000000000
(1763088625.338998) can0 189#4702A301640100C0
(1763088625.340922) can0 000A0003#FF300007103D0000
(1763088625.341204) can0 000A0004#FFE9FFE2FF898E02
(1763088625.346010) can0 1A5#0000810D000000
(1763088625.346905) can0 482#0000000008140001
(1763088625.347026) can0 701#05
(1763088625.348756) can0 189#4902A101670100C0
(1763088625.350926) can0 000A0003#FF31000810410000
(1763088625.351210) can0 000A0004#FFE9FFE2FF898E02
(1763088625.355191) can0 181#810100207F000009
(1763088625.357949) can0 382#0000000000000000
(1763088625.358747) can0 186#00004C1D01020000
(1763088625.359303) can0 189#4902A301640100C0
(1763088625.360922) can0 000A0003#FF33000610470000
(1763088625.361205) can0 000A0004#FFE9FFE3FF898E02
(1763088625.366124) can0 682#4E4D150400000000
(1763088625.366486) can0 4C4#04D904E105310544
(1763088625.367507) can0 4C5#054C052C0541053E
(1763088625.368516) can0 4C6#053A053A0537053A
(1763088625.368631) can0 701#05
(1763088625.368863) can0 189#4902A401640100C0
(1763088625.369110) can0 482#0000000008140001
(1763088625.369532) can0 4C7#054D052404A204A3
(1763088625.370562) can0 4C8#0520000000000000
(1763088625.370920) can0 000A0003#FF340002104E0000
(1763088625.371206) can0 000A0004#FFE9FFE4FF898E02
(1763088625.376959) can0 281#0000000000000000
(1763088625.378802) can0 189#4902A401660100C0
(1763088625.379707) can0 382#0000000000000000
(1763088625.380921) can0 000A0003#FF35000010510000
(1763088625.381200) can0 000A0004#FFEAFFE4FF8A8E02
(1763088625.388753) can0 189#4902A401660100C0
(1763088625.390374) can0 701#05
(1763088625.390697) can0 482#0000000008140001
(1763088625.390985) can0 000A0003#FF38FFFD10560000
(1763088625.391267) can0 000A0004#FFEAFFE4FF898E02
(1763088625.391617) can0 1A0#000000000000
(1763088625.391941) can0 000A0000#0000000000000000
(1763088625.392241) can0 000A0001#0000000000000000
(1763088625.392540) can0 000A0002#0000000000000000
(1763088625.396138) can0 181#810100207F000009
(1763088625.398747) can0 186#00004C1D01030000
(1763088625.399315) can0 189#4902A301630100C0
(1763088625.400928) can0 000A0003#FF3AFFFA10590000
(1763088625.401210) can0 000A0004#FFEAFFE4FF898E02
(1763088625.401552) can0 382#0000000000000000
(1763088625.407073) can0 682#4E4D140400000000
(1763088625.408748) can0 189#4A02A401650100C0
(1763088625.410793) can0 1A3#40003E0A000000
(1763088625.411083) can0 000A0003#FF3BFFF8105B0000
(1763088625.411369) can0 000A0004#FFE9FFE5FF898E02
(1763088625.412432) can0 482#0000000008140001
(1763088625.412540) can0 701#05
(1763088625.418765) can0 189#4902A301690100C0
(1763088625.419143) can0 080#
(1763088625.420295) can0 286#6400900100000000
(1763088625.420766) can0 281#0000000000000000
(1763088625.421052) can0 000A0003#FF3CFFF7105C0000
(1763088625.421337) can0 000A0004#FFE8FFE5FF888E02
(1763088625.423470) can0 382#0000000000000000
(1763088625.425203) can0 188#0C00242F00000000
(1763088625.425948) can0 288#D7281329004C0000
(1763088625.426960) can0 388#3030352B29000000
(1763088625.427906) can0 191#949494949494
(1763088625.428746) can0 189#4902A301640100C0
(1763088625.428939) can0 192#949494949494
(1763088625.429885) can0 193#949494949494
(1763088625.430929) can0 000A0003#FF3DFFF4105E0000
(1763088625.431215) can0 000A0004#FFE8FFE4FF888E02
(1763088625.431407) can0 194#949494949494
(1763088625.431639) can0 4C4#04D304E105270544
(1763088625.431917) can0 195#949494949494
(1763088625.432630) can0 4C5#054D0531053D053A
(1763088625.432927) can0 291#202527262724
(1763088625.433647) can0 4C6#053E053A0533053A
(1763088625.433906) can0 292#222728272924
(1763088625.434060) can0 701#05
(1763088625.434383) can0 181#810100207F000009
(1763088625.434633) can0 482#0000000008140001
(1763088625.434865) can0 4C7#0545052004AD04A3
(1763088625.435059) can0 293#222628262724
(1763088625.435689) can0 4C8#0520000000000000
(1763088625.435901) can0 294#222727262724
(1763088625.436904) can0 295#212526232522
(1763088625.438743) can0 186#00004C1D01040000
(1763088625.439291) can0 189#4702A201640100C0
(1763088625.439625) can0 1A4#0000A109000000
(1763088625.439853) can0 2A3#0E14151514110B08
(1763088625.440930) can0 000A0003#FF3CFFF3105E0000
(1763088625.441214) can0 000A0004#FFE9FFE5FF888E02
(1763088625.445221) can0 382#0000000000000000
(1763088625.445545) can0 1A2#0000AA0E000000
(1763088625.445776) can0 2A1#1314151414130F0A
(1763088625.448024) can0 682#4E4D150400000000
(1763088625.448271) can0 1A5#0000810D000000
(1763088625.448745) can0 189#4902A301640100C0
(1763088625.450925) can0 000A0003#FF3BFFF2105D0000
(1763088625.451209) can0 000A0004#FFE8FFE6FF888E02
(1763088625.455896) can0 701#05
(1763088625.456222) can0 482#0000000008140001
(1763088625.458745) can0 189#4A02A401670100C0
(1763088625.460930) can0 000A0003#FF3AFFF2105B0000
(1763088625.461214) can0 000A0004#FFE8FFE5FF888E02
(1763088625.464308) can0 281#0000000000000000
(1763088625.467039) can0 382#0000000000000000
(1763088625.468744) can0 189#4902A401650100C0
(1763088625.470930) can0 000A0003#FF39FFF310590000
(1763088625.471216) can0 000A0004#FFE8FFE4FF888E02
(1763088625.472503) can0 181#810100207F000009
(1763088625.477946) can0 482#0000000008140001
(1763088625.478061) can0 701#05
(1763088625.478733) can0 186#00004C1D01050000
(1763088625.479299) can0 189#4902A301650100C0
(1763088625.480928) can0 000A0003#FF38FFF110570000
(1763088625.481218) can0 000A0004#FFE9FFE3FF878E02
(1763088625.488749) can0 189#4902A301670100C0
(1763088625.488988) can0 682#4E4D140400000000
(1763088625.489242) can0 382#0000000000000000
(1763088625.490932) can0 000A0003#FF37FFEF10560000
(1763088625.491216) can0 000A0004#FFE9FFE4FF878E02
(1763088625.491618) can0 1A0#000000000000
(1763088625.491942) can0 000A0000#0000000000000000
(1763088625.492242) can0 000A0001#0000000000000000
(1763088625.492541) can0 000A0002#0000000000000000
(1763088625.496758) can0 4C4#04CC04E605310549
(1763088625.497775) can0 4C5#054905340541053E
(1763088625.498741) can0 189#4902A401640100C0
(1763088625.498975) can0 4C6#053A05360533053E
(1763088625.499584) can0 701#05
(1763088625.499816) can0 4C7#0549052004B204A9
(1763088625.500063) can0 482#0000000008140001
(1763088625.500832) can0 4C8#0520000000000000
(1763088625.501118) can0 000A0003#FF35FFED10540000
(1763088625.501403) can0 000A0004#FFE9FFE4FF878E02
(1763088625.508006) can0 281#0000000000000000
(1763088625.508741) can0 189#4902A201650100C0
(1763088625.510745) can0 382#0000000000000000
(1763088625.511031) can0 000A0003#FF35FFEE10510000
(1763088625.511315) can0 000A0004#FFE9FFE4FF878E02
(1763088625.511559) can0 181#810100207F000009
(1763088625.511893) can0 1A3#40003E0A000000
(1763088625.518759) can0 186#00004C1D01060000
(1763088625.519297) can0 189#4902A301660100C0
(1763088625.519588) can0 19A#00007D68677C7C7D
(1763088625.520096) can0 080#
(1763088625.520597) can0 29A#8281817D86800000
(1763088625.520935) can0 000A0003#FF33FFF0104F0000
(1763088625.521219) can0 000A0004#FFE9FFE4FF888E02
(1763088625.521463) can0 286#6400900100000000
(1763088625.521580) can0 701#05
(1763088625.521851) can0 482#0000000008140001
(1763088625.525213) can0 188#0C00CF2C00000000
(1763088625.525955) can0 288#D7281329004C0000
(1763088625.526971) can0 388#3030352B29000000
(1763088625.527963) can0 191#949494949494
(1763088625.528767) can0 189#4802A201650100C0
(1763088625.528957) can0 192#949494949494
(1763088625.529957) can0 682#4E4D150400000000
(1763088625.530142) can0 193#949494949494
(1763088625.530933) can0 000A0003#FF32FFF2104F0000
(1763088625.531218) can0 000A0004#FFE9FFE3FF888E02
(1763088625.531409) can0 194#949494949494
(1763088625.531940) can0 195#949494949494
(1763088625.532579) can0 382#0000000000000000
(1763088625.532905) can0 291#202527262724
(1763088625.533914) can0 292#222728272924
(1763088625.534919) can0 293#222628262724
(1763088625.535925) can0 294#222727262724
(1763088625.536928) can0 295#212526232522
(1763088625.538736) can0 189#4802A301660100C0
(1763088625.540930) can0 000A0003#FF30FFF3104F0000
(1763088625.541216) can0 000A0004#FFE8FFE3FF888E02
(1763088625.543468) can0 482#0000000008140001
(1763088625.543586) can0 701#05
(1763088625.546738) can0 1A4#0000A109000000
(1763088625.546968) can0 2A3#0E14151514110C08
(1763088625.548738) can0 189#4802A301660100C0
(1763088625.548980) can0 181#810100207F000009
(1763088625.550545) can0 1A5#0000810D000000
(1763088625.550938) can0 000A0003#FF2EFFF510500000
(1763088625.551222) can0 000A0004#FFE9FFE2FF888E02
(1763088625.551763) can0 281#0000000000000000
(1763088625.553183) can0 1A2#0000AA0E000000
(1763088625.553413) can0 2A1#1314151414130F0A
(1763088625.554540) can0 382#0000000000000000
(1763088625.558780) can0 186#00004C1D01070000
(1763088625.559301) can0 189#4A02A301650100C0
(1763088625.560946) can0 000A0003#FF2CFFF710500000
(1763088625.561228) can0 000A0004#FFE9FFE2FF878E02
(1763088625.561892) can0 4C4#04CC04E605310549
(1763088625.562910) can0 4C5#054905340541053E
(1763088625.563922) can0 4C6#053A05360533053E
(1763088625.564937) can0 4C7#0549052004B204A9
(1763088625.565100) can0 701#05
(1763088625.565452) can0 482#0000000008140001
(1763088625.565964) can0 4C8#0520000000000000
(1763088625.568738) can0 189#4902A301660100C0
(1763088625.570879) can0 682#4E4D140400000000
(1763088625.571164) can0 000A0003#FF28FFF910510000
(1763088625.571452) can0 000A0004#FFE9FFE2FF878E02
(1763088625.576269) can0 382#0000000000000000
(1763088625.578736) can0 189#4902A401650100C0
(1763088625.580944) can0 000A0003#FF25FFFC10520000
(1763088625.581233) can0 000A0004#FFE9FFE1FF878E02
(1763088625.587169) can0 181#810100207F000009
(1763088625.587284) can0 701#05
(1763088625.587534) can0 482#0000000008140001
(1763088625.588737) can0 189#4902A301670100C0
(1763088625.590951) can0 000A0003#FF24000010560000
(1763088625.591241) can0 000A0004#FFE9FFE1FF878E02
(1763088625.591621) can0 1A0#000000000000
(1763088625.591955) can0 000A0000#0000000000000000
(1763088625.592255) can0 000A0001#0000000000000000
(1763088625.592554) can0 000A0002#0000000000000000
(1763088625.595353) can0 281#0000000000000000
(1763088625.598090) can0 382#0000000000000000
(1763088625.598724) can0 186#00004C1D01080000
(1763088625.599298) can0 189#4902A201670100C0
(1763088625.600959) can0 000A0003#FF24000210590000
(1763088625.601245) can0 000A0004#FFE9FFE3FF878E02
(1763088625.608734) can0 189#4902A301670100C0
(1763088625.608999) can0 482#0000000008140001
(1763088625.609120) can0 701#05
(1763088625.610949) can0 000A0003#FF240003105C0000
(1763088625.611235) can0 000A0004#FFEDFFE3FF878E02
(1763088625.611836) can0 682#4E4D140400000000
(1763088625.613003) can0 1A3#40003E0A000000
(1763088625.618748) can0 189#4A02A401660100C0
(1763088625.619160) can0 080#
(1763088625.620057) can0 382#0000000000000000
(1763088625.620301) can0 286#6400900100000000
(1763088625.620947) can0 000A0003#FF25000410600000
(1763088625.621229) can0 000A0004#FFEEFFE4FF878E02
(1763088625.625472) can0 181#810100207F000009
(1763088625.627015) can0 4C4#04D904E6052C0544
(1763088625.628029) can0 4C5#054C0530053A0537
(1763088625.628731) can0 189#4902A301660100C0
(1763088625.629048) can0 4C6#053E053A0533053E
(1763088625.630056) can0 4C7#054D052404A704A9
(1763088625.630618) can0 701#05
(1763088625.630946) can0 000A0003#FF27000410660000
(1763088625.631232) can0 000A0004#FFEDFFE7FF878E02
(1763088625.631479) can0 482#0000000008140001
(1763088625.631725) can0 4C8#0520000000000000
(1763088625.634179) can0 188#0C00282A00000000
(1763088625.634947) can0 288#D7281319004C0000
(1763088625.635961) can0 388#3030352A29000000
(1763088625.636911) can0 191#949494949494
(1763088625.637917) can0 192#949494949494
(1763088625.638719) can0 186#00004C1D01090000
(1763088625.638919) can0 193#949494949494
(1763088625.639172) can0 281#0000000000000000
(1763088625.639406) can0 189#4802A301650100C0
(1763088625.639930) can0 194#949494949494
(1763088625.640943) can0 000A0003#FF270005106A0000
(1763088625.641226) can0 000A0004#FFEDFFE8FF878E02
(1763088625.641416) can0 195#949494949494
(1763088625.641800) can0 382#0000000000000000
(1763088625.641994) can0 291#202527262724
(1763088625.642923) can0 292#222728272924
(1763088625.643929) can0 293#222628262724
(1763088625.644906) can0 294#222727262724
(1763088625.645908) can0 295#212526232522
(1763088625.648731) can0 189#4A02A301680100C0
(1763088625.650946) can0 000A0003#FF2A0008106C0000
(1763088625.651231) can0 000A0004#FFECFFE8FF888E02
(1763088625.652470) can0 701#05
(1763088625.652794) can0 482#0000000008140001
(1763088625.653017) can0 1A5#0000810D000000
(1763088625.653257) can0 682#4E4D140400000000
(1763088625.653857) can0 1A4#0000A109000000
(1763088625.654088) can0 2A3#0E14151514110C08
(1763088625.658726) can0 189#4902A301690100C0
(1763088625.660811) can0 1A2#0000AA0E000000
(1763088625.661099) can0 000A0003#FF2B000A106E0000
(1763088625.661385) can0 000A0004#FFEBFFE8FF888E02
(1763088625.661613) can0 2A1#1314151413130F0A
(1763088625.663608) can0 382#0000000000000000
(1763088625.663857) can0 181#810100207F000009
(1763088625.668726) can0 189#4902A301690100C0
(1763088625.670948) can0 000A0003#FF2A000910700000
(1763088625.671236) can0 000A0004#FFEBFFE7FF888E02
(1763088625.674516) can0 482#0000000008140001
(1763088625.674635) can0 701#05
(1763088625.678720) can0 186#00004C1D010A0000
(1763088625.679317) can0 189#4802A2016C0100C0
(1763088625.680952) can0 000A0003#FF2A000910710000
(1763088625.681238) can0 000A0004#FFECFFE6FF878E02
(1763088625.682759) can0 281#0000000000000000
(1763088625.685566) can0 382#0000000000000000
(1763088625.688725) can0 189#4A02A4016D0100C0
(1763088625.690947) can0 000A0003#FF2A0007106E0000
(1763088625.691234) can0 000A0004#FFEBFFE7FF888E02
(1763088625.691621) can0 1A0#000000000000
(1763088625.691966) can0 000A0000#0000000000000000
(1763088625.692267) can0 000A0001#0000000000000000
(1763088625.692566) can0 000A0002#0000000000000000
(1763088625.692799) can0 4C4#04D904E6052C0544
(1763088625.693157) can0 4C5#054C0530053A0537
(1763088625.693758) can0 682#4E4D150400000000
(1763088625.694176) can0 4C6#053E053A0533053E
(1763088625.695184) can0 4C7#054D052404A704A9
