(1763086496.113900) can0 000A0003#FF25000210580000
(1763086496.114150) can0 000A0004#FFE0FFD0FF688E02
(1763086496.114389) can0 19A#0000807D7F7F7F7F
(1763086496.114640) can0 382#0000000000000000
(1763086496.114762) can0 701#05
(1763086496.115285) can0 29A#7E81867E83830000
(1763086496.119454) can0 682#40471C0432040000
(1763086496.121680) can0 186#00004C1D09050000
(1763086496.121939) can0 189#45029C01F201005B
(1763086496.122802) can0 080#
(1763086496.123862) can0 000A0003#FF27000310590000
(1763086496.124147) can0 000A0004#FFE1FFD0FF688E02
(1763086496.124390) can0 286#0000580200000000
(1763086496.127625) can0 482#0000000008340001
(1763086496.130245) can0 188#0C00F83100000000
(1763086496.131006) can0 288#1929142A00140000
(1763086496.132020) can0 388#2324252424000000
(1763086496.132979) can0 191#969696969696
(1763086496.133861) can0 000A0003#FF280003105B0000
(1763086496.134149) can0 000A0004#FFE0FFD0FF688E02
(1763086496.134343) can0 192#969696969696
(1763086496.134962) can0 193#969696969696
(1763086496.135567) can0 701#05
(1763086496.135927) can0 382#0000000000000000
(1763086496.136117) can0 194#969696969696
(1763086496.136975) can0 195#969696969697
(1763086496.137977) can0 291#111111111111
(1763086496.138955) can0 292#111111111211
(1763086496.139968) can0 293#111211121212
(1763086496.140976) can0 294#121212121212
(1763086496.141287) can0 181#910132247F000009
(1763086496.141978) can0 295#121212131313
(1763086496.143865) can0 000A0003#FF290003105C0000
(1763086496.144151) can0 000A0004#FFE0FFD1FF688E02
(1763086496.145497) can0 1A4#0000EB09000000
(1763086496.145733) can0 2A3#0F14141414120D0A
(1763086496.149369) can0 482#0000000008340001
(1763086496.149624) can0 281#0000000000000000
(1763086496.151540) can0 1A2#0000E70D000000
(1763086496.151772) can0 2A1#0D0D0E0E0E0E0C08
(1763086496.153865) can0 000A0003#FF2A0003105D0000
(1763086496.154153) can0 000A0004#FFE0FFD1FF688E02
(1763086496.157333) can0 701#05
(1763086496.157664) can0 382#0000000000000000
(1763086496.160397) can0 682#40471C0432040000
(1763086496.161640) can0 186#00004C1D09060000
(1763086496.163870) can0 000A0003#FF290002105F0000
(1763086496.164154) can0 000A0004#FFE0FFD1FF688E02
(1763086496.164390) can0 4C4#04BF04BD04B804B0
(1763086496.164970) can0 4C5#04B604B504B604B7
(1763086496.165983) can0 4C6#04B704B304B304B3
(1763086496.166999) can0 4C7#04BF04AE04B204AE
(1763086496.168031) can0 4C8#0495000000000000
(1763086496.169991) can0 1A3#4000A109000000
(1763086496.171319) can0 482#0000000008340001
(1763086496.173869) can0 000A0003#FF26000010600000
(1763086496.174155) can0 000A0004#FFE0FFD1FF678E02
(1763086496.179408) can0 382#0000000000000000
(1763086496.179563) can0 701#05
(1763086496.179803) can0 181#910132247F000009
(1763086496.183536) can0 1A0#000000000000
(1763086496.183872) can0 000A0003#FF24FFFF10610000
(1763086496.184155) can0 000A0004#FFE1FFD2FF678E02
(1763086496.184886) can0 000A0000#0000000000000000
(1763086496.185186) can0 000A0001#0000000000000000
(1763086496.185485) can0 000A0002#0000000000000000
(1763086496.187962) can0 1A5#0000720D000000
(1763086496.190307) can0 482#0000000008340001
(1763086496.193052) can0 281#0000000000000000
(1763086496.193867) can0 000A0003#FF23FFFE10610000
(1763086496.194152) can0 000A0004#FFE0FFD2FF678E02
(1763086496.201017) can0 701#05
(1763086496.201361) can0 682#40471D0432040000
(1763086496.201648) can0 382#0000000000000000
(1763086496.201886) can0 186#00004C1D09070000
(1763086496.203871) can0 000A0003#FF21FFFD105F0000
(1763086496.204154) can0 000A0004#FFE1FFD1FF668E02
(1763086496.212255) can0 482#0000000008340001
(1763086496.213877) can0 000A0003#FF21FFFC105C0000
(1763086496.214163) can0 000A0004#FFE2FFD2FF668E02
(1763086496.217614) can0 181#910132247F000009
(1763086496.221683) can0 189#47029D01F201005B
(1763086496.221803) can0 080#
(1763086496.222955) can0 286#0000580200000000
(1763086496.223071) can0 701#05
(1763086496.223327) can0 382#0000000000000000
(1763086496.223867) can0 000A0003#FF22FFFA10580000
(1763086496.224153) can0 000A0004#FFE2FFD2FF668E02
(1763086496.229122) can0 4C4#04BF04BD04B804B0
(1763086496.230132) can0 4C5#04B604B504B604B7
(1763086496.231145) can0 4C6#04B704B304B304B3
(1763086496.232160) can0 4C7#04BF04AE04B204AE
(1763086496.233190) can0 4C8#0495000000000000
(1763086496.233874) can0 000A0003#FF25FFF710510000
(1763086496.234160) can0 000A0004#FFE3FFD7FF658E02
(1763086496.234406) can0 482#0000000008340001
(1763086496.236739) can0 281#0000000000000000
(1763086496.241633) can0 186#00004C1D09080000
(1763086496.242378) can0 682#40471D0432040000
(1763086496.242633) can0 382#0000000000000000
(1763086496.242752) can0 701#05
(1763086496.243882) can0 000A0003#FF27FFF4104B0000
(1763086496.244162) can0 000A0004#FFE3FFD6FF658E02
(1763086496.252503) can0 1A4#0000EB09000000
(1763086496.252740) can0 2A3#0F14141414120D0A
(1763086496.253875) can0 000A0003#FF27FFF110450000
(1763086496.254157) can0 000A0004#FFE3FFD5FF638E02
(1763086496.255815) can0 482#0000000008340001
(1763086496.256053) can0 181#910132247F000009
(1763086496.259164) can0 1A2#0000E70D000000
(1763086496.259395) can0 2A1#0D0D0E0E0E0E0C08
(1763086496.263873) can0 000A0003#FF27FFEF10420000
(1763086496.264155) can0 000A0004#FFE2FFD5FF628E02
(1763086496.264273) can0 701#05
(1763086496.264536) can0 382#0000000000000000
(1763086496.271123) can0 1A3#4000A109000000
(1763086496.273877) can0 000A0003#FF24FFEE103F0000
(1763086496.274162) can0 000A0004#FFE2FFD4FF618E02
(1763086496.277758) can0 482#0000000008340001
(1763086496.280473) can0 281#0000000000000000
(1763086496.281627) can0 186#00004C1D09090000
(1763086496.283296) can0 682#40471D0432040000
(1763086496.283537) can0 1A0#000000000000
(1763086496.283878) can0 000A0003#FF23FFED103C0000
(1763086496.284164) can0 000A0004#FFE2FFD5FF5D8E02
(1763086496.284411) can0 188#0C00013200000000
(1763086496.284888) can0 000A0000#0000000000000000
(1763086496.285188) can0 000A0001#0000000000000000
(1763086496.285486) can0 000A0002#0000000000000000
(1763086496.285725) can0 288#1929141D00140000
(1763086496.285974) can0 382#0000000000000000
(1763086496.286212) can0 388#2324252424000000
(1763086496.286328) can0 701#05
(1763086496.286952) can0 191#969696969696
(1763086496.287965) can0 192#969696969696
(1763086496.288985) can0 193#969696969696
(1763086496.289962) can0 194#969696969696
(1763086496.290231) can0 1A5#0000720D000000
(1763086496.290969) can0 195#969696969697
(1763086496.291974) can0 291#111111111111
(1763086496.292983) can0 292#111111111211
(1763086496.293877) can0 000A0003#FF24FFEF103A0000
(1763086496.294161) can0 000A0004#FFE1FFD5FF5D8E02
(1763086496.294397) can0 181#910132247F000009
(1763086496.294589) can0 293#111211121212
(1763086496.294827) can0 4C4#04C004BE04B304B6
(1763086496.295019) can0 294#121212121212
(1763086496.295288) can0 4C5#04B704BB04B704B8
(1763086496.295972) can0 295#121212131313
(1763086496.296305) can0 4C6#04B404B804B404AF
(1763086496.297318) can0 4C7#04B704B304B304AF
(1763086496.298348) can0 4C8#0496000000000000
(1763086496.299584) can0 482#0000000008340001
(1763086496.303877) can0 000A0003#FF24FFF010380000
(1763086496.304158) can0 000A0004#FFE1FFD5FF5E8E02
(1763086496.307462) can0 701#05
(1763086496.307870) can0 382#0000000000000000
(1763086496.313889) can0 000A0003#FF26FFF010380000
(1763086496.314172) can0 000A0004#FFE3FFD4FF5D8E02
(1763086496.320294) can0 19A#00007D6E787C7D7E
(1763086496.321269) can0 29A#7E79817E82810000
(1763086496.321516) can0 482#0000000008340001
(1763086496.321752) can0 186#00004C1D090A0000
(1763086496.321984) can0 189#45029C01F101005B
(1763086496.322788) can0 080#
(1763086496.323882) can0 000A0003#FF26FFF010360000
(1763086496.324165) can0 000A0004#FFE2FFD5FF5F8E02
(1763086496.324417) can0 281#0000000000000000
(1763086496.324660) can0 286#0000580200000000
(1763086496.324899) can0 682#40471D0432040000
(1763086496.326871) can0 382#0000000000000000
(1763086496.326992) can0 701#05
(1763086496.330270) can0 188#0C00383200000000
(1763086496.331025) can0 288#1929142A00140000
(1763086496.332033) can0 388#2324252424000000
(1763086496.332268) can0 181#910132247F000009
(1763086496.332960) can0 191#969696969696
(1763086496.333884) can0 000A0003#FF26FFF010350000
(1763086496.334168) can0 000A0004#FFE2FFD5FF5F8E02
(1763086496.334362) can0 192#969696969696
(1763086496.334976) can0 193#969696969696
(1763086496.335988) can0 194#969696969696
(1763086496.336960) can0 195#969696969697
(1763086496.337964) can0 291#111111111111
(1763086496.338974) can0 292#111111111211
(1763086496.339984) can0 293#111211121212
(1763086496.340990) can0 294#121212121212
(1763086496.341963) can0 295#121212131313
(1763086496.343268) can0 482#0000000008340001
(1763086496.343879) can0 000A0003#FF25FFEF10350000
(1763086496.344164) can0 000A0004#FFE1FFD5FF5F8E02
(1763086496.348452) can0 701#05
(1763086496.348817) can0 382#0000000000000000
(1763086496.353880) can0 000A0003#FF24FFEF10370000
(1763086496.354168) can0 000A0004#FFE1FFD4FF608E02
(1763086496.359447) can0 4C4#04C004BE04B804BB
(1763086496.359671) can0 1A4#0000EB09000000
(1763086496.359907) can0 2A3#0F14141414120D09
(1763086496.360453) can0 4C5#04B704B604B704B4
(1763086496.361472) can0 4C6#04B804B804B904B4
(1763086496.361711) can0 186#00004C1D090B0000
(1763086496.362485) can0 4C7#04BC04B804B304B4
(1763086496.363517) can0 4C8#0496000000000000
(1763086496.363892) can0 000A0003#FF23FFF0103A0000
(1763086496.364180) can0 000A0004#FFDEFFD5FF608E02
(1763086496.365082) can0 482#0000000008340001
(1763086496.365321) can0 682#40471C0432040000
(1763086496.366811) can0 1A2#0000E70D000000
(1763086496.367045) can0 2A1#0D0D0E0E0E0E0C08
(1763086496.367811) can0 281#0000000000000000
(1763086496.370223) can0 701#05
(1763086496.370556) can0 382#0000000000000000
(1763086496.370796) can0 181#910132247F000009
(1763086496.372218) can0 1A3#4000A109000000
(1763086496.373886) can0 000A0003#FF21FFF2103C0000
(1763086496.374172) can0 000A0004#FFDEFFD5FF5F8E02
(1763086496.383539) can0 1A0#000000000000
(1763086496.383891) can0 000A0003#FF1FFFF510400000
(1763086496.384179) can0 000A0004#FFDFFFD2FF5F8E02
(1763086496.384897) can0 000A0000#0000000000000000
(1763086496.385196) can0 000A0001#0000000000000000
(1763086496.385496) can0 000A0002#0000000000000000
(1763086496.386822) can0 482#0000000008340001
(1763086496.392298) can0 382#0000000000000000
(1763086496.392522) can0 1A5#0000720D000000
(1763086496.392640) can0 701#05
(1763086496.393891) can0 000A0003#FF1DFFF610440000
(1763086496.394179) can0 000A0004#FFE0FFD1FF5F8E02
(1763086496.401622) can0 186#00004C1D090C0000
(1763086496.403900) can0 000A0003#FF1AFFF810480000
(1763086496.404184) can0 000A0004#FFDFFFD1FF5F8E02
(1763086496.406043) can0 682#40471C0432040000
(1763086496.408730) can0 181#910132247F000009
(1763086496.408979) can0 482#0000000008340001
(1763086496.409234) can0 281#0000000000000000
(1763086496.413894) can0 000A0003#FF17FFF910480000
(1763086496.414179) can0 000A0004#FFE0FFD1FF5F8E02
(1763086496.414296) can0 701#05
(1763086496.414548) can0 382#0000000000000000
(1763086496.421660) can0 189#46029E01EE01005B
(1763086496.421791) can0 080#
(1763086496.422942) can0 286#0000580200000000
(1763086496.423888) can0 000A0003#FF12FFFB10480000
(1763086496.424175) can0 000A0004#FFDFFFD2FF608E02
(1763086496.424616) can0 4C4#04C004BE04B804BB
(1763086496.425630) can0 4C5#04B204B604B304B4
(1763086496.426641) can0 4C6#04BC04B404B904B4
(1763086496.427656) can0 4C7#04BC04B804B304B4
(1763086496.428687) can0 4C8#0496000000000000
(1763086496.430274) can0 188#0C00D93100000000
(1763086496.430591) can0 482#0000000008340001
(1763086496.431030) can0 288#1929142A00140000
(1763086496.432010) can0 388#2324252424000000
(1763086496.432951) can0 191#969696969696
(1763086496.433896) can0 000A0003#FF0FFFFC10470000
(1763086496.434184) can0 000A0004#FFE0FFD2FF608E02
(1763086496.434378) can0 192#969696969696
(1763086496.434967) can0 193#969696969696
(1763086496.435738) can0 701#05
(1763086496.435961) can0 194#969696969696
(1763086496.436211) can0 382#0000000000000000
(1763086496.436969) can0 195#969696969697
(1763086496.437971) can0 291#111111111111
(1763086496.438981) can0 292#111111111211
(1763086496.439992) can0 293#111211121212
(1763086496.440951) can0 294#121212121212
(1763086496.441615) can0 186#00004C1D090D0000
(1763086496.441951) can0 295#121212131313
(1763086496.443891) can0 000A0003#FF0DFFFD10470000
(1763086496.444181) can0 000A0004#FFE0FFD3FF608E02
(1763086496.446878) can0 181#910132247F000009
(1763086496.447138) can0 682#40471C0432040000
(1763086496.452331) can0 482#0000000008340001
(1763086496.452587) can0 281#0000000000000000
(1763086496.453899) can0 000A0003#FF0DFFFF10470000
(1763086496.454187) can0 000A0004#FFE1FFD3FF608E02
(1763086496.457547) can0 701#05
(1763086496.457873) can0 382#0000000000000000
(1763086496.463897) can0 000A0003#FF0D000010480000
(1763086496.464181) can0 000A0004#FFE1FFD4FF5F8E02
(1763086496.466537) can0 1A4#0000EB09000000
(1763086496.466773) can0 2A3#0F14141414120D09
(1763086496.473319) can0 1A3#4000A109000000
(1763086496.473900) can0 000A0003#FF0E0001104A0000
(1763086496.474189) can0 000A0004#FFE1FFD4FF608E02
(1763086496.474437) can0 482#0000000008340001
(1763086496.474660) can0 1A2#0000E70D000000
(1763086496.474892) can0 2A1#0D0D0E0E0E0E0B08
(1763086496.476672) can0 701#05
(1763086496.479755) can0 382#0000000000000000
(1763086496.481611) can0 186#00004C1D090E0000
(1763086496.483539) can0 1A0#000000000000
(1763086496.483898) can0 000A0003#FF0F0001104C0000
(1763086496.484187) can0 000A0004#FFE1FFD3FF5F8E02
(1763086496.484910) can0 000A0000#0000000000000000
(1763086496.485210) can0 000A0001#0000000000000000
(1763086496.485507) can0 000A0002#0000000000000000
(1763086496.485745) can0 181#910132247F000009
(1763086496.487920) can0 682#40471C0432040000
(1763086496.489785) can0 4C4#04CD04BE04BE04B6
(1763086496.490797) can0 4C5#04B704BB04B304B8
(1763086496.491815) can0 4C6#04B804B404B004B4
(1763086496.492825) can0 4C7#04B704B304B304BA
(1763086496.493893) can0 000A0003#FF110001104D0000
(1763086496.494181) can0 000A0004#FFE1FFD3FF5F8E02
(1763086496.494429) can0 4C8#0496000000000000
(1763086496.494767) can0 1A5#0000720D000000
(1763086496.496021) can0 281#0000000000000000
(1763086496.496302) can0 482#0000000008340001
(1763086496.496423) can0 701#05
(1763086496.501497) can0 382#0000000000000000
(1763086496.503896) can0 000A0003#FF140001104F0000
(1763086496.504179) can0 000A0004#FFE1FFD6FF5F8E02
(1763086496.513905) can0 000A0003#FF15000010500000
(1763086496.514191) can0 000A0004#FFE2FFD7FF5F8E02
(1763086496.517835) can0 482#0000000008340001
(1763086496.517954) can0 701#05
(1763086496.520698) can0 382#0000000000000000
(1763086496.521645) can0 186#00004C1D090F0000
(1763086496.521941) can0 189#45029B01E901005B
(1763086496.522803) can0 080#
(1763086496.523406) can0 181#910132247F000009
(1763086496.523900) can0 000A0003#FF16FFFF10510000
(1763086496.524190) can0 000A0004#FFE2FFD7FF5F8E02
(1763086496.524433) can0 286#0000580200000000
(1763086496.526289) can0 19A#00007C727A7C7D7C
(1763086496.527294) can0 29A#7E68807E83820000
(1763086496.528860) can0 682#40471D0432040000
(1763086496.530279) can0 188#0C00B03100000000
(1763086496.531009) can0 288#1929142A00140000
(1763086496.532015) can0 388#2324252424000000
(1763086496.532974) can0 191#969696969696
(1763086496.533901) can0 000A0003#FF19000010520000
(1763086496.534191) can0 000A0004#FFE1FFD7FF608E02
(1763086496.534383) can0 192#969696969696
(1763086496.534989) can0 193#969696969696
(1763086496.535970) can0 194#969696969696
(1763086496.536975) can0 195#969696969697
(1763086496.537978) can0 291#111111111111
(1763086496.538988) can0 292#111111111211
(1763086496.539507) can0 701#05
(1763086496.539778) can0 281#0000000000000000
(1763086496.539968) can0 293#111211121212
(1763086496.540215) can0 482#0000000008340001
(1763086496.540973) can0 294#121212121212
(1763086496.541979) can0 295#121212131313
(1763086496.542488) can0 382#0000000000000000
(1763086496.543909) can0 000A0003#FF1C000010540000
(1763086496.544193) can0 000A0004#FFE1FFD7FF618E02
(1763086496.553919) can0 000A0003#FF1C000010530000
(1763086496.554200) can0 000A0004#FFE1FFD6FF618E02
(1763086496.554948) can0 4C4#04CD04BE04BE04B6
(1763086496.555960) can0 4C5#04B704BB04B304B8
(1763086496.556976) can0 4C6#04B804B404B004B4
(1763086496.557988) can0 4C7#04B704B304B304BA
(1763086496.559018) can0 4C8#0496000000000000
(1763086496.561513) can0 181#910132247F000009
(1763086496.561755) can0 186#00004C1D09000000
(1763086496.561869) can0 701#05
(1763086496.562148) can0 482#0000000008340001
(1763086496.563906) can0 000A0003#FF1C000010530000
(1763086496.564192) can0 000A0004#FFE0FFD6FF618E02
(1763086496.564440) can0 382#0000000000000000
(1763086496.569800) can0 682#40471C0432040000
(1763086496.573529) can0 1A4#0000EB09000000
(1763086496.573762) can0 2A3#0F14141414120D09
(1763086496.574053) can0 000A0003#FF1FFFFF10530000
(1763086496.574341) can0 000A0004#FFE0FFD6FF608E02
(1763086496.574559) can0 1A3#4000A109000000
(1763086496.582096) can0 1A2#0000E70D000000
(1763086496.582323) can0 2A1#0D0D0E0E0E0E0B08
(1763086496.583349) can0 482#0000000008340001
(1763086496.583561) can0 1A0#000000000000
(1763086496.583678) can0 701#05
(1763086496.583964) can0 000A0003#FF23FFFE10530000
(1763086496.584250) can0 000A0004#FFE1FFD6FF628E02
(1763086496.584503) can0 281#0000000000000000
(1763086496.584785) can0 382#0000000000000000
(1763086496.585083) can0 000A0000#0000000000000000
(1763086496.585384) can0 000A0001#0000000000000000
(1763086496.585681) can0 000A0002#0000000000000000
(1763086496.593911) can0 000A0003#FF23FFFE10510000
(1763086496.594197) can0 000A0004#FFE1FFD6FF638E02
(1763086496.597039) can0 1A5#0000720D000000
(1763086496.599809) can0 181#910132247F000009
(1763086496.601603) can0 186#00004C1D09010000
(1763086496.603906) can0 000A0003#FF23FFFF104F0000
(1763086496.604191) can0 000A0004#FFE2FFD7FF638E02
(1763086496.605188) can0 382#0000000000000000
(1763086496.605348) can0 701#05
(1763086496.605597) can0 482#0000000008340001
(1763086496.610748) can0 682#40471D0432040000
(1763086496.613908) can0 000A0003#FF23FFFF104F0000
(1763086496.614196) can0 000A0004#FFE1FFD7FF638E02
(1763086496.620118) can0 4C4#04BA04BE04B304BB
(1763086496.621128) can0 4C5#04B204BB04B704B8
(1763086496.621635) can0 189#45029C01E101005B
(1763086496.621809) can0 080#
(1763086496.622145) can0 4C6#04B804B804B404B4
(1763086496.622955) can0 286#0000580200000000
(1763086496.623186) can0 4C7#04B704B304B804B4
(1763086496.623911) can0 000A0003#FF220000104E0000
(1763086496.624195) can0 000A0004#FFE1FFD6FF5F8E02
(1763086496.624442) can0 4C8#0496000000000000
(1763086496.626844) can0 701#05
(1763086496.627124) can0 281#0000000000000000
(1763086496.627352) can0 482#0000000008340001
(1763086496.627605) can0 382#0000000000000000
(1763086496.630226) can0 188#0C00133200000000
(1763086496.630998) can0 288#1929142900140000
(1763086496.632006) can0 388#2324252424000000
(1763086496.632981) can0 191#969696969696
(1763086496.633913) can0 000A0003#FF210001104F0000
(1763086496.634203) can0 000A0004#FFE2FFD6FF5F8E02
(1763086496.634395) can0 192#969696969696
(1763086496.634967) can0 193#969696969696
(1763086496.635977) can0 194#969696969696
(1763086496.636983) can0 195#969696969697
(1763086496.638002) can0 181#910132247F000009
(1763086496.638192) can0 291#111111111111
(1763086496.638964) can0 292#111111111211
(1763086496.639972) can0 293#111211121212
(1763086496.640982) can0 294#121212121212
(1763086496.641600) can0 186#00004C1D09020000
(1763086496.641985) can0 295#121212131313
(1763086496.643916) can0 000A0003#FF21000310500000
(1763086496.644200) can0 000A0004#FFE2FFD6FF5F8E02
(1763086496.648846) can0 482#0000000008340001
(1763086496.648963) can0 701#05
(1763086496.649219) can0 382#0000000000000000
(1763086496.651685) can0 682#40471C0432040000
(1763086496.653918) can0 000A0003#FF20000410500000
(1763086496.654204) can0 000A0004#FFE2FFD6FF5F8E02
(1763086496.663916) can0 000A0003#FF1F000410500000
(1763086496.664199) can0 000A0004#FFE3FFD6FF5F8E02
(1763086496.670695) can0 382#0000000000000000
(1763086496.670852) can0 701#05
(1763086496.671124) can0 281#0000000000000000
(1763086496.671359) can0 482#0000000008340001
(1763086496.673909) can0 000A0003#FF1F0005104E0000
(1763086496.674195) can0 000A0004#FFE3FFD5FF608E02
(1763086496.675539) can0 1A3#4000A109000000
(1763086496.676156) can0 181#910132247F000009
(1763086496.680520) can0 1A4#0000EB09000000
(1763086496.680754) can0 2A3#1014141414120D09
(1763086496.681598) can0 186#00004C1D09030000
(1763086496.683542) can0 1A0#000000000000
(1763086496.683917) can0 000A0003#FF200005104C0000
(1763086496.684202) can0 000A0004#FFE4FFD4FF608E02
(1763086496.684926) can0 000A0000#0000000000000000
(1763086496.685224) can0 000A0001#0000000000000000
(1763086496.685522) can0 000A0002#0000000000000000
(1763086496.685758) can0 4C4#04BA04BE04B804B6
(1763086496.686300) can0 4C5#04B204B604B704B4
(1763086496.687311) can0 4C6#04B404B404B904B4
(1763086496.688327) can0 4C7#04B304B304B804B4
(1763086496.689359) can0 4C8#0496000000000000
(1763086496.689734) can0 1A2#0000E70D000000
(1763086496.689965) can0 2A1#0D0D0E0E0E0E0B08
(1763086496.692364) can0 701#05
(1763086496.692639) can0 482#0000000008340001
(1763086496.692875) can0 682#40471C0432040000
(1763086496.693164) can0 382#0000000000000000
(1763086496.693913) can0 000A0003#FF1E0004104B0000
(1763086496.694201) can0 000A0004#FFE4FFD5FF5F8E02
(1763086496.699312) can0 1A5#0000720D000000
(1763086496.703915) can0 000A0003#FF1D0004104A0000
(1763086496.704201) can0 000A0004#FFE4FFD4FF5F8E02
(1763086496.713927) can0 000A0003#FF1C000210490000
(1763086496.714213) can0 000A0004#FFE3FFD5FF5F8E02
(1763086496.714458) can0 482#0000000008340001
(1763086496.714578) can0 701#05
(1763086496.714828) can0 382#0000000000000000
(1763086496.715109) can0 181#910132247F000009
(1763086496.715337) can0 19A#00007F77777F8180
(1763086496.715589) can0 281#0000000000000000
(1763086496.716289) can0 29A#817F848083840000
(1763086496.721633) can0 186#00004C1D09040000
(1763086496.721957) can0 189#49029C01DE01005B
(1763086496.722761) can0 080#
(1763086496.723923) can0 000A0003#FF1B000010480000
(1763086496.724207) can0 000A0004#FFE3FFD5FF608E02
(1763086496.724451) can0 286#0000580200000000
(1763086496.730241) can0 188#0C00E63100000000
(1763086496.731030) can0 288#1929142A00140000
(1763086496.732035) can0 388#2324252424000000
(1763086496.732972) can0 191#969696969696
(1763086496.733571) can0 682#40471C0432040000
(1763086496.733917) can0 000A0003#FF1BFFFD10480000
(1763086496.734203) can0 000A0004#FFE3FFD4FF618E02
(1763086496.734397) can0 192#969696969696
(1763086496.734973) can0 193#969696969696
(1763086496.735981) can0 194#969696969696
(1763086496.736232) can0 382#0000000000000000
(1763086496.736358) can0 701#05
(1763086496.736608) can0 482#0000000008340001
(1763086496.736988) can0 195#969696969697
(1763086496.737962) can0 291#111111111111
(1763086496.738972) can0 292#111111111211
(1763086496.739978) can0 293#111211121212
(1763086496.740988) can0 294#121212121212
(1763086496.741991) can0 295#121212131313
(1763086496.743912) can0 000A0003#FF1CFFFB10470000
(1763086496.744200) can0 000A0004#FFE2FFD4FF608E02
(1763086496.750442) can0 4C4#04C004BE04B804B6
(1763086496.751456) can0 4C5#04B204B604B704B4
(1763086496.752470) can0 4C6#04B404B004B404B4
(1763086496.752707) can0 181#910132247F000009
(1763086496.753484) can0 4C7#04B304B804B304B4
(1763086496.753924) can0 000A0003#FF1CFFF910480000
(1763086496.754208) can0 000A0004#FFE2FFD4FF618E02
(1763086496.754516) can0 4C8#0496000000000000
(1763086496.757860) can0 701#05
(1763086496.758114) can0 281#0000000000000000
(1763086496.758365) can0 482#0000000008340001
(1763086496.758619) can0 382#0000000000000000
(1763086496.761593) can0 186#00004C1D09050000
(1763086496.763927) can0 000A0003#FF1CFFF8104A0000
(1763086496.764209) can0 000A0004#FFE2FFD0FF618E02
(1763086496.773927) can0 000A0003#FF1CFFF7104C0000
(1763086496.774210) can0 000A0004#FFE2FFD1FF628E02
(1763086496.774507) can0 682#40471C0432040000
(1763086496.776649) can0 1A3#4000A109000000
(1763086496.779858) can0 482#0000000008340001
(1763086496.779974) can0 701#05
(1763086496.780228) can0 382#0000000000000000
(1763086496.783544) can0 1A0#000000000000
(1763086496.783920) can0 000A0003#FF1CFFF6104E0000
(1763086496.784206) can0 000A0004#FFE3FFD1FF628E02
(1763086496.784936) can0 000A0000#0000000000000000
(1763086496.785235) can0 000A0001#0000000000000000
(1763086496.785533) can0 000A0002#0000000000000000
(1763086496.787528) can0 1A4#0000EB09000000
(1763086496.787762) can0 2A3#1014141414120D09
(1763086496.790783) can0 181#910132247F000009
(1763086496.793931) can0 000A0003#FF1CFFF410530000
(1763086496.794215) can0 000A0004#FFE2FFD1FF628E02
(1763086496.797386) can0 1A2#0000E70D000000
(1763086496.797616) can0 2A1#0D0D0E0E0E0E0B08
(1763086496.801588) can0 186#11004C1D09060000
(1763086496.801811) can0 1A5#0000720D000000
(1763086496.802061) can0 382#0000000000000000
(1763086496.802206) can0 701#05
(1763086496.802462) can0 281#0000000000000000
(1763086496.802713) can0 482#0000000008340001
(1763086496.803932) can0 000A0003#FF1DFFF110580000
(1763086496.804214) can0 000A0004#FFE3FFD2FF628E02
(1763086496.813932) can0 000A0003#FF1EFFF0105B0000
(1763086496.814217) can0 000A0004#FFE2FFD2FF628E02
(1763086496.815477) can0 682#40471D0432040000
(1763086496.815712) can0 4C4#04C004BE04B804B6
(1763086496.816614) can0 4C5#04B204BB04B704B4
(1763086496.817629) can0 4C6#04B404B404B404AF
(1763086496.818645) can0 4C7#04B304B304B804C0
(1763086496.819678) can0 4C8#0496000000000000
(1763086496.821629) can0 189#4D029D01DD01005B
(1763086496.821823) can0 080#
(1763086496.822945) can0 286#0000580200000000
(1763086496.823499) can0 701#05
(1763086496.823782) can0 482#0000000008360001
(1763086496.824072) can0 000A0003#FF1DFFF0105D0000
(1763086496.824358) can0 000A0004#FFE2FFD1FF618E02
(1763086496.824608) can0 382#0000000000000000
(1763086496.829110) can0 181#910332247F000009
(1763086496.830260) can0 188#0C00FB3000000000
(1763086496.831029) can0 288#1929142100140000
(1763086496.832038) can0 388#2324252424000000
(1763086496.832968) can0 191#969696969696
(1763086496.833931) can0 000A0003#FF1DFFEF105C0000
(1763086496.834218) can0 000A0004#FFE2FFD1FF618E02
(1763086496.834411) can0 192#969696969696
(1763086496.834984) can0 193#969696969696
(1763086496.835993) can0 194#969696969696
(1763086496.836968) can0 195#969696969697
(1763086496.837971) can0 291#111111111111
(1763086496.838982) can0 292#111111111211
(1763086496.839989) can0 293#111211121212
(1763086496.840998) can0 294#121212121212
(1763086496.841580) can0 186#11004C1D09070000
(1763086496.841970) can0 295#121212131313
(1763086496.843935) can0 000A0003#FF1EFFEE105A0000
(1763086496.844220) can0 000A0004#FFE2FFD1FF628E02
(1763086496.845387) can0 482#0000000008360001
(1763086496.845537) can0 701#05
(1763086496.845791) can0 382#0000000000000000
(1763086496.846048) can0 281#0000000000000000
(1763086496.853935) can0 000A0003#FF1FFFEE10590000
(1763086496.854220) can0 000A0004#FFE3FFD2FF638E02
(1763086496.856420) can0 682#40471D0432040000
(1763086496.863934) can0 000A0003#FF21FFEE10570000
(1763086496.864216) can0 000A0004#FFE2FFD2FF638E02
(1763086496.867424) can0 382#0000000000000000
(1763086496.867543) can0 701#05
(1763086496.867784) can0 181#910332247F000009
(1763086496.868136) can0 482#0000000008360001
(1763086496.873931) can0 000A0003#FF22FFEF10570000
(1763086496.874215) can0 000A0004#FFE3FFD1FF5F8E02
(1763086496.877758) can0 1A3#4000A109000000
(1763086496.880763) can0 4C4#04C004BE04B804B6
(1763086496.881578) can0 186#0C004C1D09080000
(1763086496.881807) can0 4C5#04B204BB04B704B4
(1763086496.882786) can0 4C6#04B404B404B404AF
(1763086496.883545) can0 1A0#000000000000
(1763086496.883802) can0 4C7#04B304B304B804C0
(1763086496.884094) can0 000A0003#FF22FFF010580000
(1763086496.884379) can0 000A0004#FFE3FFD1FF5E8E02
(1763086496.884833) can0 4C8#0496000000000000
(1763086496.885133) can0 000A0000#0000000000000000
(1763086496.885433) can0 000A0001#0000000000000000
(1763086496.885731) can0 000A0002#0000000000000000
(1763086496.886774) can0 701#05
(1763086496.887238) can0 382#02001F0004000000
(1763086496.887559) can0 281#0000000000000000
(1763086496.890184) can0 482#0000000008360001
(1763086496.893935) can0 000A0003#FF22FFF110590000
(1763086496.894218) can0 000A0004#FFE3FFD1FF5E8E02
(1763086496.894528) can0 1A4#0000EB09000000
(1763086496.894764) can0 2A3#1014141414120D09
(1763086496.898227) can0 682#40471C0432040E00
(1763086496.903871) can0 1A5#0000720D000000
(1763086496.904155) can0 000A0003#FF22FFF2105B0000
(1763086496.904441) can0 000A0004#FFE3FFD2FF5D8E02
(1763086496.905015) can0 1A2#0000E70D000000
(1763086496.905249) can0 2A1#0D0D0E0E0E0E0C08
(1763086496.906230) can0 181#910332247F000009
(1763086496.908834) can0 701#05
(1763086496.909275) can0 382#1500F9FF05000000
(1763086496.911661) can0 482#0000000008360001
(1763086496.913938) can0 000A0003#FF22FFF4105C0000
(1763086496.914226) can0 000A0004#FFDFFFD2FF5E8E02
(1763086496.921281) can0 19A#00007D5C617B807E
(1763086496.921645) can0 186#0C004C1D09090000
(1763086496.921945) can0 189#49029F01D901005B
(1763086496.922287) can0 29A#806A807D83830000
(1763086496.922808) can0 080#
(1763086496.923936) can0 000A0003#FF21FFF5105D0000
(1763086496.924219) can0 000A0004#FFDFFFD1FF5E8E02
(1763086496.924463) can0 286#0000580200000000
(1763086496.930254) can0 188#0C00833100000000
(1763086496.931038) can0 288#1929142A00140000
(1763086496.932016) can0 388#2324252424000000
(1763086496.932957) can0 191#969696969696
(1763086496.933167) can0 701#05
(1763086496.933610) can0 382#1D00D9FF05000000
(1763086496.933866) can0 281#0000000000000000
(1763086496.934154) can0 000A0003#FF20FFF7105D0000
(1763086496.934442) can0 000A0004#FFDFFFD2FF5E8E02
(1763086496.934636) can0 192#969696969696
(1763086496.934883) can0 482#0000000008360001
(1763086496.935075) can0 193#969696969696
(1763086496.935967) can0 194#969696969696
(1763086496.936976) can0 195#969696969697
(1763086496.937980) can0 291#111111111111
(1763086496.938988) can0 292#111111111211
(1763086496.939429) can0 682#40471C0432041C00
(1763086496.939996) can0 293#111211121212
(1763086496.940956) can0 294#121212121212
(1763086496.941960) can0 295#121212131313
(1763086496.943941) can0 000A0003#FF1EFFF8105C0000
(1763086496.944228) can0 000A0004#FFDFFFD2FF5E8E02
(1763086496.944537) can0 181#910332247F000009
(1763086496.945907) can0 4C4#04C004B904B804B6
(1763086496.946921) can0 4C5#04B704BB04AE04B4
(1763086496.947938) can0 4C6#04B804B804B904B4
(1763086496.948947) can0 4C7#04B704B304B304B4
(1763086496.949979) can0 4C8#0496000000000000
(1763086496.953941) can0 000A0003#FF1CFFF9105B0000
(1763086496.954225) can0 000A0004#FFE0FFD2FF5E8E02
(1763086496.955107) can0 701#05
(1763086496.955555) can0 482#0000000008360001
(1763086496.955821) can0 382#0500EBFF05000000
(1763086496.961571) can0 186#00004C1D090A0000
(1763086496.963947) can0 000A0003#FF1AFFFA105B0000
(1763086496.964231) can0 000A0004#FFDFFFD2FF5D8E02
(1763086496.973943) can0 000A0003#FF17FFFA105A0000
(1763086496.974229) can0 000A0004#FFE0FFD2FF5C8E02
(1763086496.974482) can0 281#0000000000000000
(1763086496.977062) can0 701#05
(1763086496.977431) can0 482#0000000008360001
(1763086496.977765) can0 382#0A00D6FF00000000
(1763086496.978859) can0 1A3#4000A109000000
(1763086496.980118) can0 682#40471D0432042500
(1763086496.982652) can0 181#910332247F000009
(1763086496.983548) can0 1A0#000000000000
(1763086496.983944) can0 000A0003#FF14FFF810580000
(1763086496.984228) can0 000A0004#FFE1FFD1FF5C8E02
(1763086496.984952) can0 000A0000#0000000000000000
(1763086496.985252) can0 000A0001#0000000000000000
(1763086496.985551) can0 000A0002#0000000000000000
(1763086496.993947) can0 000A0003#FF11FFF810570000
(1763086496.994231) can0 000A0004#FFE1FFD2FF608E02
(1763086496.999005) can0 382#EAFF070000000000
(1763086496.999129) can0 701#05
(1763086496.999480) can0 482#0000000008360001
(1763086497.001521) can0 1A4#0000EB09000000
(1763086497.001760) can0 186#00004C1D090B0000
(1763086497.001996) can0 2A3#1014141414120D09
(1763086497.003951) can0 000A0003#FF0FFFF810550000
(1763086497.004235) can0 000A0004#FFE1FFD6FF5F8E02
(1763086497.006130) can0 1A5#0000720D000000
(1763086497.011059) can0 4C4#04C004B904B804B6
(1763086497.012071) can0 4C5#04B704BB04AE04B4
(1763086497.012643) can0 1A2#0000E70D000000
(1763086497.012877) can0 2A1#0D0D0E0E0E0E0C08
(1763086497.013110) can0 4C6#04B804B804B904B4
(1763086497.013943) can0 000A0003#FF0DFFF710520000
(1763086497.014229) can0 000A0004#FFE1FFD6FF5F8E02
(1763086497.014461) can0 4C7#04B704B304B304AF
(1763086497.015131) can0 4C8#0496000000000000
(1763086497.018229) can0 281#0000000000000000
(1763086497.018349) can0 701#05
(1763086497.018690) can0 382#D5FF0D0000000000
(1763086497.020951) can0 482#0000000008360001
(1763086497.021516) can0 682#40471D0432042B00
(1763086497.021750) can0 189#3702A301D0010059
(1763086497.021857) can0 080#
(1763086497.022961) can0 286#0000580200000000
(1763086497.023814) can0 181#910332247F000009
(1763086497.024100) can0 000A0003#FF0CFFF610500000
(1763086497.024388) can0 000A0004#FFE2FFD7FF608E02
(1763086497.030259) can0 188#0C009E3100000000
(1763086497.031012) can0 288#1629142A00140000
(1763086497.032024) can0 388#2324252424000000
(1763086497.032982) can0 191#969696969696
(1763086497.033946) can0 000A0003#FF0BFFF5104E0000
(1763086497.034233) can0 000A0004#FFE2FFD7FF608E02
(1763086497.034428) can0 192#969696969696
(1763086497.034998) can0 193#969696969696
(1763086497.035975) can0 194#969696969696
(1763086497.036982) can0 195#969696969697
(1763086497.037986) can0 291#111111111111
(1763086497.038994) can0 292#111111111211
(1763086497.039973) can0 293#111211121212
(1763086497.040980) can0 294#121212121212
(1763086497.041566) can0 186#00004C1D090C0000
(1763086497.041984) can0 295#121212131313
(1763086497.042821) can0 482#0000000008340001
(1763086497.042989) can0 701#05
(1763086497.043266) can0 382#0000000000000000
(1763086497.043949) can0 000A0003#FF0BFFF6104B0000
(1763086497.044237) can0 000A0004#FFE2FFD7FF608E02
(1763086497.053955) can0 000A0003#FF0AFFF610490000
(1763086497.054238) can0 000A0004#FFE3FFD6FF618E02
(1763086497.061794) can0 181#910132247F000009
(1763086497.062119) can0 281#0000000000000000
(1763086497.062354) can0 682#40471C0432042F00
(1763086497.063994) can0 000A0003#FF09FFF6104A0000
(1763086497.064247) can0 000A0004#FFE3FFD6FF618E02
(1763086497.064417) can0 701#05
(1763086497.064867) can0 382#0800DFFF00000000
(1763086497.067245) can0 482#0000000008340001
(1763086497.073952) can0 000A0003#FF08FFF6104A0000
(1763086497.074236) can0 000A0004#FFE2FFD5FF618E02
(1763086497.076210) can0 4C4#04C704B904B804BB
(1763086497.077225) can0 4C5#04BB04BB04B304B4
(1763086497.078241) can0 4C6#04B404BC04BD04B4
(1763086497.079254) can0 4C7#04B704AF04B304B4
(1763086497.079967) can0 1A3#4000A109000000
(1763086497.080287) can0 4C8#0496000000000000
(1763086497.081563) can0 186#46004C1D090D0000
(1763086497.083550) can0 1A0#000000000000
(1763086497.083956) can0 000A0003#FF07FFF610480000
(1763086497.084239) can0 000A0004#FFE3FFD6FF638E02
(1763086497.084966) can0 000A0000#0000000000000000
(1763086497.085266) can0 000A0001#0000000000000000
(1763086497.085564) can0 000A0002#0000000000000000
(1763086497.086104) can0 701#05
(1763086497.086599) can0 382#EDFFFDFF00000000
(1763086497.089215) can0 482#0000000008360001
(1763086497.093953) can0 000A0003#FF05FFF610460000
(1763086497.094236) can0 000A0004#FFE3FFD5FF638E02
(1763086497.100115) can0 181#910332247F000009
(1763086497.102855) can0 682#40471C0432043200
(1763086497.103958) can0 000A0003#FF02FFF810460000
(1763086497.104242) can0 000A0004#FFE4FFD6FF648E02
(1763086497.105473) can0 281#0000000000000000
(1763086497.105666) can0 701#05
(1763086497.108199) can0 382#1500F9FF1B000000
(1763086497.108424) can0 1A5#0000720D000000
(1763086497.108650) can0 1A4#0000EB09000000
(1763086497.108886) can0 2A3#1014141414120D0A
(1763086497.111039) can0 482#0000000008360001
(1763086497.113961) can0 000A0003#FF00FFF910460000
(1763086497.114245) can0 000A0004#FFE4FFD6FF658E02
(1763086497.120271) can0 1A2#0000E70D000000
(1763086497.120501) can0 2A1#0D0D0E0E0E0E0B08
(1763086497.121591) can0 186#9E004C1D090E0000
(1763086497.121961) can0 189#5E029E01C1010059
(1763086497.122824) can0 080#
(1763086497.123960) can0 000A0003#FEFFFFFA10480000
(1763086497.124245) can0 000A0004#FFE5FFD5FF648E02
(1763086497.124489) can0 286#0000580200000000
(1763086497.127276) can0 19A#00007C595A7C7C7C
(1763086497.128281) can0 29A#7D55807D80810000
(1763086497.130029) can0 382#170022003D000000
(1763086497.130217) can0 701#05
(1763086497.132980) can0 482#0000000008360001
(1763086497.133949) can0 000A0003#FEFEFFFB104B0000
(1763086497.134235) can0 000A0004#FFE5FFD5FF648E02
(1763086497.138228) can0 181#D10332247F000009
(1763086497.139301) can0 188#0C00E63100000000
(1763086497.140006) can0 288#1629141D00140000
(1763086497.141015) can0 388#2324252424000000
(1763086497.141364) can0 4C4#04C004B804B304B6
(1763086497.141993) can0 191#969696969696
(1763086497.142375) can0 4C5#04BB04B604B304B4
(1763086497.142974) can0 192#969696969696
(1763086497.143393) can0 4C6#04B804B404B404AF
(1763086497.143904) can0 682#40471C0432043300
(1763086497.144195) can0 000A0003#FEFFFFFC104D0000
(1763086497.144480) can0 000A0004#FFE1FFD4FF648E02
(1763086497.144672) can0 193#969696969696
(1763086497.144902) can0 4C7#04B704B304B304B4
(1763086497.145094) can0 194#969696969696
(1763086497.145436) can0 4C8#0496000000000000
(1763086497.145992) can0 195#969696969697
(1763086497.146996) can0 291#111111111111
(1763086497.147975) can0 292#111111111211
(1763086497.148982) can0 293#111211121212
(1763086497.149259) can0 281#0000000001000000
(1763086497.149991) can0 294#121212121212
(1763086497.150993) can0 295#121212131313
(1763086497.151747) can0 701#05
(1763086497.152190) can0 382#460001003D000000
(1763086497.153962) can0 000A0003#FEFFFFFD10500000
(1763086497.154248) can0 000A0004#FFE1FFD3FF648E02
(1763086497.154711) can0 482#0000000008360001
(1763086497.161551) can0 186#AA004C1D090F0000
(1763086497.163962) can0 000A0003#FEFDFFFF10520000
(1763086497.164244) can0 000A0004#FFE2FFD1FF648E02
(1763086497.173352) can0 701#05
(1763086497.173811) can0 382#1E00020042000000
(1763086497.174103) can0 000A0003#FEFC000010530000
(1763086497.174387) can0 000A0004#FFE2FFD1FF648E02
(1763086497.174634) can0 482#0000010008360001
(1763086497.179173) can0 181#D10332247F000009
(1763086497.181073) can0 1A3#4000A109000000
(1763086497.183548) can0 1A0#000000000000
(1763086497.183971) can0 000A0003#FEFC000110530000
(1763086497.184257) can0 000A0004#FFE2FFD0FF608E02
(1763086497.184814) can0 682#40471D0432043500
(1763086497.185114) can0 000A0000#0000000000000000
(1763086497.185414) can0 000A0001#0000000000000000
(1763086497.185712) can0 000A0002#0000000000000000
(1763086497.192797) can0 281#0000000001000000
(1763086497.192918) can0 701#05
(1763086497.193959) can0 000A0003#FEFD000210530000
(1763086497.194246) can0 000A0004#FFE3FFD0FF608E02
(1763086497.195514) can0 382#4000EFFF42000000
(1763086497.198250) can0 482#0000010008360001
(1763086497.201548) can0 186#A4004C1D09000000
(1763086497.203967) can0 000A0003#FEFBFFFE10510000
(1763086497.204250) can0 000A0004#FFE3FFD0FF5F8E02
(1763086497.206524) can0 4C4#04C004B804B304B6
(1763086497.207538) can0 4C5#04BB04B604B304B4
(1763086497.208551) can0 4C6#04B804B404B404AF
(1763086497.209565) can0 4C7#04B704B304B304B4
(1763086497.210597) can0 4C8#0496000000000000
(1763086497.210823) can0 1A5#0000720D000000
(1763086497.213971) can0 000A0003#FEFAFFFA10500000
(1763086497.214255) can0 000A0004#FFE2FFD1FF5F8E02
(1763086497.214371) can0 701#05
(1763086497.214754) can0 382#2A00F6FF40000000
(1763086497.215492) can0 1A4#0000EB09000000
(1763086497.215726) can0 2A3#1014141414120D0A
(1763086497.220112) can0 181#D10332247F000009
(1763086497.220453) can0 482#0000010008360001
(1763086497.221589) can0 189#5E029E01B9010059
(1763086497.221825) can0 080#
(1763086497.222976) can0 286#0000580200000000
(1763086497.223975) can0 000A0003#FEFBFFF810510000
(1763086497.224259) can0 000A0004#FFE2FFD1FF5F8E02
(1763086497.225787) can0 682#40471C0432043500
(1763086497.227887) can0 1A2#0000E70D000000
(1763086497.228117) can0 2A1#0D0D0E0E0E0E0B08
(1763086497.230269) can0 188#0C00D43100000000
(1763086497.231027) can0 288#1629142A00140000
(1763086497.232040) can0 388#2324252424000000
(1763086497.232997) can0 191#969696969696
(1763086497.233965) can0 000A0003#FEFCFFF510530000
(1763086497.234254) can0 000A0004#FFE3FFD1FF608E02
(1763086497.234448) can0 192#969696969696
(1763086497.234982) can0 193#969696969696
(1763086497.235992) can0 194#969696969696
(1763086497.236495) can0 382#3700F4FF40000000
(1763086497.236663) can0 701#05
(1763086497.236919) can0 281#0000000001000000
(1763086497.237112) can0 195#969696969697
(1763086497.237969) can0 291#111111111111
(1763086497.238980) can0 292#111111111211
(1763086497.239439) can0 482#0000010008360001
(1763086497.239984) can0 293#111111121212
(1763086497.240992) can0 294#121212121212
(1763086497.241542) can0 186#92004C1D09010000
(1763086497.241995) can0 295#121212131313
(1763086497.243968) can0 000A0003#FF00FFF510550000
(1763086497.244259) can0 000A0004#FFE3FFD1FF608E02
(1763086497.254022) can0 000A0003#FF03FFF510560000
(1763086497.254259) can0 000A0004#FFE2FFD1FF618E02
(1763086497.258335) can0 181#D10332247F000009
(1763086497.258501) can0 701#05
(1763086497.258858) can0 382#1400240038000000
(1763086497.261157) can0 482#0000000008360001
(1763086497.263966) can0 000A0003#FF04FFF510590000
(1763086497.264253) can0 000A0004#FFE2FFD1FF618E02
(1763086497.266617) can0 682#40471C0432043600
(1763086497.271680) can0 4C4#04C004C404BE04B6
(1763086497.272689) can0 4C5#04B704BB04B704B4
(1763086497.273707) can0 4C6#04B404B004B904B4
(1763086497.273996) can0 000A0003#FF05FFF5105C0000
(1763086497.274280) can0 000A0004#FFE3FFD0FF618E02
(1763086497.274719) can0 4C7#04B704B804AE04B4
(1763086497.275749) can0 4C8#0496000000000000
(1763086497.279798) can0 701#05
(1763086497.280253) can0 382#5800F1FF38000000
(1763086497.280596) can0 281#0000000001000000
(1763086497.280915) can0 482#0000000008360001
(1763086497.281541) can0 186#8C004C1D09020000
(1763086497.282177) can0 1A3#4000A109000000
(1763086497.283551) can0 1A0#000000000000
(1763086497.283977) can0 000A0003#FF05FFF410580000
(1763086497.284264) can0 000A0004#FFE3FFD0FF618E02
(1763086497.284978) can0 000A0000#0000000000000000
(1763086497.285278) can0 000A0001#0000000000000000
(1763086497.285576) can0 000A0002#0000000000000000
(1763086497.293970) can0 000A0003#FF06FFF310560000
(1763086497.294259) can0 000A0004#FFE4FFD0FF618E02
(1763086497.296634) can0 181#D10332247F000009
(1763086497.299247) can0 701#05
(1763086497.301964) can0 382#1B00240037000000
(1763086497.303975) can0 000A0003#FF06FFF110550000
(1763086497.304261) can0 000A0004#FFE4FFD0FF618E02
(1763086497.304694) can0 482#0000000008360001
(1763086497.307869) can0 682#40471C0432043600
(1763086497.312930) can0 1A5#0000720D000000
(1763086497.313983) can0 000A0003#FF07FFF010550000
(1763086497.314268) can0 000A0004#FFE4FFCFFF618E02
(1763086497.316298) can0 19A#0000858F927F8684
(1763086497.317276) can0 29A#8092867F86850000
(1763086497.320743) can0 701#05
(1763086497.321197) can0 382#5200EEFF37000000
(1763086497.321573) can0 186#98004C1D09030000
(1763086497.321981) can0 189#5D029D019C010059
(1763086497.322467) can0 1A4#0000EB09000000
(1763086497.322704) can0 2A3#0F14141414120D0A
(1763086497.322811) can0 080#
(1763086497.323988) can0 000A0003#FF08FFF210560000
(1763086497.324261) can0 000A0004#FFE4FFCFFF618E02
(1763086497.324504) can0 286#0000580200000000
(1763086497.326754) can0 281#0000000001000000
(1763086497.327004) can0 482#0000000008360001
(1763086497.330257) can0 188#0C00B93100000000
(1763086497.331018) can0 288#1629142A00140000
(1763086497.332027) can0 388#2324252424000000
(1763086497.332956) can0 191#969696969696
(1763086497.333983) can0 000A0003#FF09FFF410560000
(1763086497.334269) can0 000A0004#FFE4FFCFFF618E02
(1763086497.334462) can0 192#969696969696
(1763086497.334833) can0 181#D10332247F000009
(1763086497.335025) can0 193#969696969696
(1763086497.335493) can0 1A2#0000E70D000000
(1763086497.335725) can0 2A1#0D0D0E0E0E0E0B08
(1763086497.335995) can0 194#969696969696
(1763086497.336847) can0 4C4#04C004C404BE04B6
(1763086497.337039) can0 195#969696969697
(1763086497.337857) can0 4C5#04B704BB04B704B4
(1763086497.338047) can0 291#111111111111
(1763086497.338875) can0 4C6#04B404B004B904B4
(1763086497.339067) can0 292#111111111211
(1763086497.339888) can0 4C7#04B704B804AE04B4
(1763086497.340081) can0 293#111111121212
(1763086497.340918) can0 4C8#0496000000000000
(1763086497.341113) can0 294#121212121212
(1763086497.341956) can0 295#121212131313
(1763086497.342655) can0 701#05
(1763086497.343027) can0 382#1C0008003B000000
(1763086497.343971) can0 000A0003#FF09FFF610540000
(1763086497.344258) can0 000A0004#FFE5FFCFFF618E02
(1763086497.351233) can0 482#0000000008360001
(1763086497.351559) can0 682#40471D0432043700
(1763086497.353983) can0 000A0003#FF09FFF810500000
(1763086497.354270) can0 000A0004#FFE4FFCFFF618E02
(1763086497.361536) can0 186#92004C1D09040000
(1763086497.361886) can0 701#05
(1763086497.362271) can0 382#2200FFFF3B000000
(1763086497.363977) can0 000A0003#FF09FFFA104E0000
(1763086497.364260) can0 000A0004#FFE4FFCEFF618E02
(1763086497.372943) can0 181#D10332247F000009
(1763086497.373267) can0 281#0000000001000000
(1763086497.373517) can0 482#0000000008360001
(1763086497.373981) can0 000A0003#FF08FFFD104B0000
(1763086497.374266) can0 000A0004#FFE4FFCEFF618E02
(1763086497.383298) can0 1A3#4000A109000000
(1763086497.383550) can0 1A0#000000000000
(1763086497.383867) can0 382#1B00310038000000
(1763086497.384159) can0 000A0003#FF09FFFF10480000
(1763086497.384445) can0 000A0004#FFE4FFCDFF618E02
(1763086497.384561) can0 701#05
(1763086497.385003) can0 000A0000#0000000000000000
(1763086497.385302) can0 000A0001#0000000000000000
(1763086497.385601) can0 000A0002#0000000000000000
(1763086497.392251) can0 682#40471C0432043700
(1763086497.393982) can0 000A0003#FF09FFFF10450000
(1763086497.394266) can0 000A0004#FFE4FFCDFF628E02
(1763086497.394991) can0 482#0500000008360001
(1763086497.401538) can0 186#98004C1D09050000
(1763086497.402000) can0 4C4#04C004B904B304B6
(1763086497.402828) can0 701#05
(1763086497.403058) can0 4C5#04B204BB04B304BC
(1763086497.403305) can0 382#1300290038000000
(1763086497.403976) can0 000A0003#FF09000010460000
(1763086497.404260) can0 000A0004#FFE8FFCEFF628E02
(1763086497.404490) can0 4C6#04B804B404B404B4
(1763086497.405042) can0 4C7#04B704AF04AE04AF
(1763086497.406072) can0 4C8#0496000000000000
(1763086497.411261) can0 181#D10332247F000009
(1763086497.413983) can0 000A0003#FF08000110460000
(1763086497.414266) can0 000A0004#FFE8FFCEFF628E02
(1763086497.415201) can0 1A5#0000720D000000
(1763086497.416622) can0 281#0700000001000000
(1763086497.416942) can0 482#0700000008360001
(1763086497.421570) can0 189#5E029F0179010059
(1763086497.421810) can0 080#
(1763086497.422962) can0 286#0000580200000000
(1763086497.423986) can0 000A0003#FF06000110460000
(1763086497.424268) can0 000A0004#FFE8FFCEFF628E02
(1763086497.424781) can0 701#05
(1763086497.425252) can0 382#740009003B000000
(1763086497.429449) can0 1A4#0000EB09000000
(1763086497.429680) can0 2A3#0F14141413120D0A
(1763086497.430284) can0 188#0C00313100000000
(1763086497.431044) can0 288#1729142A00140000
(1763086497.432020) can0 388#2324252424000000
(1763086497.432980) can0 191#969696969696
(1763086497.433217) can0 682#3F471C0432043700
(1763086497.433990) can0 000A0003#FF03FFFF10440000
(1763086497.434276) can0 000A0004#FFE8FFCFFF628E02
(1763086497.434470) can0 192#969696969696
(1763086497.434996) can0 193#969696969696
(1763086497.435975) can0 194#969696969696
(1763086497.436981) can0 195#969696969697
(1763086497.437984) can0 291#111111111111
(1763086497.438559) can0 482#0700000008360001
(1763086497.438993) can0 292#111111111211
(1763086497.440003) can0 293#111211121212
(1763086497.440979) can0 294#121212121212
(1763086497.441525) can0 186#92004C1D09060000
(1763086497.441981) can0 295#121212131313
(1763086497.443122) can0 1A2#0000E70D000000
(1763086497.443339) can0 2A1#0D0D0E0E0E0E0B08
(1763086497.443983) can0 000A0003#FF03FFFD10450000
(1763086497.444269) can0 000A0004#FFE7FFD0FF618E02
(1763086497.446381) can0 701#05
(1763086497.446874) can0 382#410010003B000000
(1763086497.452198) can0 181#D10332247F000009
(1763086497.453990) can0 000A0003#FF02FFFA10460000
(1763086497.454276) can0 000A0004#FFE6FFD0FF628E02
(1763086497.460265) can0 482#0600000008360001
(1763086497.460615) can0 281#0600000001000000
(1763086497.463991) can0 000A0003#FF02FFF810450000
(1763086497.464277) can0 000A0004#FFE6FFCFFF628E02
(1763086497.467172) can0 4C4#04C004BE04B804BB
(1763086497.468183) can0 4C5#04BB04BB04B704AF
(1763086497.468299) can0 701#05
(1763086497.468597) can0 382#3300DEFF38000000
(1763086497.469194) can0 4C6#04B804B404B904B4
(1763086497.470211) can0 4C7#04B704B304AE04B4
(1763086497.471246) can0 4C8#0496000000000000
(1763086497.473991) can0 000A0003#FF01FFF610430000
(1763086497.474275) can0 000A0004#FFEAFFD0FF628E02
(1763086497.474511) can0 682#3F471C0432043700
(1763086497.481529) can0 186#9E004C1D09070000
(1763086497.482364) can0 482#0200000008360001
(1763086497.483553) can0 1A0#000000000000
(1763086497.483994) can0 000A0003#FF00FFF510420000
(1763086497.484282) can0 000A0004#FFEBFFD0FF5E8E02
(1763086497.484499) can0 1A3#4000A109000000
(1763086497.485000) can0 000A0000#0000000000000000
(1763086497.485300) can0 000A0001#0000000000000000
(1763086497.485599) can0 000A0002#0000000000000000
(1763086497.490293) can0 382#320008003D000000
(1763086497.490409) can0 701#05
(1763086497.490651) can0 181#D10332247F000009
(1763086497.493993) can0 000A0003#FEFEFFF410430000
(1763086497.494287) can0 000A0004#FFEBFFD1FF5F8E02
(1763086497.503951) can0 281#0000000001000000
(1763086497.504228) can0 000A0003#FEFFFFF510450000
(1763086497.504516) can0 000A0004#FFEBFFD0FF5F8E02
(1763086497.504762) can0 482#0000000008360001
(1763086497.512031) can0 701#05
(1763086497.513991) can0 000A0003#FF01FFF610450000
(1763086497.514278) can0 000A0004#FFEAFFD0FF608E02
(1763086497.514862) can0 382#5500F4FF3D000000
(1763086497.515334) can0 682#3F471C0432043700
(1763086497.517489) can0 1A5#0000720D000000
(1763086497.521555) can0 186#9E004C1D09080000
(1763086497.521964) can0 189#5E029F017A010059
(1763086497.522292) can0 19A#00007C5D657B7D7C
(1763086497.522824) can0 080#
(1763086497.523301) can0 29A#7D5B807D81800000
(1763086497.523548) can0 482#0000000008360001
(1763086497.523998) can0 000A0003#FF04FFF710470000
(1763086497.524287) can0 000A0004#FFEAFFD0FF618E02
(1763086497.524531) can0 286#0000580200000000
(1763086497.528511) can0 181#D10332247F000009
(1763086497.530242) can0 188#0C00D43100000000
(1763086497.531170) can0 288#1729142A00140000
(1763086497.532025) can0 388#2324252424000000
(1763086497.532335) can0 4C4#04C004BE04B804BB
(1763086497.532985) can0 191#969696969696
(1763086497.533345) can0 4C5#04BB04BB04B704AF
(1763086497.533734) can0 701#05
(1763086497.534025) can0 000A0003#FF08FFF810490000
(1763086497.534308) can0 000A0004#FFE9FFD1FF618E02
(1763086497.534502) can0 192#969696969696
(1763086497.534732) can0 4C6#04B804B404B904B4
(1763086497.535004) can0 193#969696969696
(1763086497.535376) can0 4C7#04B704B304AE04B4
(1763086497.535960) can0 194#969696969696
(1763086497.536405) can0 4C8#0496000000000000
(1763086497.536632) can0 1A4#0000EB09000000
(1763086497.536863) can0 2A3#0F14141413120D09
(1763086497.537054) can0 195#969696969697
(1763086497.537301) can0 382#4A0017003D000000
(1763086497.537973) can0 291#111111111111
(1763086497.538999) can0 292#111111111211
(1763086497.539977) can0 293#111211121212
(1763086497.540983) can0 294#121212121212
(1763086497.541989) can0 295#121212131313
(1763086497.543993) can0 000A0003#FF0AFFF9104C0000
(1763086497.544275) can0 000A0004#FFE9FFCDFF618E02
(1763086497.547632) can0 281#0000000001000000
(1763086497.547945) can0 482#0000000008360001
(1763086497.550750) can0 1A2#0000E70D000000
(1763086497.550982) can0 2A1#0D0D0E0E0E0E0B08
(1763086497.553996) can0 000A0003#FF0BFFFA104E0000
(1763086497.554282) can0 000A0004#FFE9FFCDFF618E02
(1763086497.555448) can0 701#05
(1763086497.558538) can0 682#3F471C0432043700
(1763086497.558789) can0 382#10001A003D000000
(1763086497.561515) can0 186#92004C1D09090000
(1763086497.564004) can0 000A0003#FF0DFFFB10510000
(1763086497.564281) can0 000A0004#FFE9FFCDFF618E02
(1763086497.566832) can0 181#D10332247F000009
(1763086497.569796) can0 482#0000000008360001
(1763086497.573996) can0 000A0003#FF0FFFFA10530000
(1763086497.574279) can0 000A0004#FFE8FFCDFF618E02
(1763086497.574571) can0 701#05
(1763086497.577784) can0 382#1D00010038000000
(1763086497.583552) can0 1A0#000000000000
(1763086497.583989) can0 000A0003#FF11FFFA10540000
(1763086497.584273) can0 000A0004#FFE7FFCEFF618E02
(1763086497.585011) can0 000A0000#0000000000000000
(1763086497.585309) can0 000A0001#0000000000000000
(1763086497.585607) can0 000A0002#0000000000000000
(1763086497.585825) can0 1A3#4000A109000000
(1763086497.591201) can0 482#0000000008360001
(1763086497.591639) can0 281#0000000001000000
(1763086497.593994) can0 000A0003#FF14FFFA10540000
(1763086497.594277) can0 000A0004#FFE6FFCEFF618E02
(1763086497.596415) can0 701#05
(1763086497.597496) can0 4C4#04C604B904B804B6
(1763086497.598514) can0 4C5#04B204B604AE04B4
(1763086497.599527) can0 4C6#04B804B804B004B4
(1763086497.599809) can0 682#3F471C0432043700
(1763086497.600059) can0 382#2A000D0038000000
(1763086497.600541) can0 4C7#04B304B804B304BA
(1763086497.601509) can0 186#8C004C1D090A0000
(1763086497.601757) can0 4C8#0496000000000000
(1763086497.603997) can0 000A0003#FF18FFFB10560000
(1763086497.604279) can0 000A0004#FFE6FFCEFF658E02
(1763086497.604946) can0 181#D10332247F000009
(1763086497.610744) can0 482#0000000008360001
(1763086497.614002) can0 000A0003#FF1CFFFC105A0000
(1763086497.614285) can0 000A0004#FFE7FFCEFF658E02
(1763086497.618465) can0 701#05
(1763086497.619771) can0 1A5#0000720D000000
(1763086497.621311) can0 382#5C00E0FF37000000
(1763086497.621563) can0 189#5D029F0171010059
(1763086497.621825) can0 080#
(1763086497.622977) can0 286#0000580200000000
(1763086497.624001) can0 000A0003#FF1FFFFD105B0000
(1763086497.624284) can0 000A0004#FFE6FFCEFF658E02
(1763086497.630241) can0 188#0C00283100000000
(1763086497.631024) can0 288#1629142A00140000
(1763086497.632034) can0 388#2324252424000000
(1763086497.632993) can0 191#969696969696
(1763086497.634003) can0 000A0003#FF20FFFE105D0000
(1763086497.634292) can0 000A0004#FFE6FFCFFF648E02
(1763086497.634485) can0 192#969696969696
(1763086497.634970) can0 281#0000000001000000
(1763086497.635163) can0 193#969696969696
(1763086497.635407) can0 482#0000000008360001
(1763086497.635983) can0 194#969696969696
(1763086497.636990) can0 195#969696969697
(1763086497.637993) can0 291#111111111111
(1763086497.638973) can0 292#111111111211
(1763086497.639985) can0 293#111211121212
(1763086497.640099) can0 701#05
(1763086497.640527) can0 682#40471C0432043700
(1763086497.640993) can0 294#121212121212
(1763086497.641503) can0 186#8C004C1D090B0000
(1763086497.641995) can0 295#121212131313
(1763086497.643279) can0 181#D10332247F000009
(1763086497.643504) can0 1A4#0000EB09000000
(1763086497.643735) can0 2A3#0F14141413120D09
(1763086497.644025) can0 000A0003#FF21FFFE105F0000
(1763086497.644311) can0 000A0004#FFE5FFD0FF648E02
(1763086497.644557) can0 382#6000F7FF37000000
(1763086497.654010) can0 000A0003#FF24FFFF105F0000
(1763086497.654294) can0 000A0004#FFE5FFD0FF648E02
(1763086497.656782) can0 482#0000000008360001
(1763086497.658401) can0 1A2#0000E70D000000
(1763086497.658631) can0 2A1#0D0D0E0E0E0E0B08
(1763086497.659636) can0 701#05
(1763086497.662666) can0 4C4#04C604B904B804B6
(1763086497.663687) can0 4C5#04B204B604AE04B4
(1763086497.664010) can0 000A0003#FF25FFFF10600000
(1763086497.664294) can0 000A0004#FFE4FFD0FF648E02
(1763086497.664694) can0 4C6#04B804B804B004B4
(1763086497.665084) can0 382#3800F4FF37000000
(1763086497.665710) can0 4C7#04B304B804B304BA
(1763086497.666741) can0 4C8#0496000000000000
(1763086497.674005) can0 000A0003#FF28000010640000
(1763086497.674290) can0 000A0004#FFE5FFD0FF648E02
(1763086497.678635) can0 281#0000000001000000
(1763086497.678954) can0 482#0000000008360001
(1763086497.681504) can0 186#B0004C1D090C0000
(1763086497.683556) can0 1A0#000000000000
(1763086497.684006) can0 000A0003#FF2A000110670000
(1763086497.684292) can0 000A0004#FFE5FFCFFF648E02
(1763086497.684530) can0 181#D10332247F000009
(1763086497.684652) can0 701#05
(1763086497.684891) can0 682#3F471C0432043700
(1763086497.685190) can0 000A0000#0000000000000000
(1763086497.685491) can0 000A0001#0000000000000000
(1763086497.685790) can0 000A0002#0000000000000000
(1763086497.686649) can0 1A3#4000A109000000
(1763086497.687062) can0 382#48000E0037000000
(1763086497.694012) can0 000A0003#FF2B000110690000
(1763086497.694297) can0 000A0004#FFE5FFCFFF648E02
(1763086497.700490) can0 482#0000010008360001
(1763086497.704008) can0 000A0003#FF2C0003106A0000
(1763086497.704290) can0 000A0004#FFE9FFCEFF658E02
(1763086497.705577) can0 701#05
(1763086497.708785) can0 382#4300F8FF44000000
(1763086497.714006) can0 000A0003#FF2C0002106A0000
(1763086497.714291) can0 000A0004#FFE9FFCFFF658E02
(1763086497.721536) can0 186#E4004C1D090D0000
(1763086497.721977) can0 189#6702A30170010059
(1763086497.722203) can0 1A5#0000720D000000
(1763086497.722449) can0 482#0000010008360001
(1763086497.722857) can0 181#D10332247F000009
(1763086497.722958) can0 080#
(1763086497.723209) can0 281#0000000001000000
(1763086497.723960) can0 286#0000580200000000
(1763086497.724250) can0 000A0003#FF2C000110680000
(1763086497.724534) can0 000A0004#FFE9FFD0FF658E02
(1763086497.724999) can0 701#05
(1763086497.725472) can0 682#3F471C0432043700
(1763086497.727830) can0 4C4#04C004B904B304B1
(1763086497.728286) can0 19A#00007C656B7B7C7C
(1763086497.728835) can0 4C5#04B704BB04AF04B8
(1763086497.729293) can0 29A#7E5C807E81810000
(1763086497.729855) can0 4C6#04B404B404B004AF
(1763086497.730302) can0 188#0C00013200000000
(1763086497.730608) can0 382#4500020058000000
(1763086497.730866) can0 4C7#04B304B304AE04BA
(1763086497.731113) can0 288#1629142A00140000
(1763086497.731900) can0 4C8#0496000000000000
(1763086497.732135) can0 388#2324252424000000
(1763086497.732999) can0 191#969696969696
(1763086497.734008) can0 000A0003#FF2D000110650000
(1763086497.734291) can0 000A0004#FFE8FFD0FF668E02
(1763086497.734485) can0 192#969696969696
(1763086497.734985) can0 193#969696969696
(1763086497.735997) can0 194#969696969696
(1763086497.736999) can0 195#969696969697
(1763086497.737973) can0 291#111111111111
(1763086497.738981) can0 292#111111111211
(1763086497.739991) can0 293#111111121212
(1763086497.741000) can0 294#121212121212
(1763086497.742002) can0 295#121212131313
(1763086497.744011) can0 000A0003#FF2E000010610000
(1763086497.744297) can0 000A0004#FFE9FFCFFF658E02
(1763086497.744542) can0 482#0000010008360001
(1763086497.746518) can0 701#05
(1763086497.750456) can0 1A4#0000EB09000000
(1763086497.750688) can0 2A3#0F14141413120D09
(1763086497.752332) can0 382#4000140058000000
(1763086497.754007) can0 000A0003#FF2D0002105D0000
(1763086497.754294) can0 000A0004#FFE8FFCFFF658E02
(1763086497.760524) can0 181#D10332247F000009
(1763086497.761499) can0 186#19014C1D090E0000
(1763086497.763352) can0 482#0000010008360001
(1763086497.764011) can0 000A0003#FF2D0004105A0000
(1763086497.764297) can0 000A0004#FFE8FFD0FF668E02
(1763086497.765957) can0 281#0000000001000000
(1763086497.766181) can0 1A2#0000E70D000000
(1763086497.766415) can0 2A1#0D0E0E0E0E0E0B08
(1763086497.766653) can0 682#3F471C0432043700
(1763086497.768445) can0 701#05
(1763086497.774019) can0 000A0003#FF2D000410590000
(1763086497.774302) can0 000A0004#FFE8FFCCFF658E02
(1763086497.774540) can0 382#5300E9FF6D000000
(1763086497.783554) can0 1A0#000000000000
(1763086497.784014) can0 000A0003#FF2E000410580000
(1763086497.784296) can0 000A0004#FFE7FFCCFF658E02
(1763086497.785032) can0 000A0000#0000000000000000
(1763086497.785330) can0 000A0001#0000000000000000
(1763086497.785629) can0 000A0002#0000000000000000
(1763086497.785875) can0 482#0000010008360001
(1763086497.787787) can0 1A3#4000A109000000
(1763086497.790282) can0 701#05
(1763086497.792974) can0 4C4#04BA04B904B304B6
(1763086497.793495) can0 382#8300E7FF6D000000
(1763086497.794018) can0 000A0003#FF2D0006105A0000
(1763086497.794301) can0 000A0004#FFE7FFCCFF658E02
(1763086497.794531) can0 4C5#04AD04B604B704B4
(1763086497.794999) can0 4C6#04B804B404B404B4
(1763086497.796017) can0 4C7#04B304B304B804BA
(1763086497.797045) can0 4C8#0496000000000000
(1763086497.798725) can0 181#D10332247F000009
(1763086497.801489) can0 186#53014C1D090F0000
(1763086497.804015) can0 000A0003#FF2D0007105C0000
(1763086497.804295) can0 000A0004#FFE7FFCCFF658E02
(1763086497.807013) can0 482#0000010008360001
(1763086497.807338) can0 682#3F471D0432043700
(1763086497.807701) can0 281#0000000001000000
(1763086497.812021) can0 701#05
(1763086497.814014) can0 000A0003#FF2B0006105E0000
(1763086497.814302) can0 000A0004#FFE7FFCDFF658E02
(1763086497.817819) can0 382#7600050083000000
(1763086497.821541) can0 189#7B02B30198010151
(1763086497.821840) can0 080#
(1763086497.822961) can0 286#0000580200000000
(1763086497.824023) can0 000A0003#FF2A000510610000
(1763086497.824308) can0 000A0004#FFE7FFCDFF658E02
(1763086497.824534) can0 1A5#0000720D000000
(1763086497.828731) can0 482#0000010008360001
(1763086497.830274) can0 188#0C00133200000000
(1763086497.831036) can0 288#1629142A00140000
(1763086497.832048) can0 388#2324252424000000
(1763086497.832976) can0 191#969696969696
(1763086497.834024) can0 000A0003#FF2A000310620000
(1763086497.834308) can0 000A0004#FFE7FFCFFF668E02
(1763086497.834502) can0 192#969696969696
(1763086497.834619) can0 701#05
(1763086497.834995) can0 193#969696969696
(1763086497.836001) can0 194#969696969696
(1763086497.836975) can0 195#969696969697
(1763086497.837981) can0 291#111111111111
(1763086497.838991) can0 292#111111111211
(1763086497.839673) can0 181#D10332247F000009
(1763086497.839996) can0 293#111111121212
(1763086497.840238) can0 382#6C00120083000000
(1763086497.841008) can0 294#121212121212
(1763086497.841490) can0 186#88014C1D09000000
(1763086497.841978) can0 295#121212131313
(1763086497.844021) can0 000A0003#FF2A000210630000
(1763086497.844306) can0 000A0004#FFE7FFCFFF668E02
(1763086497.847976) can0 682#3F471C0432043700
(1763086497.850588) can0 281#0600000002000000
(1763086497.850902) can0 482#0600010008360001
(1763086497.853318) can0 701#05
(1763086497.854023) can0 000A0003#FF28000210670000
(1763086497.854308) can0 000A0004#FFE7FFCFFF628E02
(1763086497.857453) can0 1A4#0000EB09000000
(1763086497.857688) can0 2A3#1014141413120D09
(1763086497.858133) can0 4C4#04BA04B904B304B6
(1763086497.859145) can0 4C5#04AD04B604B704B4
(1763086497.860159) can0 4C6#04B804B404B404B4
(1763086497.861177) can0 4C7#04B304B304B804BA
(1763086497.861832) can0 382#8700220098000000
(1763086497.862206) can0 4C8#0496000000000000
(1763086497.864024) can0 000A0003#FF260001106B0000
(1763086497.864309) can0 000A0004#FFE7FFCFFF628E02
(1763086497.872519) can0 482#0D00010008360001
(1763086497.873660) can0 1A2#0000E70D000000
(1763086497.873895) can0 2A1#0D0E0E0E0E0E0C08
(1763086497.874183) can0 000A0003#FF210002106D0000
(1763086497.874468) can0 000A0004#FFE6FFCEFF628E02
(1763086497.877534) can0 701#05
(1763086497.878082) can0 181#D10332247F000009
(1763086497.881489) can0 186#C8014C1D09010000
(1763086497.883443) can0 382#A000EEFF98000000
(1763086497.883654) can0 1A0#000000000000
(1763086497.884026) can0 000A0003#FF1E0002106E0000
(1763086497.884316) can0 000A0004#FFE6FFCFFF628E02
(1763086497.885046) can0 000A0000#0000000000000000
(1763086497.885346) can0 000A0001#0000000000000000
(1763086497.885644) can0 000A0002#0000000000000000
(1763086497.888917) can0 682#3F471C0432043700
(1763086497.889132) can0 1A3#4000A109000000
(1763086497.894063) can0 000A0003#FF1C000110700000
(1763086497.894321) can0 000A0004#FFE6FFCFFF628E02
(1763086497.894560) can0 482#1000010008360001
(1763086497.894810) can0 281#1000000002000000
(1763086497.899368) can0 701#05
(1763086497.904023) can0 000A0003#FF1B000010730000
(1763086497.904307) can0 000A0004#FFE6FFCEFF618E02
(1763086497.905372) can0 382#A1000D00B1000000
(1763086497.914036) can0 000A0003#FF1AFFFF10720000
(1763086497.914316) can0 000A0004#FFE5FFCEFF618E02
(1763086497.916097) can0 181#D10332247F000009
(1763086497.916436) can0 482#0D00010008360001
(1763086497.917282) can0 19A#00007C5D637B7C7C
(1763086497.918289) can0 29A#7E55807E81800000
(1763086497.921290) can0 701#05
(1763086497.921527) can0 186#09024C1D09020000
(1763086497.921961) can0 189#8F02C20177010151
(1763086497.922825) can0 080#
(1763086497.923308) can0 4C4#04BA04B904B304B6
(1763086497.923978) can0 286#0000580200000000
(1763086497.924263) can0 000A0003#FF18FFFD10720000
(1763086497.924549) can0 000A0004#FFE2FFCFFF618E02
(1763086497.924783) can0 4C5#04B704BB04B704B4
(1763086497.925333) can0 4C6#04B804B404B004AF
(1763086497.926346) can0 4C7#04B304B804AE04B4
(1763086497.926652) can0 1A5#0000720D000000
(1763086497.927133) can0 382#C900FAFFCA000000
(1763086497.927373) can0 4C8#0496000000000000
(1763086497.929853) can0 682#3F471D0432043700
(1763086497.934031) can0 000A0003#FF17FFFA10750000
(1763086497.934319) can0 000A0004#FFE2FFCFFF608E02
(1763086497.937911) can0 281#0800000002000000
(1763086497.938160) can0 482#0800020008360001
(1763086497.940647) can0 701#05
(1763086497.944038) can0 000A0003#FF17FFF710780000
(1763086497.944323) can0 000A0004#FFE2FFCFFF608E02
(1763086497.949059) can0 382#B3000900CA000000
(1763086497.954032) can0 000A0003#FF19FFF6107A0000
(1763086497.954315) can0 000A0004#FFE1FFCEFF618E02
(1763086497.954552) can0 181#D10332247F000009
(1763086497.959661) can0 482#0600020008360001
(1763086497.961479) can0 186#5B024C1D09030000
(1763086497.964035) can0 000A0003#FF1BFFF5107F0000
(1763086497.964317) can0 000A0004#FFE2FFCFFF618E02
(1763086497.964543) can0 1A4#0000EB09000000
(1763086497.964779) can0 2A3#1014141414120D09
(1763086497.964967) can0 701#05
(1763086497.970786) can0 682#3F471D0432043700
(1763086497.971121) can0 382#C500FCFFEA000000
(1763086497.974030) can0 000A0003#FF1DFFF6107F0000
(1763086497.974320) can0 000A0004#FFE1FFCFFF608E02
(1763086497.981300) can0 1A2#0000E70D000000
(1763086497.981536) can0 2A1#0D0E0E0E0E0E0C08
(1763086497.981783) can0 281#0800000002000000
(1763086497.982035) can0 482#0800020008360001
(1763086497.983557) can0 1A0#000000000000
(1763086497.984038) can0 000A0003#FF1EFFF8107F0000
(1763086497.984325) can0 000A0004#FFE1FFD2FF608E02
(1763086497.984571) can0 188#0C00E43200000000
(1763086497.985050) can0 000A0000#0000000000000000
(1763086497.985350) can0 000A0001#0000000000000000
(1763086497.985648) can0 000A0002#0000000000000000
(1763086497.985887) can0 288#1629141D00140000
(1763086497.986124) can0 388#2324252424000000
(1763086497.986813) can0 701#05
(1763086497.987003) can0 191#969696969696
(1763086497.987964) can0 192#969696969696
(1763086497.988451) can0 4C4#04BA04B904B304B6
(1763086497.988986) can0 193#969696969696
(1763086497.989463) can0 4C5#04B704BB04B704B4
(1763086497.989995) can0 194#969696969696
(1763086497.990211) can0 1A3#4000A109000000
(1763086497.990480) can0 4C6#04B804B404B004AF
(1763086497.990999) can0 195#969696969697
(1763086497.991495) can0 4C7#04B304B804AE04B4
(1763086497.992004) can0 291#111111111111
(1763086497.992522) can0 4C8#0496000000000000
(1763086497.992768) can0 382#C900FBFFEA000000
(1763086497.992984) can0 292#111111111211
(1763086497.994034) can0 000A0003#FF1EFFF8107E0000
(1763086497.994322) can0 000A0004#FFE1FFD2FF608E02
(1763086497.994514) can0 293#111111121212
(1763086497.995000) can0 294#121212121212
(1763086497.995241) can0 181#D10332247F000009
(1763086497.996012) can0 295#121212131313
(1763086498.001479) can0 186#E7024C1D09040000
(1763086498.003657) can0 482#0700020008360001
(1763086498.004031) can0 000A0003#FF1EFFF9107C0000
(1763086498.004315) can0 000A0004#FFE1FFD2FF618E02
(1763086498.008538) can0 701#05
(1763086498.014045) can0 000A0003#FF1FFFFB107B0000
(1763086498.014328) can0 000A0004#FFE1FFD5FF618E02
(1763086498.014570) can0 382#1101100020010000
(1763086498.014883) can0 682#3F471C0432043700
(1763086498.021523) can0 189#B902E20160010251
(1763086498.021826) can0 080#
(1763086498.022978) can0 286#0000580200000000
(1763086498.024041) can0 000A0003#FF1FFFFC107A0000
(1763086498.024324) can0 000A0004#FFE1FFD5FF628E02
(1763086498.025279) can0 482#0000020008360001
(1763086498.025704) can0 281#0000000003000000
(1763086498.028948) can0 1A5#0000720D000000
(1763086498.030296) can0 188#0C00503300000000
(1763086498.030471) can0 701#05
(1763086498.031023) can0 288#1729142A00140000
(1763086498.032033) can0 388#2324252424000000
(1763086498.032992) can0 191#969696969696
(1763086498.033571) can0 181#D10332247F000009
(1763086498.034033) can0 000A0003#FF1EFFFC107C0000
(1763086498.034319) can0 000A0004#FFE1FFD6FF628E02
(1763086498.034515) can0 192#969696969696
(1763086498.035005) can0 193#969696969696
(1763086498.035985) can0 194#969696969696
(1763086498.036410) can0 382#F900FEFF20010000
(1763086498.036992) can0 195#969696969697
(1763086498.037994) can0 291#111111111111
(1763086498.039004) can0 292#111111111211
(1763086498.039983) can0 293#111211121212
(1763086498.040990) can0 294#121212121212
(1763086498.041468) can0 186#5C034C1D09050000
(1763086498.041993) can0 295#121212131313
(1763086498.044041) can0 000A0003#FF1DFFFB107F0000
(1763086498.044327) can0 000A0004#FFE1FFD6FF628E02
(1763086498.049810) can0 482#0000030008360001
(1763086498.052303) can0 701#05
(1763086498.053609) can0 4C4#04C004B904B804B1
(1763086498.054041) can0 000A0003#FF1AFFF910800000
(1763086498.054326) can0 000A0004#FFE2FFD6FF638E02
(1763086498.054620) can0 4C5#04B704B204B704B4
(1763086498.055514) can0 682#3F471C0432043700
(1763086498.055743) can0 4C6#04B404B804B404B4
(1763086498.056649) can0 4C7#04B704B804AE04B4
(1763086498.057679) can0 4C8#0496000000000000
(1763086498.058110) can0 382#2B01D7FF4D010000
(1763086498.064041) can0 000A0003#FF18FFF710800000
(1763086498.064324) can0 000A0004#FFE2FFD6FF628E02
(1763086498.068923) can0 281#0000000003000000
(1763086498.071444) can0 1A4#0000EB09000000
(1763086498.071683) can0 181#D10332247F000009
(1763086498.071917) can0 2A3#1014141414120D0A
(1763086498.072164) can0 482#0000030008360001
(1763086498.072306) can0 701#05
(1763086498.074044) can0 000A0003#FF16FFF4107E0000
(1763086498.074328) can0 000A0004#FFE2FFD6FF638E02
(1763086498.081484) can0 186#FA034C1D09060000
(1763086498.082793) can0 382#3D01FEFF4D010000
(1763086498.083557) can0 1A0#000000000000
(1763086498.084046) can0 000A0003#FF15FFF1107C0000
(1763086498.084331) can0 000A0004#FFE2FFD5FF638E02
(1763086498.085051) can0 000A0000#0000000000000000
(1763086498.085351) can0 000A0001#0000000000000000
(1763086498.085649) can0 000A0002#0000000000000000
(1763086498.088957) can0 1A2#0000E70D000000
(1763086498.089190) can0 2A1#0D0E0E0E0E0E0C08
(1763086498.091131) can0 1A3#4000A109000000
(1763086498.093244) can0 701#05
(1763086498.093630) can0 482#0000030008360001
(1763086498.094047) can0 000A0003#FF14FFEE107C0000
(1763086498.094331) can0 000A0004#FFE2FFD4FF628E02
(1763086498.096433) can0 682#3F471C0432043700
(1763086498.104051) can0 000A0003#FF13FFEC107C0000
(1763086498.104331) can0 000A0004#FFE2FFD4FF628E02
(1763086498.104631) can0 382#65010C008A010000
(1763086498.109867) can0 181#D10332247F000009
(1763086498.112614) can0 281#0000000004000000
(1763086498.114049) can0 000A0003#FF11FFE9107B0000
(1763086498.114335) can0 000A0004#FFE3FFD3FF638E02
(1763086498.115236) can0 482#0000030008360001
(1763086498.115410) can0 701#05
(1763086498.118770) can0 4C4#04C004BE04B804B1
(1763086498.119778) can0 4C5#04B204B204B304B4
(1763086498.120795) can0 4C6#04B804B804B904B4
(1763086498.121500) can0 186#6F054C1D09070000
(1763086498.121809) can0 4C7#04BC04B304AE04B4
(1763086498.122041) can0 189#F1020B025C010451
(1763086498.122839) can0 4C8#0496000000000000
(1763086498.122943) can0 080#
(1763086498.123279) can0 19A#00007C65687C7C7C
(1763086498.123959) can0 286#0000580200000000
(1763086498.124246) can0 000A0003#FF0EFFE6107A0000
(1763086498.124532) can0 000A0004#FFE2FFD1FF678E02
(1763086498.124768) can0 29A#7C5E817D80800000
(1763086498.126564) can0 382#9C01F8FF8A010000
(1763086498.130256) can0 188#0C00FF3200000000
(1763086498.131029) can0 288#1729142100140000
(1763086498.131255) can0 1A5#0000720D000000
(1763086498.132039) can0 388#2324252424000000
(1763086498.132979) can0 191#969696969696
(1763086498.134049) can0 000A0003#FF0EFFE510790000
(1763086498.134331) can0 000A0004#FFE2FFD1FF678E02
(1763086498.134525) can0 192#969696969696
(1763086498.134965) can0 193#969696969696
(1763086498.135993) can0 194#969696969696
(1763086498.136909) can0 701#05
(1763086498.137101) can0 195#969696969697
(1763086498.137403) can0 482#0000040008360001
(1763086498.137741) can0 682#3F471C0432043700
(1763086498.138002) can0 291#111111111111
(1763086498.138980) can0 292#111111111211
(1763086498.139990) can0 293#111211121212
(1763086498.140980) can0 294#121212121212
(1763086498.141982) can0 295#121212131313
(1763086498.144049) can0 000A0003#FF0EFFE410770000
(1763086498.144334) can0 000A0004#FFE1FFCEFF678E02
(1763086498.148105) can0 382#2C020A001B020000
(1763086498.148427) can0 181#D10332247F000009
(1763086498.154053) can0 000A0003#FF0EFFE310760000
(1763086498.154338) can0 000A0004#FFE3FFCEFF688E02
(1763086498.156374) can0 281#0800000005000000
(1763086498.158750) can0 701#05
(1763086498.159135) can0 482#0800040008360001
(1763086498.161461) can0 186#18074C1D09080000
(1763086498.164055) can0 000A0003#FF0CFFE310760000
(1763086498.164336) can0 000A0004#FFE2FFCEFF688E02
(1763086498.169907) can0 382#B002F4FFC0020000
(1763086498.174050) can0 000A0003#FF0AFFE310760000
(1763086498.174333) can0 000A0004#FFE2FFCEFF688E02
(1763086498.178320) can0 682#3F471C0432043900
(1763086498.178545) can0 1A4#0000EB09000000
(1763086498.178780) can0 2A3#1014141414120D0A
(1763086498.180823) can0 482#0700060008360001
(1763086498.180939) can0 701#05
(1763086498.183569) can0 1A0#000000000000
(1763086498.183933) can0 4C4#04C004BE04B804B6
(1763086498.184223) can0 000A0003#FF06FFE310760000
(1763086498.184507) can0 000A0004#FFE3FFCEFF688E02
(1763086498.184943) can0 4C5#04AD04B604B304B8
(1763086498.185240) can0 000A0000#0000000000000000
(1763086498.185540) can0 000A0001#0000000000000000
(1763086498.185837) can0 000A0002#0000000000000000
(1763086498.186071) can0 4C6#04B804B804B904B4
(1763086498.186972) can0 4C7#04BC04B304AE04B4
(1763086498.188003) can0 4C8#0496000000000000
(1763086498.189143) can0 181#D10332247F000009
(1763086498.191970) can0 382#D002F1FFC0020000
(1763086498.192233) can0 1A3#4000A109000000
(1763086498.194053) can0 000A0003#FF02FFE510730000
(1763086498.194336) can0 000A0004#FFE4FFCDFF638E02
(1763086498.196588) can0 1A2#0000E70D000000
(1763086498.196818) can0 2A1#0D0D0E0E0E0E0C08
(1763086498.199691) can0 701#05
(1763086498.199956) can0 281#0700000007000000
(1763086498.200276) can0 482#0700060008360001
(1763086498.201456) can0 186#3E084C1D09090000
(1763086498.204059) can0 000A0003#FEFDFFE8106E0000
(1763086498.204342) can0 000A0004#FFE4FFCCFF648E02
(1763086498.213604) can0 382#3803EFFF31030000
(1763086498.214057) can0 000A0003#FEFAFFE9106C0000
(1763086498.214341) can0 000A0004#FFE4FFD0FF648E02
(1763086498.219261) can0 682#3F471C0432043C00
(1763086498.221504) can0 189#290336025B010751
(1763086498.221765) can0 701#05
(1763086498.221867) can0 080#
(1763086498.222993) can0 286#0000580200000000
(1763086498.224058) can0 000A0003#FEF5FFEC10690000
(1763086498.224341) can0 000A0004#FFE5FFD0FF648E02
(1763086498.224740) can0 482#0600060008360001
(1763086498.227249) can0 181#D10332247F000009
(1763086498.230260) can0 188#0C00A43200000000
(1763086498.231038) can0 288#1729142200140000
(1763086498.232045) can0 388#2324252424000000
(1763086498.233004) can0 191#969696969696
(1763086498.233536) can0 1A5#0000720D000000
(1763086498.234054) can0 000A0003#FEF1FFED10680000
(1763086498.234340) can0 000A0004#FFE4FFCFFF658E02
(1763086498.234534) can0 192#969696969696
(1763086498.234992) can0 193#969696969696
(1763086498.235427) can0 382#3403D6FF31030000
(1763086498.235998) can0 194#969696969696
(1763086498.237004) can0 195#969696969697
(1763086498.237981) can0 291#111111111111
(1763086498.238987) can0 292#111111111211
(1763086498.239996) can0 293#111111121212
(1763086498.241003) can0 294#121212121212
(1763086498.241455) can0 186#D8084C1D090A0000
(1763086498.242007) can0 295#121212131313
(1763086498.243466) can0 701#05
(1763086498.243835) can0 281#0900000008000000
(1763086498.244123) can0 000A0003#FEEEFFEE10680000
(1763086498.244407) can0 000A0004#FFE3FFCFFF648E02
(1763086498.246241) can0 482#0A00070008360001
(1763086498.249097) can0 4C4#04BA04B904B804B6
(1763086498.250111) can0 4C5#04B704BB04B304B4
(1763086498.251126) can0 4C6#04B804B804B404B4
(1763086498.252138) can0 4C7#04B704B304AE04BA
(1763086498.253170) can0 4C8#0496000000000000
(1763086498.254062) can0 000A0003#FEEAFFF010670000
(1763086498.254344) can0 000A0004#FFE3FFD0FF648E02
(1763086498.257465) can0 382#59031B006D030000
(1763086498.260205) can0 682#3F471C0432043E00
(1763086498.264069) can0 000A0003#FEE7FFF310660000
(1763086498.264353) can0 000A0004#FFE0FFD1FF658E02
(1763086498.265442) can0 181#D10332247F000009
(1763086498.265562) can0 701#05
(1763086498.265814) can0 482#0900070008360001
(1763086498.274060) can0 000A0003#FEE4FFF510650000
(1763086498.274347) can0 000A0004#FFE0FFD1FF658E02
(1763086498.279127) can0 382#63033E006D030000
(1763086498.281445) can0 186#8F094C1D090B0000
(1763086498.283569) can0 1A0#000000000000
(1763086498.284057) can0 000A0003#FEE1FFF510640000
(1763086498.284346) can0 000A0004#FFE0FFD1FF658E02
(1763086498.285074) can0 000A0000#0000000000000000
(1763086498.285372) can0 000A0001#0000000000000000
(1763086498.285670) can0 000A0002#0000000000000000
(1763086498.285896) can0 1A4#0000EB09000000
(1763086498.286134) can0 2A3#1014141414120D0A
(1763086498.287278) can0 482#0A00070008360001
(1763086498.287399) can0 701#05
(1763086498.287735) can0 281#0A0000000A000000
(1763086498.293359) can0 1A3#4000A109000000
(1763086498.294061) can0 000A0003#FEDCFFF510640000
(1763086498.294349) can0 000A0004#FFE0FFD0FF658E02
(1763086498.300913) can0 382#B4035100B4030000
(1763086498.301391) can0 682#3F471C0432044000
(1763086498.304056) can0 000A0003#FED6FFF510650000
(1763086498.304345) can0 000A0004#FFE0FFCFFF658E02
(1763086498.304569) can0 1A2#0000E70D000000
(1763086498.304805) can0 2A1#0D0D0E0E0E0E0C08
(1763086498.306401) can0 181#D10332247F000009
(1763086498.309103) can0 701#05
(1763086498.311833) can0 482#0F00070008360001
(1763086498.314065) can0 000A0003#FECFFFF510650000
(1763086498.314349) can0 000A0004#FFDDFFCFFF658E02
(1763086498.314582) can0 4C4#04BA04B904B804B6
(1763086498.315270) can0 4C5#04B704BB04B304B4
(1763086498.316289) can0 4C6#04B804B804B404B4
(1763086498.317301) can0 4C7#04B704B304AE04BA
(1763086498.318332) can0 4C8#0496000000000000
(1763086498.321481) can0 186#460A4C1D090C0000
(1763086498.321993) can0 189#49034D025A010851
(1763086498.322828) can0 080#
(1763086498.323109) can0 382#C1031900B4030000
(1763086498.323978) can0 286#0000580200000000
(1763086498.324268) can0 000A0003#FECAFFF610640000
(1763086498.324552) can0 000A0004#FFDDFFCFFF668E02
(1763086498.329308) can0 19A#0000807C837D8281
(1763086498.330237) can0 188#0C00353300000000
(1763086498.330473) can0 29A#8183868184840000
(1763086498.330726) can0 701#05
(1763086498.331026) can0 288#1729142A00140000
(1763086498.331274) can0 281#0D0000000A000000
(1763086498.331642) can0 482#0D00080008360001
(1763086498.332035) can0 388#2324252424000000
(1763086498.332981) can0 191#969696969696
(1763086498.334063) can0 000A0003#FEC3FFF710630000
(1763086498.334352) can0 000A0004#FFDDFFCBFF678E02
(1763086498.334545) can0 192#969696969696
(1763086498.334997) can0 193#969696969696
(1763086498.335813) can0 1A5#4000720D000000
(1763086498.336006) can0 194#969696969696
(1763086498.336981) can0 195#969696969697
(1763086498.337985) can0 291#111111111111
(1763086498.338995) can0 292#111111111211
(1763086498.340004) can0 293#111111121212
(1763086498.341011) can0 294#121212121212
(1763086498.341983) can0 295#121212131313
(1763086498.344065) can0 000A0003#FEBFFFF610660000
(1763086498.344352) can0 000A0004#FFDDFFCCFF678E02
(1763086498.344601) can0 682#3F471C0432044200
(1763086498.344928) can0 382#E903ABFFFB030000
(1763086498.345264) can0 181#D10332247F000009
(1763086498.352772) can0 482#0D00080008360001
(1763086498.352889) can0 701#05
(1763086498.354065) can0 000A0003#FEBCFFF510670000
(1763086498.354349) can0 000A0004#FFDEFFCCFF678E02
(1763086498.361448) can0 186#3A0B4C1D090D0000
(1763086498.364071) can0 000A0003#FEB9FFF4106B0000
(1763086498.364356) can0 000A0004#FFDEFFCDFF678E02
(1763086498.366426) can0 382#1604DBFF5A040000
(1763086498.374074) can0 000A0003#FEB5FFF4106F0000
(1763086498.374359) can0 000A0004#FFE0FFCEFF688E02
(1763086498.374475) can0 701#05
(1763086498.374719) can0 281#170000000B000000
(1763086498.375078) can0 482#1700090008360001
(1763086498.379429) can0 4C4#04C604BD04B704BA
(1763086498.380445) can0 4C5#04BF04B504AE04B3
(1763086498.381455) can0 4C6#04B304B304AF04AA
(1763086498.382470) can0 4C7#04AD04AE04B204B3
(1763086498.382915) can0 181#D10332247F000009
(1763086498.383503) can0 4C8#0495000000000000
(1763086498.383723) can0 1A0#000000000000
(1763086498.384072) can0 000A0003#FEB0FFF510700000
(1763086498.384356) can0 000A0004#FFE0FFCEFF678E02
(1763086498.385080) can0 000A0000#0000000000000000
(1763086498.385380) can0 000A0001#0000000000000000
(1763086498.385679) can0 000A0002#0000000000000000
(1763086498.385914) can0 682#3F471C0432044200
(1763086498.388482) can0 382#3F0470005A040000
(1763086498.392409) can0 1A4#0000EB09000000
(1763086498.392644) can0 2A3#1014141414120D0A
(1763086498.394077) can0 000A0003#FEADFFF510700000
(1763086498.394358) can0 000A0004#FFE0FFCDFF688E02
(1763086498.394576) can0 1A3#4000A109000000
(1763086498.396427) can0 701#05
(1763086498.396910) can0 482#1900090008360001
(1763086498.401436) can0 186#B40B4C1D090E0000
(1763086498.404076) can0 000A0003#FEA3FFF7106D0000
(1763086498.404361) can0 000A0004#FFE0FFCDFF688E02
(1763086498.410110) can0 382#BD04EAFF89040000
(1763086498.411877) can0 1A2#0000E70D000000
(1763086498.412108) can0 2A1#0D0D0E0E0E0E0C08
(1763086498.414070) can0 000A0003#FE9AFFFA106B0000
(1763086498.414355) can0 000A0004#FFE0FFCDFF688E02
(1763086498.418278) can0 482#0F00090008360001
(1763086498.418401) can0 701#05
(1763086498.418657) can0 281#0F0000000C000000
(1763086498.421021) can0 181#D10332247F000009
(1763086498.421484) can0 189#62035F025A010A51
(1763086498.421829) can0 080#
(1763086498.422980) can0 286#0000580200000000
(1763086498.424076) can0 000A0003#FE94FFFB10680000
(1763086498.424360) can0 000A0004#FFE1FFCEFF688E02
(1763086498.426487) can0 682#3F471C0432043E00
(1763086498.429424) can0 382#8D04B9FF89040000
(1763086498.430284) can0 188#0C00083300000000
(1763086498.431050) can0 288#14295C2A00140000
(1763086498.432033) can0 388#2324252424000000
(1763086498.432972) can0 191#969696969696
(1763086498.433983) can0 192#969696969696
(1763086498.434271) can0 000A0003#FE90FFFC10670000
(1763086498.434556) can0 000A0004#FFE1FFCEFF688E02
(1763086498.435006) can0 193#969696969696
(1763086498.435982) can0 194#969696969696
(1763086498.436986) can0 195#969696969696
(1763086498.437993) can0 291#111111111111
(1763086498.438216) can0 1A5#0007720D000000
(1763086498.439003) can0 292#111111111211
(1763086498.439785) can0 701#05
(1763086498.440010) can0 293#111111121212
(1763086498.440364) can0 482#1A00090008360001
(1763086498.440988) can0 294#121212121212
(1763086498.441437) can0 186#B40B4C1D090F0000
(1763086498.441990) can0 295#121212131313
(1763086498.444074) can0 000A0003#FE8EFFFC10690000
(1763086498.444356) can0 000A0004#FFE2FFCFFF688E02
(1763086498.444603) can0 4C4#04C604BD04B704BA
(1763086498.445617) can0 4C5#04B604B104B204B7
(1763086498.446632) can0 4C6#04AF04B304B404AE
(1763086498.447646) can0 4C7#04B204B204B204B3
(1763086498.448677) can0 4C8#0495000000000000
(1763086498.451137) can0 382#95040F0089040000
(1763086498.454080) can0 000A0003#FE8CFFFB10690000
(1763086498.454365) can0 000A0004#FFE1FFCFFF688E02
(1763086498.459221) can0 482#2100090008360001
(1763086498.459340) can0 701#05
(1763086498.459688) can0 181#D10332247F000009
(1763086498.459936) can0 281#210000000C000000
(1763086498.464074) can0 000A0003#FE88FFFB10680000
(1763086498.464358) can0 000A0004#FFE1FFCFFF688E02
(1763086498.470358) can0 682#3F471C0432043E00
(1763086498.472877) can0 382#5F041E0089040000
(1763086498.474084) can0 000A0003#FE83FFFB10670000
(1763086498.474368) can0 000A0004#FFE2FFD0FF668E02
(1763086498.480813) can0 701#05
(1763086498.481295) can0 482#1800090008360001
(1763086498.481531) can0 186#020C4C1D09000000
(1763086498.483562) can0 1A0#000000000000
(1763086498.484088) can0 000A0003#FE7DFFF810650000
(1763086498.484364) can0 000A0004#FFE2FFCFFF668E02
(1763086498.485091) can0 000A0000#0000000000000000
(1763086498.485389) can0 000A0001#0000000000000000
(1763086498.485690) can0 000A0002#0000000000000000
(1763086498.494083) can0 000A0003#FE77FFF510640000
(1763086498.494366) can0 000A0004#FFE2FFCEFF678E02
(1763086498.494916) can0 382#8404C2FFA7040000
(1763086498.495586) can0 1A3#4000A109000000
(1763086498.499403) can0 1A4#0000EB09000000
(1763086498.499637) can0 2A3#1014141414130D0A
(1763086498.500299) can0 181#D10332247F000009
(1763086498.502788) can0 701#05
(1763086498.503232) can0 281#170000000C000000
(1763086498.503479) can0 482#1700090008360001
(1763086498.504081) can0 000A0003#FE74FFF410640000
(1763086498.504367) can0 000A0004#FFE3FFCEFF678E02
(1763086498.509761) can0 4C4#04C604CA04B804BB
(1763086498.510774) can0 4C5#04B204B204B704BC
(1763086498.511305) can0 682#3F471C0432044400
(1763086498.511790) can0 4C6#04B404B804B404AF
(1763086498.512801) can0 4C7#04B704B804BD04B4
(1763086498.513832) can0 4C8#0496000000000000
(1763086498.514126) can0 000A0003#FE6FFFF110640000
(1763086498.514412) can0 000A0004#FFE2FFCEFF678E02
(1763086498.516562) can0 382#B504AFFFA7040000
(1763086498.518301) can0 19A#00007E6F6D7F8180
(1763086498.519299) can0 29A#816C868284840000
(1763086498.519525) can0 1A2#0000E70D000000
(1763086498.519759) can0 2A1#0D0E0E0E0E0E0C08
(1763086498.521463) can0 186#8D0C4C1D09010000
(1763086498.521975) can0 189#71036A0259010A51
(1763086498.522843) can0 080#
(1763086498.523994) can0 286#0000580200000000
(1763086498.524279) can0 000A0003#FE6EFFEF10650000
(1763086498.524563) can0 000A0004#FFE2FFCEFF678E02
(1763086498.524857) can0 701#05
(1763086498.527565) can0 482#27000A0008360001
(1763086498.530282) can0 188#0C00923200000000
(1763086498.531028) can0 288#11295C2200140000
(1763086498.532040) can0 388#2324252424000000
(1763086498.532995) can0 191#969696969696
(1763086498.534082) can0 000A0003#FE6EFFEE10680000
(1763086498.534370) can0 000A0004#FFE1FFCFFF668E02
(1763086498.534566) can0 192#969696969696
(1763086498.535012) can0 193#969696969696
(1763086498.535990) can0 194#969696969696
(1763086498.536993) can0 195#969696969696
(1763086498.538002) can0 291#111111111111
(1763086498.538391) can0 382#C3041C00DD040000
(1763086498.538721) can0 181#D10332247F000009
(1763086498.539009) can0 292#111111111211
(1763086498.539989) can0 293#111111121212
(1763086498.540386) can0 1A5#0000720D000000
(1763086498.540994) can0 294#121212121212
(1763086498.541998) can0 295#121212131312
(1763086498.544087) can0 000A0003#FE6AFFEC106B0000
(1763086498.544375) can0 000A0004#FFE1FFCFFF668E02
(1763086498.549287) can0 482#24000A0008360001
(1763086498.549405) can0 701#05
(1763086498.549663) can0 281#240000000D000000
(1763086498.552160) can0 682#3F471C0432044A00
(1763086498.554086) can0 000A0003#FE66FFEB10700000
(1763086498.554372) can0 000A0004#FFE0FFCEFF678E02
(1763086498.560427) can0 382#E504A9FFDD040000
(1763086498.561425) can0 186#D90C4C1D09020000
(1763086498.564082) can0 000A0003#FE63FFEA10720000
(1763086498.564365) can0 000A0004#FFE2FFCEFF678E02
(1763086498.571024) can0 701#05
(1763086498.573854) can0 482#1C000A0008360001
(1763086498.574140) can0 000A0003#FE62FFEA10730000
(1763086498.574425) can0 000A0004#FFDEFFCEFF678E02
(1763086498.574927) can0 4C4#04C704B904B804B6
(1763086498.575941) can0 4C5#04B204B604B704B8
(1763086498.576609) can0 181#D10332247F000009
(1763086498.576958) can0 4C6#04B004B404B404B8
(1763086498.577968) can0 4C7#04B704B304B804B4
(1763086498.579001) can0 4C8#0496000000000000
(1763086498.582066) can0 382#01054100FA040000
(1763086498.583565) can0 1A0#000000000000
(1763086498.584100) can0 000A0003#FE62FFEA10750000
(1763086498.584377) can0 000A0004#FFDEFFCEFF678E02
(1763086498.585097) can0 000A0000#0000000000000000
(1763086498.585397) can0 000A0001#0000000000000000
(1763086498.585696) can0 000A0002#0000000000000000
(1763086498.592716) can0 701#05
(1763086498.592981) can0 281#2E0000000D000000
(1763086498.593326) can0 682#3F471C0432044A00
(1763086498.594083) can0 000A0003#FE63FFEA10770000
(1763086498.594367) can0 000A0004#FFDDFFCFFF678E02
(1763086498.595821) can0 482#31000A0008360001
(1763086498.596685) can0 1A3#4000A109000000
(1763086498.601427) can0 186#220D4C1D09030000
(1763086498.603901) can0 382#FF04C6FFFA040000
(1763086498.604188) can0 000A0003#FE61FFE710790000
(1763086498.604474) can0 000A0004#FFDCFFCFFF678E02
(1763086498.606404) can0 1A4#0000EB09000000
(1763086498.606630) can0 2A3#1015161614130D0A
(1763086498.614095) can0 000A0003#FE60FFE5107A0000
(1763086498.614380) can0 000A0004#FFDCFFCFFF678E02
(1763086498.614498) can0 701#05
(1763086498.615010) can0 181#D10332247F000009
(1763086498.617637) can0 482#26000A0008360001
(1763086498.621466) can0 189#800376025A010B51
(1763086498.621846) can0 080#
(1763086498.622996) can0 286#0000580200000000
(1763086498.623235) can0 382#1A05C2FF17050000
(1763086498.624090) can0 000A0003#FE5DFFE3107A0000
(1763086498.624379) can0 000A0004#FFDBFFD3FF678E02
(1763086498.627146) can0 1A2#0000E70D000000
(1763086498.627381) can0 2A1#0D0E0E0E0E0E0C09
(1763086498.630270) can0 188#0C00773200000000
(1763086498.631038) can0 288#11295C2A00140000
(1763086498.632046) can0 388#2324252424000000
(1763086498.632985) can0 191#969696969696
(1763086498.634088) can0 000A0003#FE59FFE2107A0000
(1763086498.634376) can0 000A0004#FFDBFFD3FF688E02
(1763086498.634568) can0 192#969696969696
(1763086498.634807) can0 682#3F471C0432044400
(1763086498.634998) can0 193#969696969696
(1763086498.635999) can0 194#969696969696
(1763086498.636403) can0 701#05
(1763086498.636770) can0 281#1D0000000D000000
(1763086498.637000) can0 195#969696969696
(1763086498.638009) can0 291#111111111111
(1763086498.638986) can0 292#111111111211
(1763086498.639370) can0 482#1F000A0008360001
(1763086498.639994) can0 293#111111121212
(1763086498.640228) can0 4C4#04C704B904B804B6
(1763086498.640985) can0 294#121212121212
(1763086498.641215) can0 4C5#04B204B604B704B8
(1763086498.641452) can0 186#410D4C1D09040000
(1763086498.641988) can0 295#121212131312
(1763086498.642221) can0 4C6#04B004B404B404B8
(1763086498.642663) can0 1A5#8003720D000000
(1763086498.643131) can0 4C7#04B704B304B804B4
(1763086498.644094) can0 000A0003#FE5BFFE010760000
(1763086498.644379) can0 000A0004#FFDBFFD3FF688E02
(1763086498.644626) can0 4C8#0496000000000000
(1763086498.644863) can0 382#DA045E0017050000
(1763086498.654103) can0 000A0003#FE5CFFDF10730000
(1763086498.654384) can0 000A0004#FFDBFFD3FF688E02
(1763086498.655856) can0 181#D10332247F000009
(1763086498.658359) can0 701#05
(1763086498.658914) can0 482#37000A0008360001
(1763086498.663947) can0 382#5B05DCFF23050000
(1763086498.664233) can0 000A0003#FE5DFFDF10710000
(1763086498.664520) can0 000A0004#FFDBFFD3FF678E02
(1763086498.674098) can0 000A0003#FE5DFFE110700000
(1763086498.674382) can0 000A0004#FFDCFFD3FF678E02
(1763086498.674972) can0 682#3F471B0432044B00
(1763086498.680217) can0 482#31000A0008360001
(1763086498.680391) can0 701#05
(1763086498.680673) can0 281#310000000D000000
(1763086498.681414) can0 186#94064C1D09050000
(1763086498.683566) can0 1A0#000000000000
(1763086498.684102) can0 000A0003#FE5CFFE1106F0000
(1763086498.684379) can0 000A0004#FFDCFFD3FF678E02
(1763086498.685106) can0 000A0000#0000000000000000
(1763086498.685405) can0 000A0001#0000000000000000
(1763086498.685705) can0 000A0002#0000000000000000
(1763086498.685946) can0 382#0E051C00C8030000
(1763086498.693972) can0 181#D10332247F000009
(1763086498.694257) can0 000A0003#FE5AFFE2106D0000
(1763086498.694544) can0 000A0004#FFDCFFD3FF678E02
(1763086498.697798) can0 1A3#4000A109000000
(1763086498.701787) can0 701#05
(1763086498.702358) can0 482#1B00050008360001
(1763086498.704099) can0 000A0003#FE58FFE1106B0000
(1763086498.704382) can0 000A0004#FFDCFFD3FF678E02
(1763086498.705234) can0 4C4#04BA04B904B904B6
(1763086498.706248) can0 4C5#04B704BB04B304B8
(1763086498.707265) can0 4C6#04B804B404B404AF
(1763086498.708276) can0 4C7#04B304B304BD04BA
(1763086498.709309) can0 4C8#0496000000000000
(1763086498.710330) can0 382#730214008D020000
(1763086498.713404) can0 1A4#0000EB09000000
(1763086498.713628) can0 2A3#1015161616140D0A
(1763086498.714102) can0 000A0003#FE56FFE010680000
(1763086498.714390) can0 000A0004#FFDBFFD3FF678E02
(1763086498.715919) can0 682#3F471C0432044A00
(1763086498.721284) can0 482#1B00050008360001
(1763086498.721477) can0 186#90064C1D09060000
(1763086498.721590) can0 701#05
(1763086498.721997) can0 189#8203760259010B51
(1763086498.722797) can0 080#
(1763086498.723984) can0 286#0000580200000000
(1763086498.724268) can0 000A0003#FE58FFDF10650000
(1763086498.724554) can0 000A0004#FFDCFFD5FF678E02
(1763086498.724796) can0 19A#00007F71747F847F
(1763086498.725043) can0 281#1F00000007000000
(1763086498.725304) can0 29A#8074838083830000
(1763086498.730280) can0 188#0C003E3300000000
(1763086498.731046) can0 288#11295C2A00140000
(1763086498.732051) can0 388#2324252424000000
(1763086498.732289) can0 181#D10332247F000009
(1763086498.732635) can0 382#8002AAFF8B020000
(1763086498.733010) can0 191#969696969696
(1763086498.733991) can0 192#969696969696
(1763086498.734283) can0 000A0003#FE60FFDD10620000
(1763086498.734573) can0 000A0004#FFDCFFD6FF668E02
(1763086498.734795) can0 1A2#0000E70D000000
(1763086498.735027) can0 2A1#0D0F0F0E0E0E0C09
(1763086498.735219) can0 193#969696969696
(1763086498.736003) can0 194#969696969696
(1763086498.737005) can0 195#969696969696
(1763086498.737982) can0 291#111111111111
(1763086498.738991) can0 292#111111111211
(1763086498.740004) can0 293#111211121212
(1763086498.741011) can0 294#121212121212
(1763086498.742013) can0 295#121212131313
(1763086498.742837) can0 701#05
(1763086498.743323) can0 482#4400050008360001
(1763086498.744102) can0 000A0003#FE68FFDC10610000
(1763086498.744389) can0 000A0004#FFDCFFD7FF668E02
(1763086498.744939) can0 1A5#0000720D000000
(1763086498.754069) can0 382#7502B1FF8B020000
(1763086498.754315) can0 000A0003#FE70FFDA10600000
(1763086498.754595) can0 000A0004#FFDBFFD9FF668E02
(1763086498.756864) can0 682#3F471C0432044600
(1763086498.761410) can0 186#DA0D4C1D09070000
(1763086498.764103) can0 000A0003#FE73FFD610620000
(1763086498.764385) can0 000A0004#FFDCFFD9FF658E02
(1763086498.764813) can0 701#05
(1763086498.765253) can0 281#390000000A000000
(1763086498.765501) can0 482#3900080008360001
(1763086498.770376) can0 4C4#04BA04B904B904B6
(1763086498.770613) can0 181#D10332247F000009
(1763086498.771389) can0 4C5#04B704BB04B304B8
(1763086498.772400) can0 4C6#04B804B404B404AF
(1763086498.773339) can0 382#200513005E050000
(1763086498.773571) can0 4C7#04B304AF04B804BA
(1763086498.774100) can0 000A0003#FE76FFD010630000
(1763086498.774385) can0 000A0004#FFDBFFD8FF658E02
(1763086498.774631) can0 4C8#0496000000000000
(1763086498.783566) can0 1A0#000000000000
(1763086498.784125) can0 000A0003#FE77FFCE10650000
(1763086498.784393) can0 000A0004#FFDDFFD5FF658E02
(1763086498.785120) can0 000A0000#0000000000000000
(1763086498.785418) can0 000A0001#0000000000000000
(1763086498.785716) can0 000A0002#0000000000000000
(1763086498.786669) can0 482#35000B0008360001
(1763086498.786837) can0 701#05
(1763086498.794107) can0 000A0003#FE77FFCD10670000
(1763086498.794396) can0 000A0004#FFD9FFD3FF668E02
(1763086498.795267) can0 382#840518005E050000
(1763086498.797875) can0 682#3F471B0432044B00
(1763086498.798883) can0 1A3#4000A109000000
(1763086498.801400) can0 186#CD0D4C1D09080000
(1763086498.804109) can0 000A0003#FE77FFCD10660000
(1763086498.804391) can0 000A0004#FFDAFFD3FF678E02
(1763086498.808337) can0 701#05
(1763086498.808710) can0 181#D10332247F000009
(1763086498.809028) can0 281#470000000E000000
(1763086498.809273) can0 482#47000B0008360001
(1763086498.814108) can0 000A0003#FE76FFCF10630000
(1763086498.814390) can0 000A0004#FFD9FFD1FF678E02
(1763086498.819532) can0 382#9B0583FF59050000
(1763086498.820386) can0 1A4#0000EB09000000
(1763086498.820616) can0 2A3#1018191616140D0A
(1763086498.821444) can0 189#85037B025B010B51
(1763086498.821862) can0 080#
(1763086498.822980) can0 286#0000580200000000
(1763086498.824112) can0 000A0003#FE70FFD110610000
(1763086498.824397) can0 000A0004#FFD9FFD1FF688E02
(1763086498.830183) can0 701#05
(1763086498.830559) can0 482#2E000B0008360001
(1763086498.834109) can0 000A0003#FE6BFFD4105F0000
(1763086498.834393) can0 000A0004#FFD9FFD0FF688E02
(1763086498.835551) can0 4C4#04C004BE04BE04BB
(1763086498.836558) can0 4C5#04B704BB04B704B4
(1763086498.837572) can0 4C6#04B804B804B404AB
(1763086498.838586) can0 4C7#04B704AF04B304C0
(1763086498.838822) can0 682#3F471B0432044E00
(1763086498.839236) can0 188#0C001A3300000000
(1763086498.839617) can0 4C8#0496000000000000
(1763086498.840035) can0 288#11295C1D00140000
(1763086498.841045) can0 388#2324252424000000
(1763086498.841362) can0 382#3D056A0059050000
(1763086498.841593) can0 186#720D4C1D09090000
(1763086498.841989) can0 191#969696969696
(1763086498.842397) can0 1A2#8003E70D000000
(1763086498.842629) can0 2A1#0D0F0F0E0E0E0C0A
(1763086498.843001) can0 192#969696969696
(1763086498.844007) can0 193#969696969696
(1763086498.844293) can0 000A0003#FE66FFD7105C0000
(1763086498.844579) can0 000A0004#FFD9FFD0FF698E02
(1763086498.845013) can0 194#969696969696
(1763086498.845989) can0 195#969696969696
(1763086498.846818) can0 181#D10332247F000009
(1763086498.847006) can0 291#111111111111
(1763086498.847233) can0 1A5#C000720D000000
(1763086498.848002) can0 292#111111111211
(1763086498.849011) can0 293#111211121212
(1763086498.849988) can0 294#121212121212
(1763086498.850992) can0 295#121212131313
(1763086498.852254) can0 482#32000B0008360001
(1763086498.852375) can0 701#05
(1763086498.852626) can0 281#320000000D000000
(1763086498.854110) can0 000A0003#FE65FFDA105A0000
(1763086498.854396) can0 000A0004#FFD9FFD1FF698E02
(1763086498.863390) can0 382#3505CBFF36050000
(1763086498.864115) can0 000A0003#FE65FFDD10590000
(1763086498.864398) can0 000A0004#FFD9FFD2FF698E02
(1763086498.873759) can0 701#05
(1763086498.874110) can0 000A0003#FE65FFDF10590000
(1763086498.874396) can0 000A0004#FFD8FFD3FF698E02
(1763086498.874637) can0 482#43000B0008360001
(1763086498.879681) can0 682#3F471B0432044B00
(1763086498.881394) can0 186#770D4C1D090A0000
(1763086498.882636) can0 382#2B05A3FF36050000
(1763086498.883567) can0 1A0#000000000000
(1763086498.884125) can0 000A0003#FE63FFE1105C0000
(1763086498.884405) can0 000A0004#FFD6FFD4FF698E02
(1763086498.885123) can0 000A0000#0000000000000000
(1763086498.885422) can0 000A0001#0000000000000000
(1763086498.885720) can0 000A0002#0000000000000000
(1763086498.885960) can0 181#D10332247F000009
(1763086498.893212) can0 701#05
(1763086498.894115) can0 000A0003#FE5DFFE110610000
(1763086498.894398) can0 000A0004#FFD4FFD6FF6A8E02
(1763086498.895916) can0 281#420000000D000000
(1763086498.896161) can0 482#42000B0008360001
(1763086498.900002) can0 1A3#4000A109000000
(1763086498.900705) can0 4C4#04C004B904B904BB
(1763086498.901719) can0 4C5#04B704B604B304B8
(1763086498.902732) can0 4C6#04B404B404B404B4
(1763086498.903746) can0 4C7#04B704AF04B804BA
(1763086498.904117) can0 000A0003#FE58FFE110640000
(1763086498.904403) can0 000A0004#FFD4FFD5FF6A8E02
(1763086498.904644) can0 382#1A051A0038050000
(1763086498.904890) can0 4C8#0496000000000000
