(1763086628.075497) can0 482#0000020008360001
(1763086628.075552) can0 701#05
(1763086628.075864) can0 000A0003#FF24FFD010450000
(1763086628.076150) can0 000A0004#FFE4FFDBFF768E02
(1763086628.076759) can0 1A2#0000770D000000
(1763086628.076990) can0 2A1#0A0C0D0D0D0C0A06
(1763086628.078093) can0 1A4#0000EB09000000
(1763086628.078325) can0 2A3#0C10111111100C09
(1763086628.082751) can0 1A3#C0000509000000
(1763086628.085738) can0 000A0003#FF23FFCF10460000
(1763086628.086024) can0 000A0004#FFE3FFDBFF768E02
(1763086628.086265) can0 382#4801240030010000
(1763086628.091395) can0 281#0000000003000000
(1763086628.094352) can0 682#3F451C0400003700
(1763086628.095743) can0 000A0003#FF22FFCE10480000
(1763086628.096027) can0 000A0004#FFE3FFDBFF768E02
(1763086628.096606) can0 701#05
(1763086628.097178) can0 482#0000020008360001
(1763086628.102406) can0 181#D10300207F000009
(1763086628.102637) can0 186#22034C1D09090000
(1763086628.105746) can0 000A0003#FF22FFCC104B0000
(1763086628.106031) can0 000A0004#FFE4FFDCFF768E02
(1763086628.106340) can0 1A0#000000000100
(1763086628.106566) can0 1A5#0000720D000000
(1763086628.106865) can0 000A0000#0000000000000000
(1763086628.107165) can0 000A0001#0000000000000000
(1763086628.107464) can0 000A0002#0000000000000000
(1763086628.107710) can0 188#0C00503300000000
(1763086628.108079) can0 382#3D01F6FF30010000
(1763086628.108312) can0 288#11295C1D00140000
(1763086628.109133) can0 388#2323242424000000
(1763086628.110094) can0 191#969696969696
(1763086628.111108) can0 192#969696969696
(1763086628.112129) can0 193#969696969696
(1763086628.113103) can0 194#969696969696
(1763086628.114109) can0 195#969696969696
(1763086628.115115) can0 291#111111111111
(1763086628.115738) can0 000A0003#FF21FFCA104D0000
(1763086628.116030) can0 000A0004#FFE4FFDBFF768E02
(1763086628.116222) can0 292#111111111111
(1763086628.117101) can0 293#111111121212
(1763086628.118111) can0 294#121212121212
(1763086628.118531) can0 701#05
(1763086628.119004) can0 482#0000020008360001
(1763086628.119194) can0 295#121212131312
(1763086628.121588) can0 4C4#04C604C304B204B4
(1763086628.122592) can0 4C5#04B004BD04B004BA
(1763086628.123608) can0 4C6#04BA04BA04B204AD
(1763086628.124629) can0 4C7#04B904B604BC04C9
(1763086628.125656) can0 4C8#048F000000000000
(1763086628.125945) can0 000A0003#FF20FFC910500000
(1763086628.126230) can0 000A0004#FFE4FFDBFF758E02
(1763086628.129696) can0 382#3701180037010000
(1763086628.135154) can0 281#0000000003000000
(1763086628.135493) can0 682#3F451C0400003700
(1763086628.135783) can0 000A0003#FF1FFFC910510000
(1763086628.136067) can0 000A0004#FFE4FFDAFF758E02
(1763086628.140367) can0 701#05
(1763086628.140732) can0 482#0000020008360001
(1763086628.141164) can0 181#D10300207F000009
(1763086628.142438) can0 19A#00007C70747F7F7F
(1763086628.142674) can0 186#1C034C1D090A0000
(1763086628.142940) can0 189#B502F10171010251
(1763086628.143412) can0 29A#806D838083830000
(1763086628.143775) can0 080#
(1763086628.144926) can0 286#0000580200000000
(1763086628.145741) can0 000A0003#FF20FFC710510000
(1763086628.146024) can0 000A0004#FFE3FFDAFF758E02
(1763086628.151743) can0 382#3301FBFF34010000
(1763086628.153387) can0 188#0C00D23200000000
(1763086628.154164) can0 288#11295C2200140000
(1763086628.155169) can0 388#2323242424000000
(1763086628.155760) can0 000A0003#FF20FFC510510000
(1763086628.156031) can0 000A0004#FFE4FFDAFF758E02
(1763086628.156220) can0 191#969696969696
(1763086628.157112) can0 192#969696969696
(1763086628.158118) can0 193#969696969696
(1763086628.159125) can0 194#969696969696
(1763086628.160100) can0 195#969696969696
(1763086628.161106) can0 291#111111111111
(1763086628.162114) can0 292#111111111211
(1763086628.162232) can0 701#05
(1763086628.162697) can0 482#0000020008360001
(1763086628.163121) can0 293#111111121212
(1763086628.164132) can0 294#121212121212
(1763086628.165104) can0 295#121212131312
(1763086628.165747) can0 000A0003#FF20FFC410510000
(1763086628.166031) can0 000A0004#FFE4FFDAFF758E02
(1763086628.173482) can0 382#1E01010034010000
(1763086628.175774) can0 000A0003#FF1FFFC310500000
(1763086628.176043) can0 000A0004#FFE4FFD9FF758E02
(1763086628.176283) can0 682#3F451C0400003700
(1763086628.178923) can0 181#D10300207F000009
(1763086628.179179) can0 281#0000000003000000
(1763086628.182653) can0 186#10034C1D090B0000
(1763086628.183803) can0 1A3#C0000509000000
(1763086628.184159) can0 701#05
(1763086628.184381) can0 1A2#0000770D000000
(1763086628.184614) can0 2A1#0A0C0D0D0D0C0A06
(1763086628.184860) can0 482#0000020008360001
(1763086628.185100) can0 1A4#0000EB09000000
(1763086628.185333) can0 2A3#0C10111111100C09
(1763086628.185748) can0 000A0003#FF20FFC4104E0000
(1763086628.186032) can0 000A0004#FFE4FFD9FF768E02
(1763086628.186782) can0 4C4#04C004C304B204B4
(1763086628.187799) can0 4C5#04B504B904B504BE
(1763086628.188806) can0 4C6#04BA04B604B604B2
(1763086628.189826) can0 4C7#04BE04BB04C104CF
(1763086628.190850) can0 4C8#048F000000000000
(1763086628.195207) can0 382#2B01270030010000
(1763086628.195760) can0 000A0003#FF21FFC5104D0000
(1763086628.196032) can0 000A0004#FFE3FFD8FF768E02
(1763086628.205755) can0 000A0003#FF21FFC5104E0000
(1763086628.206039) can0 000A0004#FFE3FFD8FF758E02
(1763086628.206154) can0 701#05
(1763086628.206366) can0 1A0#000000000100
(1763086628.206612) can0 482#0000020008360001
(1763086628.206914) can0 000A0000#0000000000000000
(1763086628.207212) can0 000A0001#0000000000000000
(1763086628.207510) can0 000A0002#0000000000000000
(1763086628.208602) can0 1A5#0000720D000000
(1763086628.215761) can0 000A0003#FF21FFC5104F0000
(1763086628.216037) can0 000A0004#FFE3FFD9FF758E02
(1763086628.217036) can0 181#D10300207F000009
(1763086628.217466) can0 682#3F451C0400003700
(1763086628.217710) can0 382#2E01100030010000
(1763086628.222503) can0 281#0000000003000000
(1763086628.222740) can0 186#F9024C1D090C0000
(1763086628.225755) can0 000A0003#FF1EFFC510510000
(1763086628.226045) can0 000A0004#FFE0FFD9FF768E02
(1763086628.227605) can0 701#05
(1763086628.228054) can0 482#0000020008360001
(1763086628.235761) can0 000A0003#FF1BFFC410530000
(1763086628.236048) can0 000A0004#FFE0FFD9FF768E02
(1763086628.239094) can0 382#3D01F6FF27010000
(1763086628.242642) can0 189#B102F60171010251
(1763086628.242774) can0 080#
(1763086628.243928) can0 286#0000580200000000
(1763086628.245747) can0 000A0003#FF18FFC510520000
(1763086628.246034) can0 000A0004#FFDFFFD9FF768E02
(1763086628.246804) can0 701#05
(1763086628.247276) can0 482#0000020008360001
(1763086628.251985) can0 4C4#04C004C304B204B4
(1763086628.253000) can0 4C5#04B504B904B504BE
(1763086628.253395) can0 188#0C00BF3200000000
(1763086628.254009) can0 4C6#04BA04B604B604B2
(1763086628.254244) can0 288#11295C2100140000
(1763086628.255028) can0 4C7#04BE04BB04C104CF
(1763086628.255264) can0 388#2323242424000000
(1763086628.255508) can0 181#D10300207F000009
(1763086628.255797) can0 000A0003#FF15FFC510500000
(1763086628.256082) can0 000A0004#FFDFFFD9FF778E02
(1763086628.256272) can0 191#969696969696
(1763086628.256518) can0 4C8#048F000000000000
(1763086628.257103) can0 192#969696969696
(1763086628.258065) can0 682#3F451C0400003700
(1763086628.258258) can0 193#969696969696
(1763086628.259104) can0 194#969696969696
(1763086628.260107) can0 195#969696969696
(1763086628.260814) can0 382#16012D0027010000
(1763086628.261113) can0 291#111111111111
(1763086628.262122) can0 292#111111111211
(1763086628.262598) can0 186#F9024C1D090D0000
(1763086628.263129) can0 293#111111121212
(1763086628.264091) can0 294#121212121212
(1763086628.265094) can0 295#121212131312
(1763086628.265753) can0 000A0003#FF14FFC510510000
(1763086628.266041) can0 000A0004#FFDFFFDAFF778E02
(1763086628.266291) can0 281#0000000003000000
(1763086628.268890) can0 701#05
(1763086628.271743) can0 482#0000020008360001
(1763086628.275757) can0 000A0003#FF14FFC510520000
(1763086628.276037) can0 000A0004#FFE0FFDAFF778E02
(1763086628.282537) can0 382#3001050027010000
(1763086628.284840) can0 1A3#C0000509000000
(1763086628.285759) can0 000A0003#FF14FFC610540000
(1763086628.286044) can0 000A0004#FFE0FFDAFF778E02
(1763086628.290393) can0 701#05
(1763086628.291858) can0 1A2#0000770D000000
(1763086628.292091) can0 2A1#0A0C0D0D0D0C0A06
(1763086628.292317) can0 1A4#0000EB09000000
(1763086628.292551) can0 2A3#0C10111111100C09
(1763086628.293561) can0 482#0000020008360001
(1763086628.293921) can0 181#D10300207F000009
(1763086628.295761) can0 000A0003#FF15FFC710560000
(1763086628.296043) can0 000A0004#FFE0FFDAFF788E02
(1763086628.298907) can0 682#3F451C0400003700
(1763086628.302601) can0 186#01034C1D090E0000
(1763086628.304726) can0 382#2001F7FF27010000
(1763086628.305758) can0 000A0003#FF16FFCA10580000
(1763086628.306044) can0 000A0004#FFE0FFDBFF788E02
(1763086628.306340) can0 1A0#000000000100
(1763086628.306773) can0 000A0000#0000000000000000
(1763086628.307074) can0 000A0001#0000000000000000
(1763086628.307370) can0 000A0002#0000000000000000
(1763086628.309724) can0 281#0000000003000000
(1763086628.310048) can0 701#05
(1763086628.310827) can0 1A5#0000720D000000
(1763086628.315428) can0 482#0000020008360001
(1763086628.315760) can0 000A0003#FF16FFCB105A0000
(1763086628.316046) can0 000A0004#FFE0FFDAFF788E02
(1763086628.317181) can0 4C4#04B904BD04AC04B9
(1763086628.318195) can0 4C5#04B904BD04B504BE
(1763086628.319207) can0 4C6#04B604B604BB04AD
(1763086628.320227) can0 4C7#04B904BB04C104C4
(1763086628.321253) can0 4C8#048F000000000000
(1763086628.325762) can0 000A0003#FF17FFCA10590000
(1763086628.326050) can0 000A0004#FFDFFFDAFF788E02
(1763086628.326546) can0 382#120105002A010000
(1763086628.331335) can0 701#05
(1763086628.331798) can0 181#D10300207F000009
(1763086628.335777) can0 000A0003#FF17FFC810590000
(1763086628.336049) can0 000A0004#FFE0FFDAFF798E02
(1763086628.337249) can0 482#0000020008360001
(1763086628.342629) can0 186#0A034C1D090F0000
(1763086628.342868) can0 682#3F451C0400003700
(1763086628.343101) can0 189#B102FB0171010251
(1763086628.343792) can0 080#
(1763086628.344940) can0 286#0000580200000000
(1763086628.345759) can0 000A0003#FF19FFC9105C0000
(1763086628.346050) can0 000A0004#FFE0FFDBFF798E02
(1763086628.348043) can0 382#2D01E9FF2E010000
(1763086628.348434) can0 19A#00007F787A80817F
(1763086628.349432) can0 29A#8071848084830000
(1763086628.353252) can0 701#05
(1763086628.353494) can0 188#0C00233300000000
(1763086628.353742) can0 281#0000000003000000
(1763086628.354150) can0 288#11295C2A00140000
(1763086628.355155) can0 388#2323242424000000
(1763086628.355788) can0 000A0003#FF19FFCA105E0000
(1763086628.356052) can0 000A0004#FFE0FFDBFF798E02
(1763086628.356241) can0 191#969696969696
(1763086628.357127) can0 192#969696969696
(1763086628.358132) can0 193#969696969696
(1763086628.358976) can0 482#0000020008360001
(1763086628.359168) can0 194#969696969696
(1763086628.360115) can0 195#969696969696
(1763086628.361121) can0 291#111111111111
(1763086628.362128) can0 292#111111111211
(1763086628.363106) can0 293#111211121212
(1763086628.364115) can0 294#121212121212
(1763086628.365120) can0 295#121212131312
(1763086628.365766) can0 000A0003#FF19FFC8105F0000
(1763086628.366056) can0 000A0004#FFE0FFDBFF798E02
(1763086628.369891) can0 181#D10300207F000009
(1763086628.370332) can0 382#4D01DDFF2E010000
(1763086628.374990) can0 701#05
(1763086628.375777) can0 000A0003#FF17FFC510600000
(1763086628.376055) can0 000A0004#FFE0FFDCFF798E02
(1763086628.380935) can0 482#0000020008360001
(1763086628.382372) can0 4C4#04B904BD04AC04B9
(1763086628.382610) can0 186#18034C1D09000000
(1763086628.383386) can0 4C5#04B904BD04B504BE
(1763086628.383773) can0 682#3F451C0400003700
(1763086628.384399) can0 4C6#04B604B604BB04AD
(1763086628.385417) can0 4C7#04B904BB04C104C4
(1763086628.385765) can0 000A0003#FF18FFC5105E0000
(1763086628.386056) can0 000A0004#FFE0FFDCFF798E02
(1763086628.386281) can0 1A3#C0000509000000
(1763086628.386525) can0 4C8#048F000000000000
(1763086628.391812) can0 382#3301F9FF33010000
(1763086628.395781) can0 000A0003#FF19FFC3105B0000
(1763086628.396051) can0 000A0004#FFDFFFDCFF788E02
(1763086628.396836) can0 701#05
(1763086628.397297) can0 281#0000000003000000
(1763086628.399088) can0 1A4#0000EB09000000
(1763086628.399318) can0 2A3#0C10111111100C09
(1763086628.399541) can0 1A2#0000770D000000
(1763086628.399777) can0 2A1#0A0C0D0D0D0C0A06
(1763086628.402750) can0 482#0000020008360001
(1763086628.405771) can0 000A0003#FF1AFFC4105B0000
(1763086628.406056) can0 000A0004#FFDFFFD8FF788E02
(1763086628.406340) can0 1A0#000000000100
(1763086628.406782) can0 000A0000#0000000000000000
(1763086628.407080) can0 000A0001#0000000000000000
(1763086628.407378) can0 000A0002#0000000000000000
(1763086628.410833) can0 181#D10300207F000009
(1763086628.413064) can0 1A5#0000720D000000
(1763086628.413792) can0 382#5B01F7FF33010000
(1763086628.415777) can0 000A0003#FF1BFFC5105A0000
(1763086628.416053) can0 000A0004#FFDEFFD8FF788E02
(1763086628.418756) can0 701#05
(1763086628.421873) can0 482#0000020008360001
(1763086628.422586) can0 186#10034C1D09010000
(1763086628.424686) can0 682#3F451C0400003700
(1763086628.425774) can0 000A0003#FF1BFFC4105A0000
(1763086628.426058) can0 000A0004#FFDFFFD8FF788E02
(1763086628.435603) can0 382#5601D9FF30010000
(1763086628.435887) can0 000A0003#FF1BFFC310590000
(1763086628.436174) can0 000A0004#FFDFFFD8FF788E02
(1763086628.440729) can0 281#0000000003000000
(1763086628.440916) can0 701#05
(1763086628.442628) can0 189#B202F90170010251
(1763086628.442791) can0 080#
(1763086628.443942) can0 286#0000580200000000
(1763086628.444186) can0 482#0000020008360001
(1763086628.445768) can0 000A0003#FF1AFFC310560000
(1763086628.446055) can0 000A0004#FFDFFFD8FF788E02
(1763086628.447563) can0 4C4#04BF04C204B104AE
(1763086628.448576) can0 4C5#04B404B304B804B9
(1763086628.449243) can0 181#D10300207F000009
(1763086628.449591) can0 4C6#04B904B504B104B5
(1763086628.450604) can0 4C7#04B404B504BB04C3
(1763086628.451640) can0 4C8#048E000000000000
(1763086628.453371) can0 188#0C00F13200000000
(1763086628.454141) can0 288#11295C2A00140000
(1763086628.455143) can0 388#2323242424000000
(1763086628.455780) can0 000A0003#FF1AFFC310540000
(1763086628.456066) can0 000A0004#FFDEFFD8FF788E02
(1763086628.456257) can0 191#969696969696
(1763086628.457134) can0 192#969696969696
(1763086628.457376) can0 382#EF00270030010000
(1763086628.458109) can0 193#969696969696
(1763086628.459116) can0 194#969696969696
(1763086628.460122) can0 195#969696969696
(1763086628.461126) can0 291#111111111111
(1763086628.462105) can0 292#111111111211
(1763086628.462580) can0 186#39034C1D09020000
(1763086628.462695) can0 701#05
(1763086628.463113) can0 293#111211121212
(1763086628.464122) can0 294#121212121212
(1763086628.465127) can0 295#121212131312
(1763086628.465419) can0 482#0000030008360001
(1763086628.465779) can0 000A0003#FF1CFFC310510000
(1763086628.466065) can0 000A0004#FFDFFFD8FF788E02
(1763086628.466307) can0 682#3F451C0400003700
(1763086628.475786) can0 000A0003#FF1EFFC2104D0000
(1763086628.476058) can0 000A0004#FFE0FFD9FF798E02
(1763086628.479053) can0 382#7F01D8FF40010000
(1763086628.484256) can0 701#05
(1763086628.484613) can0 281#0000000003000000
(1763086628.485785) can0 000A0003#FF20FFC0104A0000
(1763086628.486071) can0 000A0004#FFDFFFDAFF7A8E02
(1763086628.486917) can0 1A3#C0000509000000
(1763086628.487346) can0 181#D10300207F000009
(1763086628.487686) can0 482#0000030008360001
(1763086628.495784) can0 000A0003#FF21FFBD10490000
(1763086628.496058) can0 000A0004#FFDFFFDAFF7A8E02
(1763086628.501104) can0 382#4A01C2FF40010000
(1763086628.502583) can0 186#57034C1D09030000
(1763086628.503809) can0 701#05
(1763086628.505781) can0 000A0003#FF21FFBA10480000
(1763086628.506067) can0 000A0004#FFDFFFDAFF798E02
(1763086628.506293) can0 1A4#0000EB09000000
(1763086628.506505) can0 1A0#000000000100
(1763086628.506807) can0 000A0000#0000000000000000
(1763086628.507105) can0 000A0001#0000000000000000
(1763086628.507403) can0 000A0002#0000000000000000
(1763086628.507625) can0 1A2#0000770D000000
(1763086628.507863) can0 2A1#0A0C0D0D0D0C0A06
(1763086628.508091) can0 2A3#0C10111111100C09
(1763086628.509289) can0 482#0000030008360001
(1763086628.509532) can0 682#3F451C0400003700
(1763086628.512767) can0 4C4#04C504BC04AB04AE
(1763086628.513777) can0 4C5#04AF04BC04B404B9
(1763086628.514789) can0 4C6#04B904B504B104B5
(1763086628.515296) can0 1A5#0000720D000000
(1763086628.515786) can0 000A0003#FF1FFFB810490000
(1763086628.516072) can0 000A0004#FFDFFFD6FF798E02
(1763086628.516310) can0 4C7#04B804BF04C004C8
(1763086628.516840) can0 4C8#048E000000000000
(1763086628.522814) can0 382#450101004B010000
(1763086628.525776) can0 000A0003#FF1DFFB710490000
(1763086628.526063) can0 000A0004#FFDFFFD6FF798E02
(1763086628.527843) can0 701#05
(1763086628.528311) can0 181#D10300207F000009
(1763086628.528615) can0 281#0000000003000000
(1763086628.531138) can0 482#0000030008360001
(1763086628.535781) can0 000A0003#FF1BFFB6104A0000
(1763086628.536068) can0 000A0004#FFDFFFD7FF788E02
(1763086628.537428) can0 19A#00007F77787F817F
(1763086628.538428) can0 29A#8274848286840000
(1763086628.542607) can0 186#62034C1D09040000
(1763086628.542944) can0 189#BF02F30171010251
(1763086628.543758) can0 080#
(1763086628.544760) can0 382#450101004B010000
(1763086628.545004) can0 286#0000580200000000
(1763086628.545781) can0 000A0003#FF1AFFB610490000
(1763086628.546070) can0 000A0004#FFE0FFD3FF788E02
(1763086628.549758) can0 701#05
(1763086628.550253) can0 682#3F451C0400003700
(1763086628.552879) can0 482#0000030008360001
(1763086628.553406) can0 188#0C003E3300000000
(1763086628.554164) can0 288#11295C2A00140000
(1763086628.555170) can0 388#2323242424000000
(1763086628.555784) can0 000A0003#FF18FFB510490000
(1763086628.556069) can0 000A0004#FFE0FFD3FF798E02
(1763086628.556260) can0 191#969696969696
(1763086628.557092) can0 192#969696969696
(1763086628.558117) can0 193#969696969696
(1763086628.559122) can0 194#969696969696
(1763086628.560130) can0 195#969696969696
(1763086628.561104) can0 291#111111111111
(1763086628.562116) can0 292#111111111211
(1763086628.563120) can0 293#111211121212
(1763086628.563786) can0 382#5F01E2FF50010000
(1763086628.564129) can0 294#121212121212
(1763086628.565132) can0 295#121212131312
(1763086628.565781) can0 000A0003#FF18FFB410490000
(1763086628.566067) can0 000A0004#FFDFFFD2FF798E02
(1763086628.566481) can0 181#D10300207F000009
(1763086628.571733) can0 281#0000000003000000
(1763086628.571850) can0 701#05
(1763086628.572324) can0 482#0000030008360001
(1763086628.575781) can0 000A0003#FF18FFB310480000
(1763086628.576069) can0 000A0004#FFDFFFD3FF798E02
(1763086628.577966) can0 4C4#04C004BD04AC04B4
(1763086628.578978) can0 4C5#04B404BD04B504BA
(1763086628.579995) can0 4C6#04BA04B604B204B6
(1763086628.581012) can0 4C7#04B904C004C104C9
(1763086628.582037) can0 4C8#048F000000000000
(1763086628.582566) can0 186#5C034C1D09050000
(1763086628.585497) can0 382#400122004D010000
(1763086628.585783) can0 000A0003#FF18FFB410470000
(1763086628.586072) can0 000A0004#FFE0FFCFFF798E02
(1763086628.587942) can0 1A3#C0000509000000
(1763086628.591162) can0 682#3F451C0400003700
(1763086628.591284) can0 701#05
(1763086628.595784) can0 000A0003#FF19FFB510460000
(1763086628.596068) can0 000A0004#FFE1FFD0FF798E02
(1763086628.596409) can0 482#0000030008360001
(1763086628.604729) can0 181#D10300207F000009
(1763086628.605784) can0 000A0003#FF19FFB610460000
(1763086628.606072) can0 000A0004#FFE0FFD0FF798E02
(1763086628.606344) can0 1A0#000000000100
(1763086628.606801) can0 000A0000#0000000000000000
(1763086628.607100) can0 000A0001#0000000000000000
(1763086628.607398) can0 000A0002#0000000000000000
(1763086628.607640) can0 382#580110004D010000
(1763086628.613086) can0 1A4#0000EB09000000
(1763086628.613314) can0 2A3#0C10111111100C09
(1763086628.614569) can0 1A2#0000770D000000
(1763086628.614805) can0 2A1#0A0C0D0D0D0C0A06
(1763086628.615283) can0 701#05
(1763086628.615642) can0 281#0000000003000000
(1763086628.615933) can0 000A0003#FF19FFB710460000
(1763086628.616218) can0 000A0004#FFDFFFD0FF7A8E02
(1763086628.617527) can0 1A5#0000720D000000
(1763086628.618461) can0 482#0000030008360001
(1763086628.622565) can0 186#68034C1D09060000
(1763086628.625781) can0 000A0003#FF1AFFBA10450000
(1763086628.626068) can0 000A0004#FFE0FFD5FF798E02
(1763086628.629268) can0 382#4801F6FF52010000
(1763086628.634618) can0 682#3F451C0400003700
(1763086628.635790) can0 000A0003#FF1BFFBC10430000
(1763086628.636080) can0 000A0004#FFDFFFD5FF798E02
(1763086628.637242) can0 701#05
(1763086628.640201) can0 482#0000030008360001
(1763086628.642607) can0 189#C102F40171010251
(1763086628.642921) can0 181#D10300207F000009
(1763086628.643021) can0 080#
(1763086628.643255) can0 4C4#04B904BD04B204B4
(1763086628.643926) can0 286#0000580200000000
(1763086628.644183) can0 4C5#04B904B904B504B5
(1763086628.645197) can0 4C6#04BA04B604B604B6
(1763086628.645790) can0 000A0003#FF1CFFBC10420000
(1763086628.646078) can0 000A0004#FFDEFFD6FF788E02
(1763086628.646313) can0 4C7#04B504BB04C104C4
(1763086628.647241) can0 4C8#048F000000000000
(1763086628.650996) can0 382#6901130052010000
(1763086628.653398) can0 188#0C00E83200000000
(1763086628.654171) can0 288#11295C2200140000
(1763086628.655174) can0 388#2323242424000000
(1763086628.655789) can0 000A0003#FF1CFFBC10420000
(1763086628.656076) can0 000A0004#FFDEFFD6FF788E02
(1763086628.656267) can0 191#969696969696
(1763086628.657118) can0 192#969696969696
(1763086628.658122) can0 193#969696969696
(1763086628.659130) can0 194#969696969696
(1763086628.660108) can0 195#969696969696
(1763086628.661110) can0 291#111111111111
(1763086628.661817) can0 281#0000000003000000
(1763086628.661992) can0 701#05
(1763086628.662185) can0 292#111111111211
(1763086628.662430) can0 482#0000030008360001
(1763086628.662664) can0 186#74034C1D09070000
(1763086628.663126) can0 293#111111121212
(1763086628.664139) can0 294#121212121212
(1763086628.665108) can0 295#121212131312
(1763086628.665786) can0 000A0003#FF1CFFBB10410000
(1763086628.666074) can0 000A0004#FFDEFFD7FF798E02
(1763086628.673055) can0 382#7001F4FF56010000
(1763086628.675557) can0 682#3F451C0400003700
(1763086628.675843) can0 000A0003#FF1CFFBA10400000
(1763086628.676130) can0 000A0004#FFDFFFD7FF788E02
(1763086628.681037) can0 181#D10300207F000009
(1763086628.681694) can0 482#0000030008360001
(1763086628.683392) can0 701#05
(1763086628.685798) can0 000A0003#FF1CFFBA10400000
(1763086628.686085) can0 000A0004#FFE0FFD7FF788E02
(1763086628.688980) can0 1A3#C0000509000000
(1763086628.694765) can0 382#6201100056010000
(1763086628.695791) can0 000A0003#FF1CFFBA10410000
(1763086628.696080) can0 000A0004#FFDFFFD7FF798E02
(1763086628.702560) can0 186#91034C1D09080000
(1763086628.702676) can0 701#05
(1763086628.702970) can0 482#0000030008360001
(1763086628.705796) can0 000A0003#FF1BFFBA10410000
(1763086628.706081) can0 000A0004#FFE0FFD8FF788E02
(1763086628.706335) can0 281#0000000004000000
(1763086628.706547) can0 1A0#000000000100
(1763086628.706845) can0 000A0000#0000000000000000
(1763086628.707146) can0 000A0001#0000000000000000
(1763086628.707444) can0 000A0002#0000000000000000
(1763086628.708365) can0 4C4#04B904BD04B204B4
(1763086628.709371) can0 4C5#04B904B904B504B5
(1763086628.710390) can0 4C6#04BA04B604B604B6
(1763086628.711406) can0 4C7#04B504BB04C104C4
(1763086628.712436) can0 4C8#048F000000000000
(1763086628.715811) can0 000A0003#FF1AFFB910420000
(1763086628.716096) can0 000A0004#FFDFFFD9FF788E02
(1763086628.716491) can0 682#3F451C0400003700
(1763086628.716734) can0 382#3901130062010000
(1763086628.719761) can0 1A5#0000720D000000
(1763086628.720080) can0 1A4#0000EB09000000
(1763086628.720311) can0 2A3#0C10111111100C09
(1763086628.722061) can0 181#D10300207F000009
(1763086628.722281) can0 1A2#0000770D000000
(1763086628.722515) can0 2A1#0A0C0D0D0D0C0A06
(1763086628.724824) can0 482#0000030008360001
(1763086628.724995) can0 701#05
(1763086628.725817) can0 000A0003#FF19FFB810430000
(1763086628.726090) can0 000A0004#FFE0FFD9FF798E02
(1763086628.735820) can0 000A0003#FF1AFFB810440000
(1763086628.736094) can0 000A0004#FFDFFFD9FF788E02
(1763086628.736329) can0 382#4901FAFF62010000
(1763086628.742590) can0 186#9D034C1D09090000
(1763086628.742927) can0 189#C802F40170010351
(1763086628.743421) can0 19A#0000807273808280
(1763086628.743797) can0 080#
(1763086628.744425) can0 29A#7F71848085840000
(1763086628.744943) can0 286#0000580200000000
(1763086628.745800) can0 000A0003#FF1AFFB810470000
(1763086628.746086) can0 000A0004#FFDFFFD9FF788E02
(1763086628.746395) can0 701#05
(1763086628.746872) can0 482#0000030008360001
(1763086628.749280) can0 281#0000000004000000
(1763086628.753402) can0 188#0C00503300000000
(1763086628.754176) can0 288#11295C2200140000
(1763086628.755152) can0 388#2323242424000000
(1763086628.755803) can0 000A0003#FF1BFFBA10490000
(1763086628.756086) can0 000A0004#FFE0FFD9FF788E02
(1763086628.756276) can0 191#969696969696
(1763086628.757108) can0 192#969696969696
(1763086628.757454) can0 682#3F451C0400003700
(1763086628.757777) can0 382#6901190067010000
(1763086628.758113) can0 193#969696969696
(1763086628.759107) can0 194#969696969696
(1763086628.760114) can0 195#969696969696
(1763086628.761117) can0 291#111111111111
(1763086628.762127) can0 292#111111111211
(1763086628.763000) can0 181#D10300207F000009
(1763086628.763193) can0 293#111111121212
(1763086628.764098) can0 294#121212121212
(1763086628.765098) can0 295#121212131312
(1763086628.765802) can0 000A0003#FF1CFFBC104C0000
(1763086628.766094) can0 000A0004#FFE0FFDAFF788E02
(1763086628.768017) can0 701#05
(1763086628.768457) can0 482#0000030008360001
(1763086628.773539) can0 4C4#04C504B604B104B3
(1763086628.774551) can0 4C5#04AF04B304B404B4
(1763086628.775563) can0 4C6#04B904B904B104B5
(1763086628.775854) can0 000A0003#FF1CFFBE104F0000
(1763086628.776143) can0 000A0004#FFE0FFDAFF788E02
(1763086628.776579) can0 4C7#04AF04BA04B604C3
(1763086628.777614) can0 4C8#048E000000000000
(1763086628.779500) can0 382#5701150067010000
(1763086628.782553) can0 186#AE034C1D090A0000
(1763086628.785809) can0 000A0003#FF1CFFC010520000
(1763086628.786091) can0 000A0004#FFE0FFD9FF788E02
(1763086628.789858) can0 701#05
(1763086628.790082) can0 1A3#C0000509000000
(1763086628.790440) can0 482#0000030008360001
(1763086628.793045) can0 281#0000000004000000
(1763086628.795810) can0 000A0003#FF1DFFC010550000
(1763086628.796097) can0 000A0004#FFDFFFDAFF798E02
(1763086628.798375) can0 682#3F451C0400003700
(1763086628.801208) can0 382#450107006D010000
(1763086628.801544) can0 181#D10300207F000009
(1763086628.805807) can0 000A0003#FF1DFFC110590000
(1763086628.806097) can0 000A0004#FFE0FFDAFF788E02
(1763086628.806346) can0 1A0#000000000100
(1763086628.806820) can0 000A0000#0000000000000000
(1763086628.807119) can0 000A0001#0000000000000000
(1763086628.807419) can0 000A0002#0000000000000000
(1763086628.811908) can0 701#05
(1763086628.812479) can0 482#0000030008360001
(1763086628.815813) can0 000A0003#FF1EFFC2105E0000
(1763086628.816099) can0 000A0004#FFE0FFD9FF778E02
(1763086628.820434) can0 382#41011C006D010000
(1763086628.821996) can0 1A5#0000720D000000
(1763086628.822544) can0 186#BA034C1D090B0000
(1763086628.825808) can0 000A0003#FF1FFFC310610000
(1763086628.826090) can0 000A0004#FFE0FFD9FF778E02
(1763086628.827066) can0 1A4#0000EB09000000
(1763086628.827298) can0 2A3#0C10111111100C09
(1763086628.829736) can0 1A2#0000770D000000
(1763086628.829966) can0 2A1#0A0C0D0D0D0C0A06
(1763086628.833517) can0 701#05
(1763086628.833884) can0 482#0000030008360001
(1763086628.835805) can0 000A0003#FF20FFC310670000
(1763086628.836090) can0 000A0004#FFE1FFD8FF778E02
(1763086628.838719) can0 4C4#04BF04C204AB04B8
(1763086628.839324) can0 682#3F451C0400003700
(1763086628.839679) can0 181#D10300207F000009
(1763086628.839908) can0 4C5#04B404B804B404B4
(1763086628.840159) can0 281#0000000004000000
(1763086628.840747) can0 4C6#04B904B904B504B5
(1763086628.841763) can0 4C7#04B404BA04BB04C3
(1763086628.842480) can0 382#5401210072010000
(1763086628.842710) can0 189#CD02F3016F010351
(1763086628.842812) can0 080#
(1763086628.843064) can0 4C8#048E000000000000
(1763086628.843944) can0 286#0000580200000000
(1763086628.845816) can0 000A0003#FF21FFC4106B0000
(1763086628.846100) can0 000A0004#FFE1FFD9FF778E02
(1763086628.853332) can0 482#0000030008360001
(1763086628.853573) can0 188#0C00AD3200000000
(1763086628.854155) can0 288#11295C2A00140000
(1763086628.855159) can0 388#2323242424000000
(1763086628.855352) can0 701#05
(1763086628.855814) can0 000A0003#FF22FFC4106E0000
(1763086628.856097) can0 000A0004#FFE1FFD9FF778E02
(1763086628.856287) can0 191#969696969696
(1763086628.857132) can0 192#969696969696
(1763086628.858137) can0 193#969696969696
(1763086628.859114) can0 194#969696969696
(1763086628.860120) can0 195#969696969696
(1763086628.861127) can0 291#111111111111
(1763086628.862133) can0 292#111111111211
(1763086628.862539) can0 186#C6034C1D090C0000
(1763086628.863112) can0 293#111111121212
(1763086628.864104) can0 382#7301EFFF72010000
(1763086628.864295) can0 294#121212121212
(1763086628.865123) can0 295#121212131312
(1763086628.865810) can0 000A0003#FF22FFC410710000
(1763086628.866096) can0 000A0004#FFE2FFD9FF778E02
(1763086628.875814) can0 000A0003#FF20FFC310720000
(1763086628.876096) can0 000A0004#FFE2FFD9FF788E02
(1763086628.877278) can0 701#05
(1763086628.877645) can0 181#D10300207F000009
(1763086628.877983) can0 482#0000030008360001
(1763086628.880490) can0 682#3F451C0400003700
(1763086628.882880) can0 281#0000000004000000
(1763086628.885818) can0 000A0003#FF1EFFC310720000
(1763086628.886098) can0 000A0004#FFE2FFDDFF778E02
(1763086628.886338) can0 382#6101160076010000
(1763086628.891102) can0 1A3#C0000509000000
(1763086628.895816) can0 000A0003#FF1EFFC610730000
(1763086628.896099) can0 000A0004#FFE2FFDEFF778E02
(1763086628.899242) can0 701#05
(1763086628.899699) can0 482#0000030008360001
(1763086628.902540) can0 186#D7034C1D090D0000
(1763086628.903905) can0 4C4#04C004C304AC04B9
(1763086628.904915) can0 4C5#04B504BD04B904B5
(1763086628.905815) can0 000A0003#FF1EFFC710740000
(1763086628.906102) can0 000A0004#FFE1FFDFFF778E02
(1763086628.906331) can0 4C6#04B604BA04B604B6
(1763086628.906543) can0 1A0#000000000100
(1763086628.906843) can0 000A0000#0000000000000000
(1763086628.907145) can0 000A0001#0000000000000000
(1763086628.907442) can0 000A0002#0000000000000000
(1763086628.907680) can0 382#8601F4FF76010000
(1763086628.907915) can0 4C7#04B904BB04C104C4
(1763086628.908159) can0 4C8#048F000000000000
(1763086628.915812) can0 000A0003#FF1DFFC910740000
(1763086628.916096) can0 000A0004#FFE1FFDFFF778E02
(1763086628.916339) can0 181#D10300207F000009
(1763086628.921195) can0 682#3F451C0400003700
(1763086628.921312) can0 701#05
(1763086628.921765) can0 482#0000030008360001
(1763086628.924246) can0 1A5#0000720D000000
(1763086628.925816) can0 000A0003#FF1CFFCA10750000
(1763086628.926103) can0 000A0004#FFE2FFDFFF788E02
(1763086628.926669) can0 281#0000000004000000
(1763086628.929624) can0 382#8A0109007D010000
(1763086628.934053) can0 1A4#0000EB09000000
(1763086628.934281) can0 2A3#0C10111111100C09
(1763086628.935816) can0 000A0003#FF1BFFC910750000
(1763086628.936101) can0 000A0004#FFE2FFDEFF778E02
(1763086628.937316) can0 1A2#0000770D000000
(1763086628.937549) can0 2A1#0A0C0D0D0D0C0A06
(1763086628.942573) can0 186#E3034C1D090E0000
(1763086628.942687) can0 701#05
(1763086628.942952) can0 189#D102F60171010351
(1763086628.943702) can0 482#0000030008360001
(1763086628.943806) can0 080#
(1763086628.944930) can0 286#0000580200000000
(1763086628.945817) can0 000A0003#FF1AFFC910750000
(1763086628.946102) can0 000A0004#FFE2FFDEFF778E02
(1763086628.949421) can0 19A#00007D605F7D7D7D
(1763086628.950424) can0 29A#7D68817F80800000
(1763086628.951466) can0 382#5E01F8FF81010000
(1763086628.955822) can0 000A0003#FF19FFC910780000
(1763086628.956106) can0 000A0004#FFE1FFDFFF788E02
(1763086628.956803) can0 181#D10300207F000009
(1763086628.962442) can0 188#0C00D23200000000
(1763086628.963145) can0 288#11295C1D00140000
(1763086628.964154) can0 388#2323242424000000
(1763086628.964616) can0 701#05
(1763086628.964986) can0 482#0000030008360001
(1763086628.965174) can0 191#969696969696
(1763086628.965820) can0 000A0003#FF17FFC910790000
(1763086628.966105) can0 000A0004#FFE1FFDEFF788E02
(1763086628.966300) can0 192#969696969696
(1763086628.967116) can0 193#969696969696
(1763086628.968125) can0 194#969696969696
(1763086628.969113) can0 4C4#04B904B704B204B4
(1763086628.969304) can0 195#969696969696
(1763086628.970127) can0 4C5#04B504BD04B904B5
(1763086628.970317) can0 291#111111111111
(1763086628.970569) can0 281#0000000004000000
(1763086628.971145) can0 4C6#04BA04B604B604B6
(1763086628.971335) can0 292#111111111211
(1763086628.972158) can0 4C7#04B904BB04C604C9
(1763086628.972348) can0 293#111111121212
(1763086628.973132) can0 294#121212121212
(1763086628.973370) can0 382#8B010A0081010000
(1763086628.973614) can0 4C8#048F000000000000
(1763086628.974133) can0 295#121212131312
(1763086628.975823) can0 000A0003#FF18FFC810760000
(1763086628.976104) can0 000A0004#FFE2FFE2FF778E02
(1763086628.982532) can0 186#EF034C1D090F0000
(1763086628.985823) can0 000A0003#FF1AFFC710730000
(1763086628.986109) can0 000A0004#FFE3FFE2FF778E02
(1763086628.986362) can0 701#05
(1763086628.986941) can0 482#0000030008360001
(1763086628.992158) can0 1A3#C0000509000000
(1763086628.994890) can0 382#8A01EAFF86010000
(1763086628.995229) can0 181#D10300207F000009
(1763086628.995823) can0 000A0003#FF1BFFC710700000
(1763086628.996109) can0 000A0004#FFE4FFE2FF778E02
(1763086629.005830) can0 000A0003#FF1CFFC7106C0000
(1763086629.006109) can0 000A0004#FFE3FFE2FF778E02
(1763086629.006349) can0 682#3F451C0400003700
(1763086629.006561) can0 1A0#000000000100
(1763086629.006863) can0 000A0000#0000000000000000
(1763086629.007161) can0 000A0001#0000000000000000
(1763086629.007459) can0 000A0002#0000000000000000
(1763086629.008292) can0 701#05
(1763086629.008768) can0 482#0000030008360001
(1763086629.013888) can0 281#0000000004000000
(1763086629.015819) can0 000A0003#FF1CFFC7106B0000
(1763086629.016104) can0 000A0004#FFE3FFE2FF778E02
(1763086629.016945) can0 382#78010F0086010000
(1763086629.022528) can0 186#EF034C1D09000000
(1763086629.025829) can0 000A0003#FF1CFFC710680000
(1763086629.026111) can0 000A0004#FFE4FFE1FF778E02
(1763086629.026501) can0 1A5#0000720D000000
(1763086629.030067) can0 701#05
(1763086629.030476) can0 482#0000030008360001
(1763086629.034324) can0 4C4#04B904B704B204B4
(1763086629.035338) can0 4C5#04B504BD04B904B5
(1763086629.035825) can0 000A0003#FF1CFFC710670000
(1763086629.036107) can0 000A0004#FFE4FFE5FF778E02
(1763086629.036349) can0 181#D10300207F000009
(1763086629.036583) can0 4C6#04BA04B604B604B6
(1763086629.037365) can0 4C7#04B904BB04C604C9
(1763086629.038397) can0 4C8#048F000000000000
(1763086629.041040) can0 1A4#0000EB09000000
(1763086629.041272) can0 2A3#0C10111111100C09
(1763086629.041525) can0 382#81010E0086010000
(1763086629.042573) can0 189#D302F7016F010351
(1763086629.042807) can0 080#
(1763086629.043963) can0 286#0000580200000000
(1763086629.044887) can0 1A2#0000770D000000
(1763086629.045121) can0 2A1#0A0C0D0D0D0C0A06
(1763086629.045829) can0 000A0003#FF1CFFC610670000
(1763086629.046114) can0 000A0004#FFE5FFE5FF778E02
(1763086629.046856) can0 682#3F451C0400003700
(1763086629.051874) can0 701#05
(1763086629.052444) can0 482#0000030008360001
(1763086629.053404) can0 188#0C00F63200000000
(1763086629.054170) can0 288#11295C2A00140000
(1763086629.055172) can0 388#2323242424000000
(1763086629.055826) can0 000A0003#FF1DFFC610640000
(1763086629.056112) can0 000A0004#FFE3FFE4FF778E02
(1763086629.056300) can0 191#969696969696
(1763086629.057116) can0 192#969696969696
(1763086629.057689) can0 281#0000000004000000
(1763086629.058123) can0 193#969696969696
(1763086629.059127) can0 194#969696969696
(1763086629.060135) can0 195#969696969696
(1763086629.061109) can0 291#111111111111
(1763086629.062119) can0 292#111111111211
(1763086629.062527) can0 186#F5034C1D09010000
(1763086629.063125) can0 293#111111121212
(1763086629.063364) can0 382#5601190086010000
(1763086629.064137) can0 294#121212121212
(1763086629.065137) can0 295#121212131312
(1763086629.065825) can0 000A0003#FF1FFFC510620000
(1763086629.066112) can0 000A0004#FFE3FFE3FF788E02
(1763086629.073793) can0 701#05
(1763086629.074154) can0 181#D10300207F000009
(1763086629.074493) can0 482#0000030008360001
(1763086629.075836) can0 000A0003#FF22FFC4105F0000
(1763086629.076122) can0 000A0004#FFE3FFE3FF788E02
(1763086629.084966) can0 382#8F01F3FF89010000
(1763086629.085833) can0 000A0003#FF24FFC3105D0000
(1763086629.086121) can0 000A0004#FFE3FFE3FF798E02
(1763086629.087781) can0 682#3F451C0400003700
(1763086629.093216) can0 1A3#C0000509000000
(1763086629.095834) can0 000A0003#FF25FFC4105C0000
(1763086629.096120) can0 000A0004#FFE3FFE4FF798E02
(1763086629.098353) can0 701#05
(1763086629.098824) can0 482#0000030008360001
(1763086629.099514) can0 4C4#04BF04C204B104B3
(1763086629.100528) can0 4C5#04B404B304AF04B4
(1763086629.101453) can0 281#0000000004000000
(1763086629.101681) can0 4C6#04B504B504BA04B1
(1763086629.102524) can0 186#14044C1D09020000
(1763086629.102756) can0 4C7#04B804BA04C004C8
(1763086629.103593) can0 4C8#048E000000000000
(1763086629.105839) can0 000A0003#FF25FFC5105C0000
(1763086629.106126) can0 000A0004#FFE3FFE7FF798E02
(1763086629.106348) can0 1A0#000000000100
(1763086629.106845) can0 000A0000#0000000000000000
(1763086629.107144) can0 000A0001#0000000000000000
(1763086629.107442) can0 000A0002#0000000000000000
(1763086629.107680) can0 382#8601F8FF89010000
(1763086629.112381) can0 181#D10300207F000009
(1763086629.115834) can0 000A0003#FF24FFC4105C0000
(1763086629.116119) can0 000A0004#FFE4FFE7FF7A8E02
(1763086629.120099) can0 701#05
(1763086629.120539) can0 482#0000030008360001
(1763086629.125846) can0 000A0003#FF23FFC4105C0000
(1763086629.126130) can0 000A0004#FFE4FFE6FF798E02
(1763086629.128721) can0 682#3F451C0400003700
(1763086629.128947) can0 1A5#0000720D000000
(1763086629.135837) can0 000A0003#FF24FFC4105E0000
(1763086629.136119) can0 000A0004#FFE5FFE6FF798E02
(1763086629.138441) can0 19A#00007C54577B7C7C
(1763086629.139421) can0 29A#7D55827D80800000
(1763086629.141933) can0 701#05
(1763086629.142511) can0 482#0000030008360001
(1763086629.142745) can0 186#4D044C1D09030000
(1763086629.142981) can0 189#DA02FC016F010351
(1763086629.143794) can0 080#
(1763086629.144943) can0 286#0000580200000000
(1763086629.145196) can0 281#0000000004000000
(1763086629.145839) can0 000A0003#FF24FFC310610000
(1763086629.146126) can0 000A0004#FFE3FFE7FF7A8E02
(1763086629.148049) can0 1A4#0000EB09000000
(1763086629.148256) can0 2A3#0C10111111100C09
(1763086629.150473) can0 382#9801FEFFAB010000
(1763086629.150802) can0 181#D10300207F000009
(1763086629.152469) can0 1A2#0000770D000000
(1763086629.152695) can0 2A1#0A0C0D0D0D0D0A06
(1763086629.153402) can0 188#0C00083300000000
(1763086629.154156) can0 288#11295C2A00140000
(1763086629.155160) can0 388#2323242424000000
(1763086629.155841) can0 000A0003#FF24FFC210620000
(1763086629.156125) can0 000A0004#FFE3FFE6FF798E02
(1763086629.156314) can0 191#969696969696
(1763086629.157111) can0 192#969696969696
(1763086629.158132) can0 193#969696969696
(1763086629.159137) can0 194#969696969696
(1763086629.160111) can0 195#969696969696
(1763086629.161120) can0 291#111111111111
(1763086629.162128) can0 292#111111111211
(1763086629.163118) can0 293#111111121212
(1763086629.163871) can0 701#05
(1763086629.164128) can0 294#121212121212
(1763086629.164375) can0 482#0000030008360001
(1763086629.164712) can0 4C4#04BF04C204B104B3
(1763086629.165101) can0 295#121212131312
(1763086629.165727) can0 4C5#04B404B304AF04B9
(1763086629.166015) can0 000A0003#FF22FFC110630000
(1763086629.166296) can0 000A0004#FFE3FFE7FF7A8E02
(1763086629.166765) can0 4C6#04B904B504B504B1
(1763086629.167847) can0 4C7#04B804BA04C004CE
(1763086629.168842) can0 4C8#048E000000000000
(1763086629.169715) can0 682#3F451C0400003800
(1763086629.172550) can0 382#D601F9FFAB010000
(1763086629.175850) can0 000A0003#FF20FFC110630000
(1763086629.176131) can0 000A0004#FFE3FFE6FF798E02
(1763086629.182518) can0 186#66044C1D09040000
(1763086629.183295) can0 701#05
(1763086629.183664) can0 482#0000030008360001
(1763086629.185845) can0 000A0003#FF1EFFC210630000
(1763086629.186130) can0 000A0004#FFE3FFE6FF798E02
(1763086629.188689) can0 181#D10300207F000009
(1763086629.189004) can0 281#0000000004000000
(1763086629.194230) can0 382#AC010800B4010000
(1763086629.194456) can0 1A3#C0000509000000
(1763086629.195840) can0 000A0003#FF1EFFC210610000
(1763086629.196124) can0 000A0004#FFE4FFE6FF798E02
(1763086629.205848) can0 000A0003#FF1FFFC4105F0000
(1763086629.206134) can0 000A0004#FFE4FFE6FF798E02
(1763086629.206352) can0 1A0#000000000100
(1763086629.206853) can0 000A0000#0000000000000000
(1763086629.207152) can0 000A0001#0000000000000000
(1763086629.207450) can0 000A0002#0000000000000000
(1763086629.207566) can0 701#05
(1763086629.208022) can0 482#0000030008360001
(1763086629.210839) can0 682#3F451C0400003800
(1763086629.215844) can0 000A0003#FF1DFFC4105D0000
(1763086629.216130) can0 000A0004#FFE4FFE5FF798E02
(1763086629.216366) can0 382#A101E4FFB4010000
(1763086629.222514) can0 186#66044C1D09050000
(1763086629.225851) can0 000A0003#FF1AFFC3105B0000
(1763086629.226137) can0 000A0004#FFE4FFE6FF798E02
(1763086629.229357) can0 701#05
(1763086629.229725) can0 181#D10300207F000009
(1763086629.229957) can0 4C4#04B904BD04AC04B4
(1763086629.230204) can0 482#0000030008360001
(1763086629.230936) can0 4C5#04B504BD04B504BE
(1763086629.231162) can0 1A5#0000720D000000
(1763086629.231946) can0 4C6#04BA04B604B604B2
(1763086629.232966) can0 4C7#04B904BB04C104CF
(1763086629.233991) can0 4C8#048F000000000000
(1763086629.234959) can0 281#0000000004000000
(1763086629.235840) can0 000A0003#FF19FFC510590000
(1763086629.236124) can0 000A0004#FFE4FFE5FF798E02
(1763086629.238018) can0 382#B501E7FFB4010000
(1763086629.242560) can0 189#DD02FE0171010351
(1763086629.242794) can0 080#
(1763086629.243946) can0 286#0000580200000000
(1763086629.245842) can0 000A0003#FF17FFC610560000
(1763086629.246128) can0 000A0004#FFE0FFE4FF7A8E02
(1763086629.251104) can0 701#05
(1763086629.251471) can0 482#0000030008360001
(1763086629.251805) can0 682#3F451C0400003800
(1763086629.253427) can0 188#0C00FF3200000000
(1763086629.254187) can0 288#11295C2A00140000
(1763086629.255037) can0 1A4#0000EB09000000
(1763086629.255269) can0 2A3#0C10111111100C09
(1763086629.255505) can0 388#2323242424000000
(1763086629.255850) can0 000A0003#FF17FFC510510000
(1763086629.256137) can0 000A0004#FFE0FFE3FF7A8E02
(1763086629.256327) can0 191#969696969696
(1763086629.257133) can0 192#969696969696
(1763086629.258137) can0 193#969696969696
(1763086629.259113) can0 194#969696969696
(1763086629.259988) can0 382#AF01FEFFB4010000
(1763086629.260176) can0 195#969696969696
(1763086629.260398) can0 1A2#0000770D000000
(1763086629.260628) can0 2A1#0A0C0D0D0D0D0A06
(1763086629.261126) can0 291#111111111111
(1763086629.262134) can0 292#111111111211
(1763086629.262510) can0 186#64044C1D09060000
(1763086629.263143) can0 293#111211121212
(1763086629.264122) can0 294#121212121212
(1763086629.265124) can0 295#121212131312
(1763086629.265842) can0 000A0003#FF17FFC3104E0000
(1763086629.266130) can0 000A0004#FFE0FFE3FF7A8E02
(1763086629.267951) can0 181#D10300207F000009
(1763086629.270549) can0 701#05
(1763086629.271019) can0 482#0000030008360001
(1763086629.275854) can0 000A0003#FF18FFC2104C0000
(1763086629.276139) can0 000A0004#FFE1FFE3FF7B8E02
(1763086629.276391) can0 281#0000000004000000
(1763086629.281475) can0 382#C301F6FFB4010000
(1763086629.285856) can0 000A0003#FF17FFC4104B0000
(1763086629.286139) can0 000A0004#FFE5FFE3FF7A8E02
(1763086629.292050) can0 701#05
(1763086629.292488) can0 482#0000030008360001
(1763086629.292751) can0 682#3F451C0400003900
(1763086629.295121) can0 4C4#04C004C304AC04B9
(1763086629.295347) can0 1A3#C0000509000000
(1763086629.295856) can0 000A0003#FF16FFC6104A0000
(1763086629.296141) can0 000A0004#FFE5FFE3FF7A8E02
(1763086629.296371) can0 4C5#04B904C204B504B1
(1763086629.297149) can0 4C6#04BE04B604B604B2
(1763086629.298161) can0 4C7#04B904BB04C104C9
(1763086629.299192) can0 4C8#048F000000000000
(1763086629.302511) can0 186#7F044C1D09070000
(1763086629.303655) can0 382#B101F3FFB4010000
(1763086629.305854) can0 000A0003#FF15FFC8104A0000
(1763086629.306141) can0 000A0004#FFE5FFE3FF7B8E02
(1763086629.306383) can0 181#D10300207F000009
(1763086629.306595) can0 1A0#000000000100
(1763086629.306895) can0 000A0000#0000000000000000
(1763086629.307196) can0 000A0001#0000000000000000
(1763086629.307494) can0 000A0002#0000000000000000
(1763086629.313890) can0 701#05
(1763086629.314458) can0 482#0000040008360001
(1763086629.315851) can0 000A0003#FF12FFCA10490000
(1763086629.316136) can0 000A0004#FFE6FFE2FF7B8E02
(1763086629.319688) can0 281#0000000004000000
(1763086629.325240) can0 382#C301FAFFBE010000
(1763086629.325855) can0 000A0003#FF0EFFCC10470000
(1763086629.326143) can0 000A0004#FFE7FFE3FF7C8E02
(1763086629.333168) can0 1A5#0000720D000000
(1763086629.333434) can0 682#3F451C0400003900
(1763086629.335852) can0 000A0003#FF0CFFCD10490000
(1763086629.336138) can0 000A0004#FFE7FFE3FF7C8E02
(1763086629.336254) can0 701#05
(1763086629.336504) can0 482#0000040008360001
(1763086629.342544) can0 186#7F044C1D09080000
(1763086629.342947) can0 189#DF02FF0171010351
(1763086629.343813) can0 080#
(1763086629.344439) can0 19A#00007C54567B7C7D
(1763086629.344681) can0 181#D10300207F000009
(1763086629.344964) can0 286#0000580200000000
(1763086629.345447) can0 29A#7E5E827D80800000
(1763086629.345855) can0 000A0003#FF0BFFCD104B0000
(1763086629.346143) can0 000A0004#FFE6FFE2FF7C8E02
(1763086629.347195) can0 382#B6010800BE010000
(1763086629.353375) can0 188#0C00593300000000
(1763086629.354315) can0 288#11295C2A00140000
(1763086629.355170) can0 388#2323242424000000
(1763086629.355863) can0 000A0003#FF0AFFCE104E0000
(1763086629.356145) can0 000A0004#FFE6FFE1FF7C8E02
(1763086629.356335) can0 191#969696969696
(1763086629.357139) can0 192#969696969696
(1763086629.357634) can0 701#05
(1763086629.358008) can0 482#0000040008360001
(1763086629.358200) can0 193#969696969696
(1763086629.359102) can0 194#969696969696
(1763086629.360110) can0 195#969696969696
(1763086629.360341) can0 4C4#04C004C304AC04B9
(1763086629.361112) can0 291#111111111111
(1763086629.361342) can0 4C5#04B904C204B504B1
(1763086629.362025) can0 1A4#0000EB09000000
(1763086629.362217) can0 292#111111111211
(1763086629.362448) can0 2A3#0C10111111100C09
(1763086629.362681) can0 4C6#04BE04B604B604B2
(1763086629.363115) can0 293#111211121212
(1763086629.363357) can0 4C7#04B904BB04C104C9
(1763086629.363609) can0 281#0000000004000000
(1763086629.364126) can0 294#121212121212
(1763086629.364389) can0 4C8#048F000000000000
(1763086629.365130) can0 295#121212131312
(1763086629.365856) can0 000A0003#FF09FFCE10520000
(1763086629.366142) can0 000A0004#FFE6FFE1FF7C8E02
(1763086629.367622) can0 1A2#0000770D000000
(1763086629.367852) can0 2A1#0A0C0D0D0D0D0A06
(1763086629.369046) can0 382#CC010200BE010000
(1763086629.374366) can0 682#3F451C0400003900
(1763086629.375855) can0 000A0003#FF0AFFCF10540000
(1763086629.376140) can0 000A0004#FFE6FFE1FF7C8E02
(1763086629.377003) can0 701#05
(1763086629.377460) can0 482#0000040008360001
(1763086629.382503) can0 186#9F044C1D09090000
(1763086629.382743) can0 181#D10300207F000009
(1763086629.385857) can0 000A0003#FF0BFFD110580000
(1763086629.386146) can0 000A0004#FFE6FFE0FF7D8E02
(1763086629.390746) can0 382#C1010500CB010000
(1763086629.395858) can0 000A0003#FF0CFFD2105B0000
(1763086629.396144) can0 000A0004#FFE6FFE0FF7C8E02
(1763086629.396410) can0 1A3#C0000509000000
(1763086629.398489) can0 701#05
(1763086629.398929) can0 482#0000040008360001
(1763086629.405865) can0 000A0003#FF0BFFD110600000
(1763086629.406151) can0 000A0004#FFE6FFDFFF7D8E02
(1763086629.406363) can0 1A0#000000000100
(1763086629.406871) can0 000A0000#0000000000000000
(1763086629.407171) can0 000A0001#0000000000000000
(1763086629.407469) can0 000A0002#0000000000000000
(1763086629.409756) can0 281#0000000005000000
(1763086629.412482) can0 382#C601F1FFCB010000
(1763086629.415306) can0 682#3F451C0400003900
(1763086629.415860) can0 000A0003#FF0BFFD110620000
(1763086629.416147) can0 000A0004#FFE6FFDFFF7D8E02
(1763086629.420331) can0 701#05
(1763086629.420796) can0 181#D10300207F000009
(1763086629.421135) can0 482#0000040008360001
(1763086629.422496) can0 186#9F044C1D090A0000
(1763086629.425518) can0 4C4#04C004BD04AC04AF
(1763086629.425863) can0 000A0003#FF09FFD310650000
(1763086629.426151) can0 000A0004#FFE6FFDFFF7D8E02
(1763086629.426529) can0 4C5#04B504B904B504B5
(1763086629.427547) can0 4C6#04B604BA04AE04AD
(1763086629.428559) can0 4C7#04B904B604BC04C4
(1763086629.429587) can0 4C8#048F000000000000
(1763086629.434534) can0 382#C601F1FFCB010000
(1763086629.435403) can0 1A5#0000720D000000
(1763086629.435859) can0 000A0003#FF09FFD310670000
(1763086629.436142) can0 000A0004#FFE6FFDEFF7C8E02
(1763086629.442251) can0 701#05
(1763086629.442558) can0 189#E102020271010351
(1763086629.442804) can0 482#0000040008360001
(1763086629.442903) can0 080#
(1763086629.443966) can0 286#0000580200000000
(1763086629.445871) can0 000A0003#FF0AFFD310680000
(1763086629.446156) can0 000A0004#FFE6FFDEFF7C8E02
(1763086629.453386) can0 188#0C00623300000000
(1763086629.453658) can0 382#B9012700CB010000
(1763086629.454169) can0 288#11295C2A00140000
(1763086629.455173) can0 388#2323242424000000
(1763086629.455872) can0 000A0003#FF0BFFD210670000
(1763086629.456158) can0 000A0004#FFE6FFDEFF7C8E02
(1763086629.456348) can0 191#969696969696
(1763086629.456596) can0 281#0000000005000000
(1763086629.456843) can0 682#3F451C0400003A00
(1763086629.457147) can0 192#969696969696
(1763086629.458121) can0 193#969696969696
(1763086629.458990) can0 181#D10300207F000009
(1763086629.459182) can0 194#969696969696
(1763086629.460135) can0 195#969696969696
(1763086629.461140) can0 291#111111111111
(1763086629.462118) can0 292#111111111211
(1763086629.462496) can0 186#A7044C1D090B0000
(1763086629.463126) can0 293#111211121212
(1763086629.464136) can0 294#121212121212
(1763086629.464250) can0 701#05
(1763086629.464579) can0 482#0000040008360001
(1763086629.465139) can0 295#121212131312
(1763086629.465863) can0 000A0003#FF0BFFCF10650000
(1763086629.466151) can0 000A0004#FFE6FFDFFF7C8E02
(1763086629.469017) can0 1A4#0000EB09000000
(1763086629.469244) can0 2A3#0C10111111100C09
(1763086629.475201) can0 1A2#0000770D000000
(1763086629.475431) can0 2A1#0A0C0D0D0D0D0A06
(1763086629.475674) can0 382#B901FFFFCE010000
(1763086629.475962) can0 000A0003#FF0BFFCE10630000
(1763086629.476247) can0 000A0004#FFE6FFDFFF7C8E02
(1763086629.483425) can0 701#05
(1763086629.483897) can0 482#0000040008360001
(1763086629.485866) can0 000A0003#FF0CFFCD10640000
(1763086629.486152) can0 000A0004#FFE6FFDEFF7C8E02
(1763086629.490719) can0 4C4#04C004BD04AC04AF
(1763086629.491730) can0 4C5#04B504B904B504B5
(1763086629.492749) can0 4C6#04B604BA04AE04AD
(1763086629.493758) can0 4C7#04B904B604BC04C4
(1763086629.494789) can0 4C8#048F000000000000
(1763086629.495875) can0 000A0003#FF0DFFCE10640000
(1763086629.496161) can0 000A0004#FFE5FFE3FF7C8E02
(1763086629.497104) can0 382#C1010800CE010000
(1763086629.497478) can0 1A3#C0000509000000
(1763086629.499833) can0 181#D10300207F000009
(1763086629.500141) can0 281#0000000005000000
(1763086629.500385) can0 682#3F451C0400003A00
(1763086629.502494) can0 186#B2044C1D090C0000
(1763086629.505046) can0 701#05
(1763086629.505412) can0 482#0000040008360001
(1763086629.505866) can0 000A0003#FF11FFCE10630000
(1763086629.506152) can0 000A0004#FFE4FFE2FF7D8E02
(1763086629.506365) can0 1A0#000000000100
(1763086629.506885) can0 000A0000#0000000000000000
(1763086629.507185) can0 000A0001#0000000000000000
(1763086629.507483) can0 000A0002#0000000000000000
(1763086629.515871) can0 000A0003#FF14FFCE10610000
(1763086629.516155) can0 000A0004#FFE1FFE1FF7D8E02
(1763086629.518920) can0 382#D1011900D2010000
(1763086629.525872) can0 000A0003#FF16FFCC105F0000
(1763086629.526156) can0 000A0004#FFDDFFE1FF7D8E02
(1763086629.526775) can0 701#05
(1763086629.527347) can0 482#0000040008360001
(1763086629.535877) can0 000A0003#FF19FFCA105D0000
(1763086629.536162) can0 000A0004#FFDEFFE1FF7D8E02
(1763086629.537616) can0 1A5#0000720D000000
(1763086629.538234) can0 181#D10300207F000009
(1763086629.540972) can0 682#3F451C0400003A00
(1763086629.541212) can0 382#CF01FAFFD2010000
(1763086629.542520) can0 186#B2044C1D090D0000
(1763086629.542964) can0 189#E202020270010451
(1763086629.543719) can0 281#0000000005000000
(1763086629.543832) can0 080#
(1763086629.544947) can0 286#0000580200000000
(1763086629.545872) can0 000A0003#FF18FFC5105B0000
(1763086629.546159) can0 000A0004#FFDEFFE1FF7D8E02
(1763086629.548696) can0 701#05
(1763086629.549164) can0 482#0000040008360001
(1763086629.550438) can0 19A#00007C5B607C7C7C
(1763086629.551440) can0 29A#7D5B807D80800000
(1763086629.553446) can0 188#0C00473300000000
(1763086629.554178) can0 288#11295C2A00140000
(1763086629.555182) can0 388#2323242424000000
(1763086629.555872) can0 000A0003#FF17FFC210590000
(1763086629.556158) can0 000A0004#FFDEFFE1FF7D8E02
(1763086629.556348) can0 191#969696969696
(1763086629.556582) can0 4C4#04C004BD04A704B9
(1763086629.556933) can0 4C5#04B504B404B904B5
(1763086629.557126) can0 192#969696969696
(1763086629.557944) can0 4C6#04B604B604B204B2
(1763086629.558137) can0 193#969696969696
(1763086629.558959) can0 4C7#04B504B604BC04C9
(1763086629.559150) can0 194#969696969696
(1763086629.559990) can0 4C8#048F000000000000
(1763086629.560176) can0 195#969696969696
(1763086629.561114) can0 291#111111111111
(1763086629.562122) can0 292#111111111211
(1763086629.562699) can0 382#0202F9FFD2010000
(1763086629.563130) can0 293#111111121212
(1763086629.564141) can0 294#121212121212
(1763086629.565146) can0 295#121212131312
(1763086629.565878) can0 000A0003#FF16FFC010580000
(1763086629.566167) can0 000A0004#FFE3FFE1FF7E8E02
(1763086629.570434) can0 701#05
(1763086629.570877) can0 482#0000040008360001
(1763086629.575881) can0 000A0003#FF15FFBD10570000
(1763086629.576167) can0 000A0004#FFE3FFE1FF7E8E02
(1763086629.576409) can0 181#D10300207F000009
(1763086629.576635) can0 1A4#0000EB09000000
(1763086629.576868) can0 2A3#0C10111111100C09
(1763086629.581913) can0 682#3F451C0400003A00
(1763086629.582241) can0 382#CB010700D2010000
(1763086629.582489) can0 186#C0044C1D090E0000
(1763086629.582803) can0 1A2#0000770D000000
(1763086629.583033) can0 2A1#0A0C0D0D0D0D0A06
(1763086629.585879) can0 000A0003#FF15FFBD10550000
(1763086629.586164) can0 000A0004#FFE4FFE1FF7E8E02
(1763086629.587042) can0 281#0000000005000000
(1763086629.589779) can0 701#05
(1763086629.590336) can0 482#0000040008360001
(1763086629.595881) can0 000A0003#FF14FFBB10530000
(1763086629.596162) can0 000A0004#FFE4FFE1FF7E8E02
(1763086629.598525) can0 1A3#C0000509000000
(1763086629.605882) can0 000A0003#FF13FFBA10500000
(1763086629.606167) can0 000A0004#FFE4FFE1FF7E8E02
(1763086629.606380) can0 1A0#000000000100
(1763086629.606618) can0 382#DF010A00D7010000
(1763086629.606917) can0 000A0000#0000000000000000
(1763086629.607217) can0 000A0001#0000000000000000
(1763086629.607515) can0 000A0002#0000000000000000
(1763086629.611373) can0 701#05
(1763086629.611740) can0 482#0000040008360001
(1763086629.614463) can0 181#D10300207F000009
(1763086629.615884) can0 000A0003#FF12FFB9104D0000
(1763086629.616170) can0 000A0004#FFE3FFE2FF7E8E02
(1763086629.621126) can0 4C4#04C004C304B204B9
(1763086629.622137) can0 4C5#04B904B404B504BA
(1763086629.622475) can0 186#C7044C1D090F0000
(1763086629.622961) can0 682#3F451C0400003A00
(1763086629.623192) can0 4C6#04BA04BA04B604AD
(1763086629.624172) can0 4C7#04BE04BB04C604C9
(1763086629.625194) can0 4C8#048F000000000000
(1763086629.625880) can0 000A0003#FF14FFBA104B0000
(1763086629.626166) can0 000A0004#FFE4FFE2FF7E8E02
(1763086629.628195) can0 382#D3010E00DA010000
(1763086629.633218) can0 701#05
(1763086629.633674) can0 281#0000000005000000
(1763086629.633991) can0 482#0000040008360001
(1763086629.635884) can0 000A0003#FF15FFBA104A0000
(1763086629.636169) can0 000A0004#FFE4FFE2FF7E8E02
(1763086629.639835) can0 1A5#0000720D000000
(1763086629.642523) can0 189#E402020271010451
(1763086629.642827) can0 080#
(1763086629.643949) can0 286#0000580200000000
(1763086629.645886) can0 000A0003#FF16FFBA10490000
(1763086629.646174) can0 000A0004#FFE3FFE2FF7E8E02
(1763086629.649928) can0 382#B7012C00DA010000
(1763086629.653417) can0 188#0C001E3300000000
(1763086629.654185) can0 288#11295C2A00140000
(1763086629.655187) can0 388#2323242424000000
(1763086629.655304) can0 701#05
(1763086629.655596) can0 181#D10300207F000009
(1763086629.655881) can0 000A0003#FF16FFB910480000
(1763086629.656166) can0 000A0004#FFE4FFE2FF7D8E02
(1763086629.656356) can0 191#969696969696
(1763086629.656602) can0 482#0000040008360001
(1763086629.657132) can0 192#969696969696
(1763086629.658136) can0 193#969696969696
(1763086629.659142) can0 194#969696969696
(1763086629.660118) can0 195#969696969696
(1763086629.661124) can0 291#111111111111
(1763086629.662132) can0 292#111111111211
(1763086629.662482) can0 186#C0044C1D09000000
(1763086629.663140) can0 293#111111121212
(1763086629.663938) can0 682#3F451C0400003A00
(1763086629.664149) can0 294#121212121212
(1763086629.665121) can0 295#121212131312
(1763086629.665886) can0 000A0003#FF14FFB810480000
(1763086629.666174) can0 000A0004#FFE4FFE1FF7D8E02
(1763086629.674498) can0 382#E2010200D7010000
(1763086629.675881) can0 000A0003#FF12FFB810480000
(1763086629.676166) can0 000A0004#FFE3FFE1FF7D8E02
(1763086629.677103) can0 281#0000000005000000
(1763086629.677223) can0 701#05
(1763086629.677544) can0 482#0000040008360001
(1763086629.682999) can0 1A4#0000EB09000000
(1763086629.683230) can0 2A3#0C10111111100C09
(1763086629.685890) can0 000A0003#FF11FFB910470000
(1763086629.686178) can0 000A0004#FFE4FFE1FF7C8E02
(1763086629.686412) can0 4C4#04C004C304B204B9
(1763086629.687334) can0 4C5#04B904B404B504BA
(1763086629.688351) can0 4C6#04BA04BA04B604AD
(1763086629.689369) can0 4C7#04BE04BB04C604C9
(1763086629.690395) can0 4C8#048F000000000000
(1763086629.690617) can0 1A2#0000770D000000
(1763086629.690851) can0 2A1#0A0C0D0D0D0C0A06
(1763086629.693726) can0 181#D10300207F000009
(1763086629.695889) can0 000A0003#FF0FFFB910460000
(1763086629.696174) can0 000A0004#FFE3FFE1FF7D8E02
(1763086629.696290) can0 701#05
(1763086629.696649) can0 382#DA01FBFFD7010000
(1763086629.697019) can0 482#0000040008360001
(1763086629.699581) can0 1A3#C0000509000000
(1763086629.702475) can0 186#CD044C1D09010000
(1763086629.704858) can0 682#3F451B0400003A00
(1763086629.705890) can0 000A0003#FF11FFBB10440000
(1763086629.706175) can0 000A0004#FFE4FFE2FF7D8E02
(1763086629.706388) can0 1A0#000000000100
(1763086629.706905) can0 000A0000#0000000000000000
(1763086629.707204) can0 000A0001#0000000000000000
(1763086629.707502) can0 000A0002#0000000000000000
(1763086629.715889) can0 000A0003#FF12FFBC10430000
(1763086629.716177) can0 000A0004#FFE4FFE1FF7D8E02
(1763086629.717815) can0 701#05
(1763086629.718184) can0 482#0000040008360001
(1763086629.718588) can0 382#DE010D00DC010000
(1763086629.718858) can0 281#0000000005000000
(1763086629.725889) can0 000A0003#FF13FFB910460000
(1763086629.726171) can0 000A0004#FFE5FFE1FF7B8E02
(1763086629.731911) can0 181#D10300207F000009
(1763086629.735888) can0 000A0003#FF14FFB610490000
(1763086629.736175) can0 000A0004#FFE5FFE0FF7C8E02
(1763086629.737361) can0 701#05
(1763086629.737732) can0 482#0000040008360001
(1763086629.739423) can0 19A#0000888F8E898787
(1763086629.739995) can0 382#C9011300DC010000
(1763086629.740428) can0 29A#84938D8686850000
(1763086629.742056) can0 1A5#0000720D000000
(1763086629.742508) can0 186#C1044C1D09020000
(1763086629.742952) can0 189#E202030270010451
(1763086629.743816) can0 080#
(1763086629.744963) can0 286#0000580200000000
(1763086629.745808) can0 682#3F451C0400003A00
(1763086629.746094) can0 000A0003#FF17FFB610490000
(1763086629.746379) can0 000A0004#FFE6FFDFFF7B8E02
(1763086629.751520) can0 4C4#04C004BD04B204AF
(1763086629.752530) can0 4C5#04B504BD04B504BA
(1763086629.753549) can0 4C6#04BA04B604B604B6
(1763086629.754560) can0 4C7#04B504BB04BC04C4
(1763086629.755588) can0 4C8#048F000000000000
(1763086629.755893) can0 000A0003#FF1BFFB510490000
(1763086629.756181) can0 000A0004#FFE6FFDFFF7C8E02
(1763086629.761582) can0 701#05
(1763086629.761937) can0 281#0000000005000000
(1763086629.762187) can0 482#0000040008360001
(1763086629.762523) can0 382#A701FEFFD7010000
(1763086629.765890) can0 000A0003#FF1EFFB5104A0000
(1763086629.766175) can0 000A0004#FFE6FFDFFF7B8E02
(1763086629.770034) can0 181#D10300207F000009
(1763086629.775898) can0 000A0003#FF1FFFB6104B0000
(1763086629.776181) can0 000A0004#FFE6FFDFFF7B8E02
(1763086629.782465) can0 186#CD044C1D09030000
(1763086629.783793) can0 482#0000040008360001
(1763086629.783971) can0 701#05
(1763086629.784213) can0 382#C9011200D7010000
(1763086629.785891) can0 000A0003#FF21FFB6104C0000
(1763086629.786177) can0 000A0004#FFE6FFDFFF7B8E02
(1763086629.789123) can0 682#3F451C0400003A00
(1763086629.789990) can0 1A4#0000EB09000000
(1763086629.790222) can0 2A3#0C10111111100C09
(1763086629.795890) can0 000A0003#FF22FFB7104E0000
(1763086629.796176) can0 000A0004#FFE6FFE0FF7B8E02
(1763086629.797984) can0 1A2#0000770D000000
(1763086629.798219) can0 2A1#0A0C0D0D0D0C0A06
(1763086629.800627) can0 1A3#C0000509000000
(1763086629.805163) can0 701#05
(1763086629.805597) can0 382#C2010C00DC010000
(1763086629.805896) can0 000A0003#FF24FFB7104E0000
(1763086629.806182) can0 000A0004#FFE7FFE0FF7B8E02
(1763086629.806394) can0 1A0#000000000100
(1763086629.806643) can0 281#0000000005000000
(1763086629.806943) can0 000A0000#0000000000000000
(1763086629.807243) can0 000A0001#0000000000000000
(1763086629.807541) can0 000A0002#0000000000000000
(1763086629.807785) can0 188#0C00FF3200000000
(1763086629.808028) can0 482#0000040008360001
(1763086629.808266) can0 288#11295C1D00140000
(1763086629.809160) can0 388#2323242424000000
(1763086629.810122) can0 191#969696969696
(1763086629.811057) can0 181#D10300207F000009
(1763086629.811252) can0 192#969696969696
(1763086629.812130) can0 193#969696969696
(1763086629.813137) can0 194#969696969696
(1763086629.814141) can0 195#969696969696
(1763086629.815147) can0 291#111111111111
(1763086629.815912) can0 000A0003#FF25FFB7104F0000
(1763086629.816196) can0 000A0004#FFE7FFE0FF7B8E02
(1763086629.816388) can0 292#111111111211
(1763086629.816723) can0 4C4#04C004BD04B204AF
(1763086629.817133) can0 293#111111121212
(1763086629.817731) can0 4C5#04B504BD04B504BA
(1763086629.818141) can0 294#121212121212
(1763086629.818747) can0 4C6#04BA04B604B604B6
(1763086629.819145) can0 295#121212131312
(1763086629.819777) can0 4C7#04B504BB04BC04C4
(1763086629.820790) can0 4C8#048F000000000000
(1763086629.822462) can0 186#C5044C1D09040000
(1763086629.824688) can0 701#05
(1763086629.825159) can0 382#0D02F8FFDC010000
(1763086629.825903) can0 000A0003#FF26FFB8104F0000
(1763086629.826191) can0 000A0004#FFE6FFE0FF7B8E02
(1763086629.830062) can0 682#3F451C0400003A00
(1763086629.830516) can0 482#0000040008360001
(1763086629.835902) can0 000A0003#FF26FFB910500000
(1763086629.836184) can0 000A0004#FFE2FFDEFF7A8E02
(1763086629.842508) can0 189#E402060271010451
(1763086629.842815) can0 080#
(1763086629.843967) can0 286#0000580200000000
(1763086629.844265) can0 1A5#0000720D000000
(1763086629.845905) can0 000A0003#FF26FFBB10550000
(1763086629.846192) can0 000A0004#FFE3FFDEFF7B8E02
(1763086629.849056) can0 281#0000000005000000
(1763086629.849175) can0 701#05
(1763086629.849502) can0 382#CD01DEFFD9010000
(1763086629.849844) can0 181#D10300207F000009
(1763086629.852255) can0 482#0000040008360001
(1763086629.853440) can0 188#0C00F63200000000
(1763086629.854169) can0 288#11295C2A00140000
(1763086629.855172) can0 388#2323242424000000
(1763086629.855899) can0 000A0003#FF26FFBD10580000
(1763086629.856182) can0 000A0004#FFE4FFDEFF7B8E02
(1763086629.856376) can0 191#969696969696
(1763086629.857144) can0 192#969696969696
(1763086629.858151) can0 193#969696969696
(1763086629.859127) can0 194#969696969696
(1763086629.860134) can0 195#969696969696
(1763086629.861139) can0 291#111111111111
(1763086629.862149) can0 292#111111111111
(1763086629.862480) can0 186#C7044C1D09050000
(1763086629.863125) can0 293#111211121212
(1763086629.864134) can0 294#121212121212
(1763086629.865135) can0 295#121212131312
(1763086629.865905) can0 000A0003#FF28FFC0105D0000
(1763086629.866191) can0 000A0004#FFE4FFDFFF7B8E02
(1763086629.871003) can0 682#3F451C0400003A00
(1763086629.871122) can0 701#05
(1763086629.871435) can0 382#E401F8FFDA010000
(1763086629.873729) can0 482#0000040008360001
(1763086629.875914) can0 000A0003#FF2AFFC310610000
(1763086629.876199) can0 000A0004#FFE3FFDEFF7B8E02
(1763086629.881906) can0 4C4#04C004BD04AC04B9
(1763086629.882917) can0 4C5#04B504B904B504B5
(1763086629.883930) can0 4C6#04BA04B604B604B2
(1763086629.884945) can0 4C7#04B504B104C104C4
(1763086629.885903) can0 000A0003#FF2BFFC710650000
(1763086629.886191) can0 000A0004#FFE3FFDFFF7B8E02
(1763086629.886435) can0 4C8#048F000000000000
(1763086629.887488) can0 181#D10300207F000009
(1763086629.892585) can0 701#05
(1763086629.892943) can0 281#0000000005000000
(1763086629.893192) can0 482#0000040008360001
(1763086629.893644) can0 382#0B02DAFFDA010000
(1763086629.895901) can0 000A0003#FF2CFFC910670000
(1763086629.896186) can0 000A0004#FFE3FFDBFF7B8E02
(1763086629.896976) can0 1A4#0000EB09000000
(1763086629.897208) can0 2A3#0C10111111100C09
(1763086629.901691) can0 1A3#C0000509000000
(1763086629.902455) can0 186#D4044C1D09060000
(1763086629.905592) can0 1A2#0000770D000000
(1763086629.905825) can0 2A1#0A0C0D0D0D0C0A06
(1763086629.906115) can0 000A0003#FF2EFFCB10680000
(1763086629.906401) can0 000A0004#FFE3FFDAFF7B8E02
(1763086629.906613) can0 1A0#000000000100
(1763086629.906920) can0 000A0000#0000000000000000
(1763086629.907221) can0 000A0001#0000000000000000
(1763086629.907519) can0 000A0002#0000000000000000
(1763086629.911953) can0 682#3F451C0400003A00
(1763086629.912136) can0 701#05
(1763086629.915910) can0 000A0003#FF31FFCE10680000
(1763086629.916192) can0 000A0004#FFE2FFDAFF7A8E02
(1763086629.917405) can0 382#D501E8FFDF010000
(1763086629.917845) can0 482#0000040008360001
(1763086629.925693) can0 181#D10300207F000009
(1763086629.925977) can0 000A0003#FF32FFCF10670000
(1763086629.926270) can0 000A0004#FFE2FFDBFF7B8E02
(1763086629.935931) can0 000A0003#FF33FFCF10660000
(1763086629.936193) can0 000A0004#FFE2FFDBFF7B8E02
(1763086629.936308) can0 701#05
(1763086629.936644) can0 281#0000000005000000
(1763086629.939481) can0 482#0000040008360001
(1763086629.941968) can0 382#0202FAFFDF010000
(1763086629.942487) can0 186#DC044C1D09070000
(1763086629.942965) can0 189#E402030271010451
(1763086629.943829) can0 080#
(1763086629.944949) can0 286#0000580200000000
(1763086629.945427) can0 19A#00007E81897F7E7E
(1763086629.945911) can0 000A0003#FF31FFCF10660000
(1763086629.946195) can0 000A0004#FFE2FFDAFF7B8E02
(1763086629.946433) can0 29A#7E8E838281810000
(1763086629.946659) can0 1A5#0000720D000000
(1763086629.947109) can0 4C4#04C604BD04AC04B4
(1763086629.948121) can0 4C5#04B904BD04B904B5
(1763086629.949137) can0 4C6#04B604B604B604B2
(1763086629.950151) can0 4C7#04B904B604C104CF
(1763086629.951179) can0 4C8#048F000000000000
(1763086629.952979) can0 682#3F451C0400003A00
(1763086629.953414) can0 188#0C004C3300000000
(1763086629.954176) can0 288#11295C2A00140000
(1763086629.955180) can0 388#2323242424000000
(1763086629.955914) can0 000A0003#FF2FFFCE10670000
(1763086629.956200) can0 000A0004#FFE2FFDBFF7B8E02
(1763086629.956390) can0 191#969696969696
(1763086629.957134) can0 192#969696969696
(1763086629.958108) can0 193#969696969696
(1763086629.958224) can0 701#05
(1763086629.959135) can0 194#969696969696
(1763086629.960140) can0 195#969696969696
(1763086629.961144) can0 291#111111111111
(1763086629.962126) can0 292#111111111111
(1763086629.963133) can0 293#111211121212
(1763086629.963798) can0 181#D10300207F000009
(1763086629.964138) can0 482#0000040008360001
(1763086629.964332) can0 294#121212121212
(1763086629.964576) can0 382#0D02F8FFE2010000
(1763086629.965126) can0 295#121212131312
(1763086629.965912) can0 000A0003#FF2EFFCD10680000
(1763086629.966198) can0 000A0004#FFE2FFDCFF7B8E02
(1763086629.975921) can0 000A0003#FF2EFFCA106A0000
(1763086629.976205) can0 000A0004#FFE3FFDCFF7C8E02
(1763086629.979831) can0 701#05
(1763086629.980170) can0 281#0000000005000000
(1763086629.982444) can0 186#DA044C1D09080000
(1763086629.985626) can0 482#0000040008360001
(1763086629.985912) can0 000A0003#FF2CFFCA106B0000
(1763086629.986198) can0 000A0004#FFE3FFDCFF7C8E02
(1763086629.986435) can0 382#DE010E00E1010000
(1763086629.993839) can0 682#3F451C0400003A00
(1763086629.995917) can0 000A0003#FF2AFFCA106D0000
(1763086629.996206) can0 000A0004#FFE4FFDBFF7C8E02
(1763086629.999289) can0 701#05
(1763086630.002723) can0 1A3#C0000509000000
(1763086630.003960) can0 1A4#0000EB09000000
(1763086630.004192) can0 2A3#0C10111111100C09
(1763086630.004744) can0 181#D10300207F000009
(1763086630.005916) can0 000A0003#FF28FFC9106D0000
(1763086630.006201) can0 000A0004#FFE3FFDCFF7B8E02
(1763086630.006412) can0 1A0#000000000100
(1763086630.006931) can0 000A0000#0000000000000000
(1763086630.007230) can0 000A0001#0000000000000000
(1763086630.007528) can0 000A0002#0000000000000000
(1763086630.007793) can0 482#0000040008360001
(1763086630.008020) can0 382#C601F6FFE1010000
(1763086630.012315) can0 4C4#04C604BD04AC04B4
(1763086630.013198) can0 1A2#0000770D000000
(1763086630.013432) can0 2A1#0A0C0D0D0D0C0A06
(1763086630.013663) can0 4C5#04B904BD04B904B5
(1763086630.014342) can0 4C6#04B604B604B604B2
(1763086630.015356) can0 4C7#04B904B604C104CF
(1763086630.015915) can0 000A0003#FF25FFC7106E0000
(1763086630.016202) can0 000A0004#FFE3FFE0FF7C8E02
(1763086630.016446) can0 4C8#048F000000000000
(1763086630.020775) can0 701#05
(1763086630.022443) can0 186#D3044C1D09090000
(1763086630.024071) can0 281#0000000005000000
(1763086630.025917) can0 000A0003#FF22FFC5106C0000
(1763086630.026203) can0 000A0004#FFE3FFE0FF7B8E02
(1763086630.029317) can0 482#0000040008360001
(1763086630.029655) can0 382#ED010200DF010000
(1763086630.034778) can0 682#3F451C0400003A00
(1763086630.035925) can0 000A0003#FF21FFC310690000
(1763086630.036213) can0 000A0004#FFE2FFE0FF7C8E02
(1763086630.042495) can0 189#E602050272010451
(1763086630.042616) can0 701#05
(1763086630.042828) can0 080#
(1763086630.043187) can0 181#D10300207F000009
(1763086630.043981) can0 286#0000580200000000
(1763086630.045919) can0 000A0003#FF22FFC210670000
(1763086630.046209) can0 000A0004#FFE1FFE0FF7C8E02
(1763086630.048732) can0 1A5#0000720D000000
(1763086630.051130) can0 482#0000040008360001
(1763086630.051463) can0 382#EA01E5FFDF010000
(1763086630.053424) can0 188#0C00033300000000
(1763086630.054182) can0 288#11295C2A00140000
(1763086630.055187) can0 388#2323242424000000
(1763086630.055921) can0 000A0003#FF23FFC110630000
(1763086630.056208) can0 000A0004#FFE2FFDBFF7C8E02
(1763086630.056398) can0 191#969696969696
(1763086630.057126) can0 192#969696969696
(1763086630.058132) can0 193#969696969696
(1763086630.059138) can0 194#969696969696
(1763086630.060147) can0 195#969696969696
(1763086630.061123) can0 291#111111111111
(1763086630.062131) can0 292#111111111211
(1763086630.062459) can0 186#D4044C1D090A0000
(1763086630.063139) can0 293#111111121212
(1763086630.064164) can0 294#121212121212
(1763086630.064658) can0 701#05
(1763086630.065149) can0 295#121212131312
(1763086630.065922) can0 000A0003#FF24FFC010610000
(1763086630.066208) can0 000A0004#FFE2FFDCFF7C8E02
(1763086630.067625) can0 281#0000000005000000
(1763086630.072978) can0 382#E601D3FFDF010000
(1763086630.073417) can0 482#0000040008360001
(1763086630.075926) can0 000A0003#FF23FFC010600000
(1763086630.076211) can0 000A0004#FFE2FFDCFF7C8E02
(1763086630.077512) can0 4C4#04C004BD04AC04B4
(1763086630.078522) can0 4C5#04B404B904B004BA
(1763086630.078764) can0 682#3F451C0400003A00
(1763086630.079540) can0 4C6#04B604B604B604B2
(1763086630.080553) can0 4C7#04B904BB04C604C9
(1763086630.081582) can0 4C8#048F000000000000
(1763086630.084009) can0 181#D10300207F000009
(1763086630.085925) can0 000A0003#FF23FFC0105F0000
(1763086630.086211) can0 000A0004#FFE2FFDDFF7C8E02
(1763086630.086327) can0 701#05
(1763086630.095058) can0 482#0000040008360001
(1763086630.095925) can0 000A0003#FF22FFBF105D0000
(1763086630.096210) can0 000A0004#FFE2FFDDFF7C8E02
(1763086630.097534) can0 382#E2010400DF010000
(1763086630.102435) can0 186#E9044C1D090B0000
(1763086630.103761) can0 1A3#C0000509000000
(1763086630.105930) can0 000A0003#FF21FFBF105D0000
(1763086630.106214) can0 000A0004#FFE2FFDEFF7B8E02
(1763086630.106426) can0 1A0#000000000100
(1763086630.106936) can0 000A0000#0000000000000000
(1763086630.107236) can0 000A0001#0000000000000000
(1763086630.107534) can0 000A0002#0000000000000000
(1763086630.108200) can0 701#05
(1763086630.110930) can0 1A4#0000EB09000000
(1763086630.111178) can0 281#0000000005000000
(1763086630.111411) can0 2A3#0C10111111100C09
(1763086630.115924) can0 000A0003#FF1FFFBD105C0000
(1763086630.116209) can0 000A0004#FFE3FFDEFF7B8E02
(1763086630.116628) can0 482#0000040008360001
(1763086630.117210) can0 382#FC011200E7010000
(1763086630.120802) can0 1A2#0000770D000000
(1763086630.121030) can0 2A1#0A0C0D0D0D0D0A06
(1763086630.122218) can0 181#D10300207F000009
(1763086630.122652) can0 682#3F451C0400003A00
(1763086630.125932) can0 000A0003#FF1DFFBD105C0000
(1763086630.126217) can0 000A0004#FFE3FFDEFF7A8E02
(1763086630.130038) can0 701#05
(1763086630.135926) can0 000A0003#FF1BFFBD105D0000
(1763086630.136209) can0 000A0004#FFE2FFDEFF7B8E02
(1763086630.138474) can0 382#F3010B00E7010000
(1763086630.138926) can0 482#0000040008360001
(1763086630.142471) can0 186#E2044C1D090C0000
(1763086630.142703) can0 4C4#04C004BD04AC04B4
(1763086630.142990) can0 189#E502050271010451
(1763086630.143714) can0 4C5#04B404B904B004BA
(1763086630.143816) can0 080#
(1763086630.144730) can0 4C6#04B604B604B604B2
(1763086630.144974) can0 286#0000580200000000
(1763086630.145742) can0 4C7#04B904BB04C604C9
(1763086630.146032) can0 000A0003#FF1BFFBE105C0000
(1763086630.146318) can0 000A0004#FFDFFFDEFF7B8E02
(1763086630.146772) can0 4C8#048F000000000000
(1763086630.150952) can0 1A5#0000720D000000
(1763086630.151449) can0 19A#000081888E7E7F80
(1763086630.151870) can0 701#05
(1763086630.152425) can0 29A#7F93857E82820000
(1763086630.153401) can0 188#0C00ED3200000000
(1763086630.154171) can0 288#11295C2A00140000
(1763086630.155175) can0 388#2323242424000000
(1763086630.155423) can0 281#0000000005000000
(1763086630.155927) can0 000A0003#FF1CFFBE105C0000
(1763086630.156217) can0 000A0004#FFDFFFDFFF7C8E02
(1763086630.156408) can0 191#969696969696
(1763086630.157136) can0 192#969696969696
(1763086630.158140) can0 193#969696969696
(1763086630.159148) can0 194#969696969696
(1763086630.160123) can0 195#969696969696
(1763086630.160364) can0 181#D10300207F000009
(1763086630.160649) can0 482#0000040008360001
(1763086630.160983) can0 382#D6010800E4010000
(1763086630.161173) can0 291#111111111111
(1763086630.162137) can0 292#111111111211
(1763086630.163145) can0 293#111111121212
(1763086630.163387) can0 682#3F451C0400003A00
(1763086630.164164) can0 294#121212121212
(1763086630.165127) can0 295#121212131312
(1763086630.165937) can0 000A0003#FF1DFFC0105C0000
(1763086630.166224) can0 000A0004#FFDFFFDEFF7B8E02
(1763086630.170980) can0 701#05
(1763086630.175934) can0 000A0003#FF1DFFC2105C0000
(1763086630.176219) can0 000A0004#FFDFFFDEFF7B8E02
(1763086630.182142) can0 482#0000040008360001
(1763086630.182472) can0 382#D6010700E4010000
(1763086630.182704) can0 186#ED044C1D090D0000
(1763086630.185937) can0 000A0003#FF1EFFC4105D0000
(1763086630.186222) can0 000A0004#FFDFFFDEFF7B8E02
(1763086630.193059) can0 701#05
(1763086630.195938) can0 000A0003#FF1FFFC6105E0000
(1763086630.196221) can0 000A0004#FFE1FFDEFF7B8E02
(1763086630.198640) can0 181#D10300207F000009
(1763086630.198960) can0 281#0000000005000000
(1763086630.203983) can0 382#E801F1FFE8010000
(1763086630.204436) can0 482#0000040008360001
(1763086630.204680) can0 682#3F451C0400003A00
(1763086630.204906) can0 1A3#C0000509000000
(1763086630.205944) can0 000A0003#FF20FFC8105F0000
(1763086630.206232) can0 000A0004#FFE0FFDFFF7B8E02
(1763086630.206445) can0 1A0#000000000100
(1763086630.206947) can0 000A0000#0000000000000000
(1763086630.207247) can0 000A0001#0000000000000000
(1763086630.207545) can0 000A0002#0000000000000000
(1763086630.207897) can0 4C4#04C604BD04B204B4
(1763086630.208909) can0 4C5#04B504B404B904B5
(1763086630.209923) can0 4C6#04B604B604B604B2
(1763086630.210935) can0 4C7#04B504B604BC04C4
(1763086630.211968) can0 4C8#048F000000000000
(1763086630.214563) can0 701#05
(1763086630.215940) can0 000A0003#FF21FFC9105F0000
(1763086630.216224) can0 000A0004#FFE5FFDFFF7B8E02
(1763086630.217899) can0 1A4#0000EB09000000
(1763086630.218130) can0 2A3#0C10111111100C09
(1763086630.222422) can0 186#E7044C1D090E0000
(1763086630.225715) can0 382#C7012000E7010000
(1763086630.226004) can0 000A0003#FF23FFCB105F0000
(1763086630.226290) can0 000A0004#FFE4FFDFFF7B8E02
(1763086630.228400) can0 1A2#0000770D000000
(1763086630.228628) can0 2A1#0A0C0D0D0D0D0A06
(1763086630.228875) can0 482#0000040008360001
(1763086630.235936) can0 000A0003#FF21FFC9105A0000
(1763086630.236221) can0 000A0004#FFE5FFDFFF7B8E02
(1763086630.236483) can0 701#05
(1763086630.236963) can0 181#D10300207F000009
(1763086630.242191) can0 281#0000000005000000
(1763086630.242488) can0 189#E702050271010451
(1763086630.242815) can0 080#
(1763086630.243964) can0 286#0000580200000000
(1763086630.245940) can0 000A0003#FF20FFC710550000
(1763086630.246227) can0 000A0004#FFE4FFDFFF7C8E02
(1763086630.247782) can0 682#3F451C0400003A00
(1763086630.248006) can0 382#E2010700E7010000
(1763086630.253119) can0 482#0000040008360001
(1763086630.253336) can0 1A5#0000720D000000
(1763086630.253580) can0 188#0C00113300000000
(1763086630.254199) can0 288#11295C2A00140000
(1763086630.255173) can0 388#2323242424000000
(1763086630.255936) can0 000A0003#FF21FFC510510000
(1763086630.256224) can0 000A0004#FFE6FFDFFF7C8E02
(1763086630.256414) can0 191#969696969696
(1763086630.257126) can0 192#969696969696
(1763086630.258148) can0 193#969696969696
(1763086630.258314) can0 701#05
(1763086630.259124) can0 194#969696969696
(1763086630.260132) can0 195#969696969696
(1763086630.261136) can0 291#111111111111
(1763086630.262146) can0 292#111111111211
(1763086630.262438) can0 186#D9044C1D090F0000
(1763086630.263152) can0 293#111211121212
(1763086630.264132) can0 294#121212121212
(1763086630.265135) can0 295#121212131312
(1763086630.265943) can0 000A0003#FF22FFC4104E0000
(1763086630.266230) can0 000A0004#FFE6FFE0FF7C8E02
(1763086630.269593) can0 382#FA01F8FFE1010000
(1763086630.273100) can0 4C4#04C604C304B204B4
(1763086630.274108) can0 4C5#04B004BD04B904B5
(1763086630.275041) can0 181#D10300207F000009
(1763086630.275274) can0 4C6#04BA04B604B204B2
(1763086630.275520) can0 482#0000040008360001
(1763086630.275943) can0 000A0003#FF23FFC410480000
(1763086630.276230) can0 000A0004#FFE7FFE0FF7C8E02
(1763086630.276464) can0 4C7#04B904BB04C104C4
(1763086630.277168) can0 4C8#048F000000000000
(1763086630.280064) can0 701#05
(1763086630.285939) can0 000A0003#FF23FFC510450000
(1763086630.286226) can0 000A0004#FFE8FFE4FF7C8E02
(1763086630.286474) can0 281#0000000005000000
(1763086630.288706) can0 682#3F451C0400003A00
(1763086630.291297) can0 382#E2012400E1010000
(1763086630.295943) can0 000A0003#FF25FFC610460000
(1763086630.296229) can0 000A0004#FFE8FFE4FF7C8E02
(1763086630.296800) can0 482#0000040008360001
(1763086630.299399) can0 701#05
(1763086630.302420) can0 186#E7044C1D09000000
(1763086630.305852) can0 1A3#C0000509000000
(1763086630.306134) can0 000A0003#FF27FFC710470000
(1763086630.306420) can0 000A0004#FFECFFE4FF7C8E02
(1763086630.306632) can0 1A0#000000000100
(1763086630.306950) can0 000A0000#0000000000000000
(1763086630.307250) can0 000A0001#0000000000000000
(1763086630.307548) can0 000A0002#0000000000000000
(1763086630.310767) can0 382#D6010A00E7010000
(1763086630.315893) can0 181#D10300207F000009
(1763086630.316178) can0 000A0003#FF2BFFC310450000
(1763086630.316464) can0 000A0004#FFECFFE2FF7C8E02
(1763086630.318851) can0 482#0000040008360001
(1763086630.321006) can0 701#05
(1763086630.324892) can0 1A4#0000EB09000000
(1763086630.325122) can0 2A3#0C10111111100C09
(1763086630.325951) can0 000A0003#FF2EFFC010430000
(1763086630.326239) can0 000A0004#FFEAFFE2FF7C8E02
(1763086630.329439) can0 281#0000000005000000
(1763086630.329852) can0 682#3F451C0400003A00
(1763086630.332240) can0 382#F601E4FFE7010000
(1763086630.335946) can0 000A0003#FF2DFFC010430000
(1763086630.336232) can0 000A0004#FFEBFFE6FF7C8E02
(1763086630.336455) can0 1A2#0000770D000000
(1763086630.336685) can0 2A1#0A0C0D0D0D0D0A06
(1763086630.338286) can0 4C4#04C604C304B204B4
(1763086630.339294) can0 4C5#04B004BD04B904B5
(1763086630.340314) can0 4C6#04BA04B604B204B2
(1763086630.340540) can0 19A#00008494947E8B86
(1763086630.341326) can0 4C7#04B904BB04C104C4
(1763086630.341556) can0 29A#859586838A890000
(1763086630.342353) can0 4C8#048F000000000000
(1763086630.342588) can0 186#D9044C1D09010000
(1763086630.342965) can0 189#E60204026E010451
(1763086630.343409) can0 482#0000040008360001
(1763086630.343591) can0 701#05
(1763086630.343828) can0 080#
(1763086630.344980) can0 286#0000580200000000
(1763086630.345948) can0 000A0003#FF2CFFBF10420000
(1763086630.346234) can0 000A0004#FFEBFFE6FF7C8E02
(1763086630.353417) can0 188#0C00473300000000
(1763086630.354087) can0 181#D10300207F000009
(1763086630.354327) can0 288#11295C2A00140000
(1763086630.354570) can0 382#D101F9FFE1010000
(1763086630.355177) can0 388#2323242424000000
(1763086630.355403) can0 1A5#0000720D000000
(1763086630.355947) can0 000A0003#FF2BFFBD10440000
(1763086630.356233) can0 000A0004#FFEAFFE5FF7C8E02
(1763086630.356422) can0 191#969696969696
(1763086630.357149) can0 192#969696969696
(1763086630.358155) can0 193#969696969696
(1763086630.359131) can0 194#969696969696
(1763086630.360139) can0 195#969696969696
(1763086630.361143) can0 291#111111111111
(1763086630.362156) can0 292#111111111111
(1763086630.363130) can0 293#111211121212
(1763086630.364139) can0 294#121212121212
(1763086630.364757) can0 701#05
(1763086630.365140) can0 295#121212131312
(1763086630.365387) can0 482#0000040008360001
(1763086630.365946) can0 000A0003#FF2AFFBB10450000
(1763086630.366235) can0 000A0004#FFE9FFE5FF7D8E02
(1763086630.370586) can0 682#3F451C0400003A00
(1763086630.370940) can0 281#0000000005000000
(1763086630.375955) can0 000A0003#FF29FFBB10460000
(1763086630.376242) can0 000A0004#FFE9FFE5FF7D8E02
(1763086630.376482) can0 382#E001E7FFE1010000
(1763086630.382416) can0 186#02054C1D09020000
(1763086630.385949) can0 000A0003#FF28FFBB10480000
(1763086630.386236) can0 000A0004#FFE9FFE5FF7D8E02
(1763086630.386504) can0 701#05
(1763086630.386965) can0 482#0000040008360001
(1763086630.392436) can0 181#D10300207F000009
(1763086630.395953) can0 000A0003#FF25FFBB104E0000
(1763086630.396236) can0 000A0004#FFE8FFE5FF7D8E02
(1763086630.397669) can0 382#F001FBFFF1010000
(1763086630.403473) can0 4C4#04C004C304AC04B4
(1763086630.404486) can0 4C5#04B004B904B504B5
(1763086630.405499) can0 4C6#04B604B604B204B6
(1763086630.405952) can0 000A0003#FF22FFBA10520000
(1763086630.406237) can0 000A0004#FFE7FFE5FF7D8E02
(1763086630.406449) can0 1A0#000000000100
(1763086630.406682) can0 4C7#04B904B604BC04C9
(1763086630.406982) can0 000A0000#0000000000000000
(1763086630.407281) can0 000A0001#0000000000000000
(1763086630.407579) can0 000A0002#0000000000000000
(1763086630.407806) can0 1A3#C0000509000000
(1763086630.408049) can0 4C8#048F000000000000
(1763086630.408166) can0 701#05
(1763086630.408789) can0 482#0000040008360001
(1763086630.411526) can0 682#3F451C0400003A00
(1763086630.414140) can0 281#0000000005000000
(1763086630.415951) can0 000A0003#FF1FFFBA105A0000
(1763086630.416237) can0 000A0004#FFE7FFE4FF7D8E02
(1763086630.417222) can0 382#F001FBFFF1010000
(1763086630.422411) can0 186#08054C1D09030000
(1763086630.425951) can0 000A0003#FF1BFFBA10620000
(1763086630.426237) can0 000A0004#FFE6FFE3FF808E02
(1763086630.427445) can0 701#05
(1763086630.430524) can0 181#D10300207F000009
(1763086630.430861) can0 482#0000040008360001
(1763086630.431874) can0 1A4#0000EB09000000
(1763086630.432105) can0 2A3#0C10111111100C09
(1763086630.435960) can0 000A0003#FF1CFFB910630000
(1763086630.436245) can0 000A0004#FFE6FFE4FF818E02
(1763086630.441533) can0 382#0402D9FFF3010000
(1763086630.442451) can0 189#E802060271010451
(1763086630.442831) can0 080#
(1763086630.443541) can0 1A2#0000770D000000
(1763086630.443784) can0 2A1#0A0C0D0D0D0D0B06
(1763086630.444015) can0 286#0000580200000000
(1763086630.445959) can0 000A0003#FF1DFFB910640000
(1763086630.446247) can0 000A0004#FFE6FFE3FF808E02
(1763086630.449373) can0 701#05
(1763086630.452370) can0 482#0000040008360001
(1763086630.452696) can0 682#3F451C0400003A00
(1763086630.453418) can0 188#0C00313300000000
(1763086630.454180) can0 288#11295C2A00140000
(1763086630.455186) can0 388#2323242424000000
(1763086630.455957) can0 000A0003#FF1DFFB810620000
(1763086630.456244) can0 000A0004#FFE6FFE3FF818E02
(1763086630.456434) can0 191#969696969696
(1763086630.457140) can0 192#969696969696
(1763086630.457604) can0 1A5#0000720D000000
(1763086630.458027) can0 281#0000000005000000
(1763086630.458219) can0 193#969696969696
(1763086630.459139) can0 194#969696969696
(1763086630.460146) can0 195#969696969696
(1763086630.461148) can0 291#111111111111
(1763086630.462129) can0 292#111111111111
(1763086630.462419) can0 186#FB044C1D09040000
(1763086630.463135) can0 293#111211121212
(1763086630.463380) can0 382#F1011900F3010000
(1763086630.464129) can0 294#121212121212
(1763086630.465133) can0 295#121212131312
(1763086630.465959) can0 000A0003#FF1DFFB710600000
(1763086630.466246) can0 000A0004#FFE6FFE3FF808E02
(1763086630.468667) can0 4C4#04C004C304AC04B4
(1763086630.468907) can0 181#D10300207F000009
(1763086630.469675) can0 4C5#04B004B904B504B5
(1763086630.470689) can0 4C6#04B604B604B204B6
(1763086630.471201) can0 701#05
(1763086630.471706) can0 4C7#04B904B604BC04C9
(1763086630.472734) can0 4C8#048F000000000000
(1763086630.474195) can0 482#0000040008360001
(1763086630.475963) can0 000A0003#FF1DFFBA10600000
(1763086630.476249) can0 000A0004#FFE6FFE3FF808E02
(1763086630.485219) can0 382#CC012B00EE010000
(1763086630.485963) can0 000A0003#FF1DFFBB105F0000
(1763086630.486251) can0 000A0004#FFE5FFE3FF808E02
(1763086630.493175) can0 701#05
(1763086630.493640) can0 482#0000040008360001
(1763086630.493967) can0 682#3F451C0400003A00
(1763086630.495961) can0 000A0003#FF1EFFBC105E0000
(1763086630.496249) can0 000A0004#FFE5FFE3FF818E02
(1763086630.501385) can0 281#0000000005000000
(1763086630.502403) can0 186#0A054C1D09050000
(1763086630.505962) can0 000A0003#FF1FFFBC105D0000
(1763086630.506249) can0 000A0004#FFE5FFE3FF818E02
(1763086630.506461) can0 1A0#000000000100
(1763086630.506973) can0 000A0000#0000000000000000
(1763086630.507273) can0 000A0001#0000000000000000
(1763086630.507571) can0 000A0002#0000000000000000
(1763086630.507818) can0 382#FC01F0FFEE010000
(1763086630.508044) can0 1A3#C0000509000000
(1763086630.508286) can0 181#D10300207F000009
(1763086630.515968) can0 000A0003#FF24FFB9105C0000
(1763086630.516254) can0 000A0004#FFE4FFE3FF808E02
(1763086630.517515) can0 701#05
(1763086630.517972) can0 482#0000040008360001
(1763086630.525964) can0 000A0003#FF28FFB7105B0000
(1763086630.526250) can0 000A0004#FFE4FFE3FF808E02
(1763086630.528754) can0 382#E701F5FFF4010000
(1763086630.533846) can0 4C4#04B904BD04A704AF
(1763086630.534346) can0 682#3F451C0400003A00
(1763086630.534858) can0 4C5#04AB04B904B904BA
(1763086630.535872) can0 4C6#04B604B104B204AD
(1763086630.536160) can0 000A0003#FF2AFFB310580000
(1763086630.536448) can0 000A0004#FFE4FFE3FF808E02
(1763086630.536884) can0 4C7#04B504B604BC04C4
(1763086630.537916) can0 4C8#048F000000000000
(1763086630.538848) can0 1A4#0000EB09000000
(1763086630.539080) can0 2A3#0C10111111100C09
(1763086630.539791) can0 482#0000040008360001
(1763086630.539909) can0 701#05
(1763086630.542439) can0 186#02054C1D09060000
(1763086630.543000) can0 189#E70206026E010451
(1763086630.543853) can0 080#
(1763086630.544989) can0 286#0000580200000000
(1763086630.545364) can0 181#D10300207F000009
(1763086630.545701) can0 281#0000000005000000
(1763086630.545992) can0 000A0003#FF2CFFAF10540000
(1763086630.546276) can0 000A0004#FFE6FFE3FF808E02
(1763086630.546514) can0 19A#00007B53587B7C7C
(1763086630.547450) can0 29A#7E62807D81800000
(1763086630.550720) can0 382#DA011E00F1010000
(1763086630.551114) can0 1A2#0000770D000000
(1763086630.551344) can0 2A1#0A0C0D0D0D0D0B06
(1763086630.553427) can0 188#0C00353300000000
(1763086630.554185) can0 288#11295C2A00140000
(1763086630.555190) can0 388#2323242424000000
(1763086630.555967) can0 000A0003#FF2DFFAE10530000
(1763086630.556253) can0 000A0004#FFE5FFE3FF808E02
(1763086630.556445) can0 191#969696969696
(1763086630.557132) can0 192#969696969696
(1763086630.558135) can0 193#969696969696
(1763086630.559144) can0 194#969696969696
(1763086630.559840) can0 1A5#0000720D000000
(1763086630.560151) can0 195#969696969696
(1763086630.561128) can0 291#111111111111
(1763086630.561732) can0 482#0000040008360001
(1763086630.561852) can0 701#05
(1763086630.562136) can0 292#111111111211
(1763086630.563144) can0 293#111111121212
(1763086630.564154) can0 294#121212121212
(1763086630.565156) can0 295#121212131312
(1763086630.565968) can0 000A0003#FF2EFFAC10520000
(1763086630.566258) can0 000A0004#FFE5FFE7FF7F8E02
(1763086630.572554) can0 382#E2010B00F1010000
(1763086630.576011) can0 000A0003#FF30FFAD10510000
(1763086630.576257) can0 000A0004#FFE5FFE6FF7F8E02
(1763086630.578111) can0 682#3F451C0400003A00
(1763086630.582403) can0 186#1D054C1D09070000
(1763086630.583465) can0 181#D10300207F000009
(1763086630.583585) can0 701#05
(1763086630.583838) can0 482#0000040008360001
(1763086630.585970) can0 000A0003#FF32FFAE10520000
(1763086630.586256) can0 000A0004#FFE5FFE6FF7F8E02
(1763086630.588938) can0 281#0000000005000000
(1763086630.594261) can0 382#3502FEFFFB010000
(1763086630.595967) can0 000A0003#FF32FFAE10530000
(1763086630.596251) can0 000A0004#FFE5FFE5FF7F8E02
(1763086630.599037) can0 4C4#04C004BD04AC04AF
(1763086630.600049) can0 4C5#04B004B404B504BA
(1763086630.601058) can0 4C6#04B104B604B204AD
(1763086630.602072) can0 4C7#04B004BB04BC04C4
(1763086630.603102) can0 4C8#048F000000000000
(1763086630.605195) can0 482#0000040008360001
(1763086630.605383) can0 701#05
(1763086630.605964) can0 000A0003#FF32FFAE10540000
(1763086630.606250) can0 000A0004#FFE5FFE9FF7F8E02
(1763086630.606463) can0 1A0#000000000100
(1763086630.606980) can0 000A0000#0000000000000000
(1763086630.607281) can0 000A0001#0000000000000000
(1763086630.607579) can0 000A0002#0000000000000000
(1763086630.609035) can0 1A3#C0000509000000
(1763086630.615979) can0 000A0003#FF31FFB010550000
(1763086630.616263) can0 000A0004#FFE5FFE8FF808E02
(1763086630.616505) can0 382#0A020A00FB010000
(1763086630.619048) can0 682#3F451C0400003A00
(1763086630.621698) can0 181#D10300207F000009
(1763086630.622390) can0 186#2A054C1D09080000
(1763086630.625978) can0 000A0003#FF2FFFB410550000
(1763086630.626266) can0 000A0004#FFE6FFE8FF808E02
(1763086630.626684) can0 701#05
(1763086630.627240) can0 482#0000040008360001
(1763086630.632392) can0 281#0000000005000000
(1763086630.635973) can0 000A0003#FF2DFFB510540000
(1763086630.636260) can0 000A0004#FFE6FFE7FF838E02
(1763086630.638050) can0 382#FD01F1FF00020000
(1763086630.642434) can0 189#EB02080271010451
(1763086630.642846) can0 080#
(1763086630.643966) can0 286#0000580200000000
(1763086630.645830) can0 1A4#0000EB09000000
(1763086630.646114) can0 000A0003#FF28FFB510520000
(1763086630.646400) can0 000A0004#FFE5FFE8FF848E02
(1763086630.646632) can0 2A3#0C10111111100C09
(1763086630.648744) can0 701#05
(1763086630.649213) can0 482#0000040008360001
(1763086630.655979) can0 000A0003#FF26FFB510500000
(1763086630.656263) can0 000A0004#FFE5FFE8FF848E02
(1763086630.657171) can0 382#DC01F9FF00020000
(1763086630.658690) can0 1A2#0000770D000000
(1763086630.658920) can0 2A1#0A0C0D0D0D0D0B06
(1763086630.659798) can0 181#D10300207F000009
(1763086630.660234) can0 682#3F451C0400003A00
(1763086630.662084) can0 1A5#0000720D000000
(1763086630.662378) can0 188#0C00353300000000
(1763086630.662616) can0 186#30054C1D09090000
(1763086630.663178) can0 288#11295C1D00140000
(1763086630.664187) can0 388#2323242424000000
(1763086630.664423) can0 4C4#04C004BD04B204B4
(1763086630.665133) can0 191#969696969696
(1763086630.665363) can0 4C5#04B504B404B004BA
(1763086630.665971) can0 000A0003#FF26FFB6104E0000
(1763086630.666255) can0 000A0004#FFE6FFE8FF848E02
(1763086630.666449) can0 192#969696969696
(1763086630.666679) can0 4C6#04B604B604B204AD
(1763086630.667149) can0 193#969696969696
(1763086630.667379) can0 4C7#04B904BB04BC04C4
(1763086630.668158) can0 194#969696969696
(1763086630.668401) can0 4C8#048F000000000000
(1763086630.669131) can0 195#969696969696
(1763086630.670137) can0 291#111111111111
(1763086630.670708) can0 482#0000040008360001
(1763086630.670886) can0 701#05
(1763086630.671146) can0 292#111111111211
(1763086630.672155) can0 293#111111121212
(1763086630.673132) can0 294#121212121212
(1763086630.674134) can0 295#121212131312
(1763086630.675979) can0 000A0003#FF25FFB7104C0000
(1763086630.676264) can0 000A0004#FFE6FFE8FF858E02
(1763086630.676512) can0 281#0000000005000000
(1763086630.679223) can0 382#2302FCFF02020000
(1763086630.685982) can0 000A0003#FF23FFB9104B0000
(1763086630.686265) can0 000A0004#FFE6FFE8FF858E02
(1763086630.692187) can0 701#05
(1763086630.692744) can0 482#0000040008360001
(1763086630.695975) can0 000A0003#FF22FFBB104A0000
(1763086630.696260) can0 000A0004#FFE6FFE8FF858E02
(1763086630.697972) can0 181#D10300207F000009
(1763086630.702383) can0 186#4A054C1D090A0000
(1763086630.703671) can0 682#3F451C0400003A00
(1763086630.703918) can0 382#0D02020002020000
(1763086630.705986) can0 000A0003#FF22FFBC10490000
(1763086630.706278) can0 000A0004#FFE7FFE9FF858E02
(1763086630.706491) can0 1A0#000000000100
(1763086630.707005) can0 000A0000#0000000000000000
(1763086630.707307) can0 000A0001#0000000000000000
(1763086630.707602) can0 000A0002#0000000000000000
(1763086630.710084) can0 1A3#C0000509000000
(1763086630.714029) can0 701#05
(1763086630.714484) can0 482#0000040008360001
(1763086630.715982) can0 000A0003#FF23FFBD10430000
(1763086630.716264) can0 000A0004#FFE8FFE8FF838E02
(1763086630.719946) can0 281#0000000005000000
(1763086630.725266) can0 382#E70120000D020000
(1763086630.725977) can0 000A0003#FF24FFBD103E0000
(1763086630.726264) can0 000A0004#FFE7FFE8FF848E02
(1763086630.729403) can0 4C4#04C004BD04AC04AF
(1763086630.730415) can0 4C5#04B504B904B004B5
(1763086630.731428) can0 4C6#04BA04BA04B604AD
(1763086630.732450) can0 4C7#04B504B604C104C9
(1763086630.733469) can0 4C8#048F000000000000
(1763086630.735431) can0 19A#0000827674838582
(1763086630.735986) can0 000A0003#FF24FFBC103A0000
(1763086630.736271) can0 000A0004#FFE6FFE8FF848E02
(1763086630.736513) can0 181#D10300207F000009
(1763086630.736740) can0 29A#848D878487870000
(1763086630.736856) can0 701#05
(1763086630.737107) can0 482#0000040008360001
(1763086630.742418) can0 186#6B054C1D090B0000
(1763086630.742968) can0 189#EF020C026F010451
(1763086630.743830) can0 080#
(1763086630.744629) can0 682#3F451C0400003A00
(1763086630.744952) can0 382#02020A000D020000
(1763086630.745196) can0 286#0000580200000000
(1763086630.745978) can0 000A0003#FF24FFBB10390000
(1763086630.746266) can0 000A0004#FFE6FFE7FF838E02
(1763086630.752826) can0 1A4#0000EB09000000
(1763086630.753056) can0 2A3#0C10111111100C09
(1763086630.753422) can0 188#0C00893200000000
(1763086630.754205) can0 288#10295C2200140000
(1763086630.755176) can0 388#2323242424000000
(1763086630.755981) can0 000A0003#FF24FFB910370000
(1763086630.756269) can0 000A0004#FFE7FFE7FF838E02
(1763086630.756460) can0 191#969696969696
(1763086630.757149) can0 192#969696969696
(1763086630.757773) can0 701#05
(1763086630.758153) can0 193#969696969696
(1763086630.758400) can0 482#0000040008360001
(1763086630.759129) can0 194#969696969696
(1763086630.760137) can0 195#969696969696
(1763086630.761142) can0 291#111111111111
(1763086630.762154) can0 292#111111111111
(1763086630.763158) can0 293#111211121212
(1763086630.763486) can0 281#0000000005000000
(1763086630.764138) can0 294#121212121212
(1763086630.764362) can0 1A5#0000720D000000
(1763086630.765140) can0 295#121212131312
(1763086630.765990) can0 000A0003#FF24FFB710350000
(1763086630.766278) can0 000A0004#FFE8FFE6FF828E02
(1763086630.766500) can0 1A2#0000770D000000
(1763086630.766730) can0 2A1#0A0C0D0D0D0D0B06
(1763086630.766972) can0 382#1002FCFF19020000
(1763086630.775992) can0 000A0003#FF24FFB610340000
(1763086630.776279) can0 000A0004#FFE8FFE6FF818E02
(1763086630.777267) can0 181#D10300207F000009
(1763086630.777442) can0 701#05
(1763086630.777718) can0 482#0000040008360001
(1763086630.782380) can0 186#8A054C1D090C0000
(1763086630.785657) can0 682#3F451C0400003A00
(1763086630.785986) can0 000A0003#FF24FFB610320000
(1763086630.786274) can0 000A0004#FFE7FFE5FF828E02
(1763086630.788179) can0 382#2A020D0026020000
(1763086630.794613) can0 4C4#04C004BD04AC04AF
(1763086630.795623) can0 4C5#04B504B904B004B5
(1763086630.795985) can0 000A0003#FF22FFB510310000
(1763086630.796275) can0 000A0004#FFE6FFE5FF828E02
(1763086630.796637) can0 4C6#04BA04BA04B604AD
(1763086630.797657) can0 4C7#04B504B604C104C9
(1763086630.798681) can0 4C8#048F000000000000
(1763086630.801707) can0 482#0000040008360001
(1763086630.801890) can0 701#05
(1763086630.805986) can0 000A0003#FF1EFFB310310000
(1763086630.806276) can0 000A0004#FFE6FFE5FF828E02
(1763086630.806488) can0 1A0#000000000100
(1763086630.807001) can0 000A0000#0000000000000000
(1763086630.807300) can0 000A0001#0000000000000000
(1763086630.807598) can0 000A0002#0000000000000000
(1763086630.807853) can0 281#0000000006000000
(1763086630.810009) can0 382#40020A0026020000
(1763086630.811130) can0 1A3#C0000509000000
(1763086630.815356) can0 181#D10300207F000009
(1763086630.815997) can0 000A0003#FF1CFFB010300000
(1763086630.816285) can0 000A0004#FFE7FFE5FF828E02
(1763086630.822374) can0 186#CE054C1D090D0000
(1763086630.823393) can0 701#05
(1763086630.823883) can0 482#0000040008360001
(1763086630.825995) can0 000A0003#FF18FFAC10300000
(1763086630.826284) can0 000A0004#FFE6FFE5FF828E02
(1763086630.826526) can0 682#3F451C0400003A00
(1763086630.831715) can0 382#4502200040020000
(1763086630.836001) can0 000A0003#FF15FFA910300000
(1763086630.836284) can0 000A0004#FFE6FFE5FF828E02
(1763086630.842422) can0 189#F90213026F010551
(1763086630.842830) can0 080#
(1763086630.843982) can0 286#0000580200000000
(1763086630.845228) can0 701#05
(1763086630.845619) can0 482#0000050008360001
(1763086630.845993) can0 000A0003#FF13FFA610330000
(1763086630.846279) can0 000A0004#FFE7FFE4FF818E02
(1763086630.850955) can0 281#0000000006000000
(1763086630.853413) can0 188#0C00313300000000
(1763086630.853784) can0 181#D10300207F000009
(1763086630.854161) can0 288#10295C2A00140000
(1763086630.855178) can0 388#2323242424000000
(1763086630.855999) can0 000A0003#FF12FFA410330000
(1763086630.856282) can0 000A0004#FFE7FFE4FF808E02
(1763086630.856487) can0 191#969696969696
(1763086630.856720) can0 382#40020F0040020000
(1763086630.857136) can0 192#969696969696
(1763086630.858161) can0 193#969696969696
(1763086630.859137) can0 194#969696969696
(1763086630.859808) can0 4C4#04B904BD04B204AF
(1763086630.860032) can0 1A4#0000EB09000000
(1763086630.860222) can0 195#969696969696
(1763086630.860455) can0 2A3#0C10111111100C09
(1763086630.860818) can0 4C5#04B004B904B504B1
(1763086630.861146) can0 291#111111111111
(1763086630.861828) can0 4C6#04BA04BA04B204B2
(1763086630.862160) can0 292#111111111111
