(1763085468.237551) can0 701#05
(1763085468.235819) can0 482#0000000008140001
(1763085468.236292) can0 189#46029E01570100C0
(1763085468.236616) can0 1A4#00007612000000
(1763085468.236840) can0 2A3#171A1A1B1B1E1817
(1763085468.238456) can0 281#0000000000000000
(1763085468.240684) can0 188#0C002C3300000000
(1763085468.241382) can0 000A0003#FF1FFF900FB10000
(1763085468.241667) can0 000A0004#0007000500458E02
(1763085468.241899) can0 288#6329432B00140000
(1763085468.242422) can0 388#2121222121000000
(1763085468.243365) can0 191#999999999999
(1763085468.244377) can0 192#999999999998
(1763085468.245379) can0 193#999999999999
(1763085468.246253) can0 186#00004C1D010D0000
(1763085468.246448) can0 194#999999999999
(1763085468.246682) can0 189#46029F01560100C0
(1763085468.246931) can0 382#0000000000000000
(1763085468.247180) can0 682#3E45230400000000
(1763085468.247379) can0 195#999999999999
(1763085468.248409) can0 291#0F0F0F0F0F0F
(1763085468.249417) can0 292#0F0F0F0F100F
(1763085468.250421) can0 293#0F0F0F101010
(1763085468.251378) can0 000A0003#FF20FF900FB00000
(1763085468.251664) can0 000A0004#0007000500458E02
(1763085468.251868) can0 294#101010101010
(1763085468.252376) can0 295#101010111010
(1763085468.256314) can0 189#49029F01580100C0
(1763085468.257531) can0 482#0000000008140001
(1763085468.257651) can0 701#05
(1763085468.261373) can0 000A0003#FF22FF900FAE0000
(1763085468.261662) can0 000A0004#0008000400458E02
(1763085468.263018) can0 181#810100207F000009
(1763085468.266105) can0 1A5#0000FF12000000
(1763085468.266345) can0 189#4802A001560100C0
(1763085468.268575) can0 382#0000000000000000
(1763085468.271377) can0 000A0003#FF24FF900FAC0000
(1763085468.271660) can0 000A0004#0009000300468E02
(1763085468.272808) can0 4C4#04C204C204B904B8
(1763085468.273820) can0 4C5#04B504B904BB04BC
(1763085468.274838) can0 4C6#04BC04BC04B804B7
(1763085468.275853) can0 4C7#04BA04B504B804BE
(1763085468.276261) can0 189#46029F01560100C0
(1763085468.276884) can0 4C8#04AD000000000000
(1763085468.279149) can0 701#05
(1763085468.279499) can0 482#0000000008140001
(1763085468.281381) can0 000A0003#FF25FF910FAA0000
(1763085468.281667) can0 000A0004#0009000300458E02
(1763085468.282143) can0 281#0000000000000000
(1763085468.286254) can0 186#00004C1D010E0000
(1763085468.286569) can0 189#47029F01560100C0
(1763085468.287769) can0 682#3E45230400000000
(1763085468.290328) can0 382#0000000000000000
(1763085468.290808) can0 1A0#000000000100
(1763085468.291387) can0 000A0003#FF25FF910FA90000
(1763085468.291676) can0 000A0004#000A000300458E02
(1763085468.292394) can0 000A0000#0000000000000000
(1763085468.292694) can0 000A0001#0000000000000000
(1763085468.292992) can0 000A0002#0000000000000000
(1763085468.296264) can0 189#4702A001570100C0
(1763085468.301220) can0 181#810100207F000009
(1763085468.301506) can0 000A0003#FF26FF910FA80000
(1763085468.301796) can0 000A0004#0009000200458E02
(1763085468.301912) can0 701#05
(1763085468.302162) can0 482#0000000008140001
(1763085468.306262) can0 189#49029F01570100C0
(1763085468.309516) can0 382#0000000000000000
(1763085468.311392) can0 000A0003#FF27FF920FA70000
(1763085468.311683) can0 000A0004#000B000200468E02
(1763085468.316262) can0 189#47029F01580100C0
(1763085468.321386) can0 000A0003#FF27FF920FA70000
(1763085468.321671) can0 000A0004#000A000100468E02
(1763085468.323038) can0 482#0000000008140001
(1763085468.323157) can0 701#05
(1763085468.325777) can0 281#0000000000000000
(1763085468.326276) can0 186#00004C1D010F0000
(1763085468.326561) can0 189#47029E01550100C0
(1763085468.327423) can0 080#
(1763085468.328575) can0 286#6400900100000000
(1763085468.328819) can0 682#3E45230400000000
(1763085468.331344) can0 382#0000000000000000
(1763085468.331625) can0 000A0003#FF28FF930FA90000
(1763085468.331916) can0 000A0004#000B000200458E02
(1763085468.332154) can0 19A#00007F6E757F807E
(1763085468.332698) can0 29A#806F828083830000
(1763085468.334210) can0 1A3#00006513000000
(1763085468.336257) can0 189#48029F01560100C0
(1763085468.337912) can0 4C4#04C204C204B904B8
(1763085468.338927) can0 4C5#04B504B904BB04BC
(1763085468.339523) can0 181#810100207F000009
(1763085468.339942) can0 4C6#04BC04BC04B804B7
(1763085468.340695) can0 188#0C00873300000000
(1763085468.340957) can0 4C7#04BA04B504B804BE
(1763085468.341183) can0 1A2#00008313000000
(1763085468.341471) can0 000A0003#FF29FF940FAC0000
(1763085468.341763) can0 000A0004#000B000200468E02
(1763085468.341997) can0 288#6329432B00140000
(1763085468.342235) can0 2A1#1C1F1F2020222013
(1763085468.342471) can0 388#2121222121000000
(1763085468.342717) can0 4C8#04AD000000000000
(1763085468.343395) can0 1A4#00007612000000
(1763085468.343587) can0 191#999999999998
(1763085468.343815) can0 2A3#171A1A1B1B1E1817
(1763085468.344403) can0 192#989999999998
(1763085468.344673) can0 701#05
(1763085468.345026) can0 482#0000000008140001
(1763085468.345406) can0 193#999999999999
(1763085468.346255) can0 189#45029C01530100C0
(1763085468.346450) can0 194#999999999999
(1763085468.347388) can0 195#999999999999
(1763085468.348420) can0 291#0F0F0F0F0F0F
(1763085468.349426) can0 292#0F0F0F0F100F
(1763085468.350400) can0 293#0F0F0F101010
(1763085468.351390) can0 000A0003#FF2CFF950FAE0000
(1763085468.351682) can0 000A0004#000B000200468E02
(1763085468.351886) can0 294#101010101010
(1763085468.352404) can0 295#101010111010
(1763085468.355834) can0 382#0000000000000000
(1763085468.356254) can0 189#46029F01560100C0
(1763085468.361390) can0 000A0003#FF2DFF960FAF0000
(1763085468.361679) can0 000A0004#000B000200458E02
(1763085468.366251) can0 186#00004C1D01000000
(1763085468.366589) can0 189#47029F01560100C0
(1763085468.366705) can0 701#05
(1763085468.366955) can0 482#0000000008140001
(1763085468.368193) can0 1A5#0000FF12000000
(1763085468.369467) can0 281#0000000000000000
(1763085468.369715) can0 682#3E45230400000000
(1763085468.371388) can0 000A0003#FF2DFF960FB10000
(1763085468.371673) can0 000A0004#000B000300458E02
(1763085468.376254) can0 189#47029F01560100C0
(1763085468.377644) can0 382#0000000000000000
(1763085468.377893) can0 181#810100207F000009
(1763085468.381389) can0 000A0003#FF2CFF940FB20000
(1763085468.381676) can0 000A0004#000C000400458E02
(1763085468.386254) can0 189#4702A101570100C0
(1763085468.388549) can0 482#0000000008140001
(1763085468.388670) can0 701#05
(1763085468.390811) can0 1A0#000000000100
(1763085468.391392) can0 000A0003#FF2AFF900FB10000
(1763085468.391681) can0 000A0004#000C000400448E02
(1763085468.392404) can0 000A0000#0000000000000000
(1763085468.392703) can0 000A0001#0000000000000000
(1763085468.393001) can0 000A0002#0000000000000000
(1763085468.396255) can0 189#48029F01550100C0
(1763085468.399596) can0 382#0000000000000000
(1763085468.401393) can0 000A0003#FF25FF890FB10000
(1763085468.401685) can0 000A0004#000C000300448E02
(1763085468.403031) can0 4C4#04C204BC04B304B8
(1763085468.404040) can0 4C5#04AB04B904B704BC
(1763085468.405057) can0 4C6#04C104BC04B804B3
(1763085468.406068) can0 4C7#04B604BA04B804B3
(1763085468.406326) can0 186#00004C1D01010000
(1763085468.406608) can0 189#46029F01570100C0
(1763085468.407100) can0 4C8#04AD000000000000
(1763085468.410162) can0 701#05
(1763085468.410522) can0 482#0000000008140001
(1763085468.410769) can0 682#3E45240400000000
(1763085468.411403) can0 000A0003#FF25FF880FB40000
(1763085468.411690) can0 000A0004#000B000400458E02
(1763085468.413164) can0 281#0000000000000000
(1763085468.415864) can0 181#810100207F000009
(1763085468.416252) can0 189#47029F01540100C0
(1763085468.421344) can0 382#0000000000000000
(1763085468.421630) can0 000A0003#FF25FF870FB70000
(1763085468.421920) can0 000A0004#000C000400458E02
(1763085468.426267) can0 189#4902A001570100C0
(1763085468.426421) can0 080#
(1763085468.427574) can0 286#6400900100000000
(1763085468.429527) can0 482#0000000008140001
(1763085468.429681) can0 701#05
(1763085468.431397) can0 000A0003#FF27FF880FB90000
(1763085468.431685) can0 000A0004#000B000400458E02
(1763085468.435103) can0 1A3#00006513000000
(1763085468.436246) can0 189#47029F01570100C0
(1763085468.440625) can0 188#0C00593300000000
(1763085468.441396) can0 000A0003#FF2AFF8A0FBC0000
(1763085468.441682) can0 000A0004#000B000300468E02
(1763085468.441916) can0 288#6329432B00140000
(1763085468.442422) can0 388#2121222121000000
(1763085468.443167) can0 382#0000000000000000
(1763085468.443401) can0 191#999999999998
(1763085468.444411) can0 192#989999999998
(1763085468.445383) can0 193#999999999999
(1763085468.446243) can0 186#00004C1D01020000
(1763085468.446437) can0 194#999999999999
(1763085468.446671) can0 189#46029D01540100C0
(1763085468.447397) can0 195#999999999999
(1763085468.448377) can0 1A2#00008313000000
(1763085468.448591) can0 291#0F0F0F0F0F0F
(1763085468.448830) can0 2A1#1C1F1F2020222013
(1763085468.449403) can0 292#0F0F0F0F100F
(1763085468.450189) can0 1A4#00007612000000
(1763085468.450420) can0 2A3#191A1A1B1B1E1817
(1763085468.450625) can0 293#0F0F0F101010
(1763085468.451134) can0 701#05
(1763085468.451418) can0 000A0003#FF2AFF8B0FBD0000
(1763085468.451708) can0 000A0004#000A000200458E02
(1763085468.451912) can0 294#101010101010
(1763085468.452158) can0 482#0000000008140001
(1763085468.452445) can0 682#3E45230400000000
(1763085468.452645) can0 295#101010111010
(1763085468.454156) can0 181#810100207F000009
(1763085468.456248) can0 189#45029F01580100C0
(1763085468.456805) can0 281#0000000000000000
(1763085468.461403) can0 000A0003#FF29FF8D0FBD0000
(1763085468.461688) can0 000A0004#000B000300458E02
(1763085468.465109) can0 382#0000000000000000
(1763085468.466245) can0 189#48029F01560100C0
(1763085468.468142) can0 4C4#04C204BC04B304B8
(1763085468.469152) can0 4C5#04AB04B904B704BC
(1763085468.470170) can0 4C6#04C104BC04B804B3
(1763085468.470396) can0 1A5#0000FF12000000
(1763085468.471180) can0 4C7#04B604BA04B804B3
(1763085468.471466) can0 000A0003#FF2AFF8E0FBB0000
(1763085468.471752) can0 000A0004#000B000300458E02
(1763085468.472212) can0 4C8#04AD000000000000
(1763085468.472967) can0 701#05
(1763085468.473289) can0 482#0000000008140001
(1763085468.476245) can0 189#47029F01550100C0
(1763085468.481396) can0 000A0003#FF2AFF8F0FB80000
(1763085468.481682) can0 000A0004#000B000300458E02
(1763085468.486242) can0 186#00004C1D01030000
(1763085468.486587) can0 189#47029F01560100C0
(1763085468.486958) can0 382#0000000000000000
(1763085468.490814) can0 1A0#000000000100
(1763085468.491399) can0 000A0003#FF2CFF900FB50000
(1763085468.491686) can0 000A0004#000A000300458E02
(1763085468.492307) can0 181#810100207F000009
(1763085468.492607) can0 000A0000#0000000000000000
(1763085468.492907) can0 000A0001#0000000000000000
(1763085468.493205) can0 000A0002#0000000000000000
(1763085468.493449) can0 682#3E45230400000000
(1763085468.494756) can0 701#05
(1763085468.495019) can0 482#0000000008140001
(1763085468.496245) can0 189#47029F01540100C0
(1763085468.501400) can0 000A0003#FF2DFF910FB30000
(1763085468.501685) can0 000A0004#000B000300468E02
(1763085468.503244) can0 281#0000000000000000
(1763085468.506245) can0 189#4702A001580100C0
(1763085468.508666) can0 382#0000000000000000
(1763085468.511404) can0 000A0003#FF2FFF910FB20000
(1763085468.511688) can0 000A0004#000B000300478E02
(1763085468.513906) can0 701#05
(1763085468.514229) can0 482#0000000008140001
(1763085468.516245) can0 189#46029F01580100C0
(1763085468.520694) can0 19A#00007F726F7E807E
(1763085468.521398) can0 000A0003#FF30FF910FB10000
(1763085468.521688) can0 000A0004#000C000300478E02
(1763085468.521928) can0 29A#8067837F81820000
(1763085468.526261) can0 186#00004C1D01040000
(1763085468.526583) can0 189#48029F01550100C0
(1763085468.527379) can0 080#
(1763085468.528560) can0 286#6400900100000000
(1763085468.530584) can0 181#810100207F000009
(1763085468.530837) can0 382#0000000000000000
(1763085468.531401) can0 000A0003#FF32FF910FAF0000
(1763085468.531687) can0 000A0004#000B000300478E02
(1763085468.533249) can0 4C4#04C204C204B904B3
(1763085468.534265) can0 4C5#04B004B504BF04BC
(1763085468.535278) can0 4C6#04BC04BC04B804B7
(1763085468.535956) can0 482#0000000008140001
(1763085468.536181) can0 1A3#00006513000000
(1763085468.536414) can0 189#47029F01550100C0
(1763085468.536649) can0 4C7#04B604BA04B804BE
(1763085468.536765) can0 701#05
(1763085468.537013) can0 682#3E45230400000000
(1763085468.537323) can0 4C8#04AD000000000000
(1763085468.540682) can0 188#0C00D33300000000
(1763085468.541404) can0 000A0003#FF34FF920FAF0000
(1763085468.541689) can0 000A0004#000B000300488E02
(1763085468.541925) can0 288#6329432A00140000
(1763085468.542446) can0 388#2121222121000000
(1763085468.543389) can0 191#999999999999
(1763085468.544371) can0 192#999999999998
(1763085468.545391) can0 193#999999999999
(1763085468.546237) can0 189#46029F01550100C0
(1763085468.546431) can0 194#999999999999
(1763085468.546894) can0 281#0000000000000000
(1763085468.547404) can0 195#999999999999
(1763085468.548403) can0 291#0F0F0F0F0F0F
(1763085468.549412) can0 292#0F0F0F0F100F
(1763085468.550413) can0 293#0F0F0F101010
(1763085468.551401) can0 000A0003#FF34FF930FAE0000
(1763085468.551686) can0 000A0004#000B000300478E02
(1763085468.551891) can0 294#101010101010
(1763085468.552368) can0 382#0000000000000000
(1763085468.552568) can0 295#101010111010
(1763085468.555770) can0 1A2#00008313000000
(1763085468.556006) can0 2A1#1D1F202020222013
(1763085468.556247) can0 189#4702A001570100C0
(1763085468.556984) can0 1A4#00007612000000
(1763085468.557211) can0 2A3#191A1A1B1B1E1818
(1763085468.557583) can0 701#05
(1763085468.557941) can0 482#0000000008140001
(1763085468.561404) can0 000A0003#FF34FF950FAE0000
(1763085468.561693) can0 000A0004#000A000300488E02
(1763085468.566230) can0 186#00004C1D01050000
(1763085468.566576) can0 189#48029F01550100C0
(1763085468.568839) can0 181#810100207F000009
(1763085468.571415) can0 000A0003#FF37FF970FAF0000
(1763085468.571703) can0 000A0004#000B0005004C8E02
(1763085468.572313) can0 1A5#0000FF12000000
(1763085468.574177) can0 382#0000000000000000
(1763085468.576235) can0 189#47029F01570100C0
(1763085468.579393) can0 701#05
(1763085468.579741) can0 482#0000000008140001
(1763085468.579989) can0 682#3E45230400000000
(1763085468.581415) can0 000A0003#FF38FF980FAF0000
(1763085468.581703) can0 000A0004#000B0004004C8E02
(1763085468.586236) can0 189#4702A101570100C0
(1763085468.590570) can0 281#0000000000000000
(1763085468.590812) can0 1A0#000000000100
(1763085468.591408) can0 000A0003#FF3AFF980FAF0000
(1763085468.591696) can0 000A0004#000B0004004C8E02
(1763085468.592420) can0 000A0000#0000000000000000
(1763085468.592720) can0 000A0001#0000000000000000
(1763085468.593018) can0 000A0002#0000000000000000
(1763085468.596136) can0 382#0000000000000000
(1763085468.596368) can0 189#47029F01570100C0
(1763085468.598371) can0 4C4#04BC04C204B304B8
(1763085468.598518) can0 701#05
(1763085468.599383) can0 4C5#04AB04B904BF04BC
(1763085468.600400) can0 4C6#04C104C504BD04B7
(1763085468.601414) can0 000A0003#FF3CFF980FAE0000
(1763085468.601702) can0 000A0004#000B0004004B8E02
(1763085468.601948) can0 482#0000000008140001
(1763085468.602183) can0 4C7#04B604BA04BE04B8
(1763085468.602462) can0 4C8#04AD000000000000
(1763085468.606229) can0 186#00004C1D01060000
(1763085468.606583) can0 189#47029F01550100C0
(1763085468.607058) can0 181#810100207F000009
(1763085468.611415) can0 000A0003#FF3CFF970FB00000
(1763085468.611701) can0 000A0004#000B0003004B8E02
(1763085468.616233) can0 189#47029F01570100C0
(1763085468.617875) can0 382#0000000000000000
(1763085468.620361) can0 701#05
(1763085468.620708) can0 682#3E45230400000000
(1763085468.621410) can0 000A0003#FF3BFF950FB10000
(1763085468.621698) can0 000A0004#000A0003004B8E02
(1763085468.623403) can0 482#0000000008140001
(1763085468.626249) can0 189#4602A001570100C0
(1763085468.626441) can0 080#
(1763085468.627561) can0 286#6400900100000000
(1763085468.631412) can0 000A0003#FF3AFF920FB20000
(1763085468.631705) can0 000A0004#00090004004A8E02
(1763085468.634266) can0 281#0000000000000000
(1763085468.636232) can0 189#47029F01570100C0
(1763085468.636896) can0 1A3#00006513000000
(1763085468.639690) can0 382#0000000000000000
(1763085468.640681) can0 188#0C006B3300000000
(1763085468.641415) can0 000A0003#FF38FF900FB30000
(1763085468.641703) can0 000A0004#000A000400498E02
(1763085468.641937) can0 288#6329432B00140000
(1763085468.642186) can0 701#05
(1763085468.642453) can0 388#2121222121000000
(1763085468.643382) can0 191#999999999999
(1763085468.644396) can0 192#989999999998
(1763085468.645156) can0 181#810100207F000009
(1763085468.645408) can0 482#0000000008140001
(1763085468.645597) can0 193#999999999999
(1763085468.646223) can0 186#00004C1D01070000
(1763085468.646419) can0 194#999999999999
(1763085468.646649) can0 189#45029E01540100C0
(1763085468.647381) can0 195#999999999999
(1763085468.648411) can0 291#0F0F0F0F0F0F
(1763085468.649419) can0 292#0F0F0F0F100F
(1763085468.650421) can0 293#0F0F0F101010
(1763085468.651415) can0 000A0003#FF36FF8F0FB40000
(1763085468.651703) can0 000A0004#000A000300498E02
(1763085468.651906) can0 294#101010101010
(1763085468.652394) can0 295#101010111010
(1763085468.656228) can0 189#47029E01550100C0
(1763085468.661425) can0 000A0003#FF33FF8D0FB50000
(1763085468.661713) can0 000A0004#000A000300488E02
(1763085468.661957) can0 682#3E45230400000000
(1763085468.662211) can0 382#0000000000000000
(1763085468.663168) can0 1A2#00008313000000
(1763085468.663402) can0 2A1#1D1F202020222013
(1763085468.663634) can0 4C4#04BC04BC04B904B8
(1763085468.663860) can0 1A4#00007612000000
(1763085468.664088) can0 2A3#1E1F1A1B1B1E1818
(1763085468.664204) can0 701#05
(1763085468.664502) can0 4C5#04B004BE04BB04BC
(1763085468.665519) can0 4C6#04C104C504BD04B7
(1763085468.666228) can0 189#45029D01540100C0
(1763085468.666535) can0 4C7#04B604BA04BE04B8
(1763085468.666986) can0 482#0000000008140001
(1763085468.667562) can0 4C8#04AD000000000000
(1763085468.671421) can0 000A0003#FF30FF8C0FB50000
(1763085468.671705) can0 000A0004#0009000300488E02
(1763085468.674392) can0 1A5#0000FF12000000
(1763085468.676225) can0 189#4702A101560100C0
(1763085468.677897) can0 281#0000000000000000
(1763085468.681420) can0 000A0003#FF2DFF8C0FB50000
(1763085468.681709) can0 000A0004#000A000200498E02
(1763085468.683386) can0 382#0000000000000000
(1763085468.683668) can0 181#810100207F000009
(1763085468.685872) can0 701#05
(1763085468.686226) can0 186#00004C1D01080000
(1763085468.686585) can0 189#46029F01570100C0
(1763085468.688949) can0 482#0000000008140001
(1763085468.690817) can0 1A0#000000000100
(1763085468.691423) can0 000A0003#FF2AFF8E0FB40000
(1763085468.691711) can0 000A0004#0009000200488E02
(1763085468.692430) can0 000A0000#0000000000000000
(1763085468.692729) can0 000A0001#0000000000000000
(1763085468.693027) can0 000A0002#0000000000000000
(1763085468.696228) can0 189#4602A001570100C0
(1763085468.701427) can0 000A0003#FF26FF900FB20000
(1763085468.701715) can0 000A0004#000A000100488E02
(1763085468.702573) can0 682#3E45240400000000
(1763085468.705198) can0 382#0000000000000000
(1763085468.706224) can0 189#48029F01560100C0
(1763085468.707689) can0 701#05
(1763085468.710694) can0 482#0000000008140001
(1763085468.711427) can0 000A0003#FF24FF900FB00000
(1763085468.711717) can0 000A0004#000A000200478E02
(1763085468.716226) can0 189#4802A001570100C0
(1763085468.721420) can0 000A0003#FF24FF8F0FAD0000
(1763085468.721710) can0 000A0004#000A000200488E02
(1763085468.721955) can0 181#810100207F000009
(1763085468.722231) can0 281#0000000000000000
(1763085468.726239) can0 186#00004C1D01090000
(1763085468.726563) can0 189#47029F01550100C0
(1763085468.726803) can0 19A#000080716D7E807F
(1763085468.727263) can0 382#0000000000000000
(1763085468.727425) can0 080#
(1763085468.727687) can0 29A#816C828084820000
(1763085468.728575) can0 286#6400900100000000
(1763085468.728808) can0 4C4#04C804C204B904B8
(1763085468.729622) can0 4C5#04B004B904BF04C0
(1763085468.729738) can0 701#05
(1763085468.730635) can0 4C6#04BC04BC04B404B3
(1763085468.731422) can0 000A0003#FF25FF8D0FAB0000
(1763085468.731712) can0 000A0004#000B000000488E02
(1763085468.731948) can0 4C7#04BA04BF04B804BE
(1763085468.732489) can0 482#0000000008140001
(1763085468.732735) can0 4C8#04AD000000000000
(1763085468.736221) can0 189#47029F01560100C0
(1763085468.737785) can0 1A3#00006513000000
(1763085468.740685) can0 188#0C003E3300000000
(1763085468.741425) can0 000A0003#FF27FF8C0FA90000
(1763085468.741715) can0 000A0004#000B000000488E02
(1763085468.741951) can0 288#6329432A00140000
(1763085468.742430) can0 388#2121222121000000
(1763085468.743373) can0 191#999999999999
(1763085468.743618) can0 682#3E45230400000000
(1763085468.744386) can0 192#989999999998
(1763085468.745388) can0 193#999999999999
(1763085468.746224) can0 189#45029F01560100C0
(1763085468.746419) can0 194#999999999999
(1763085468.747387) can0 195#999999999999
(1763085468.748418) can0 291#0F0F0F0F0F0F
(1763085468.748904) can0 382#0000000000000000
(1763085468.749426) can0 292#0F0F0F0F100F
(1763085468.750429) can0 293#0F0F0F101010
(1763085468.751426) can0 000A0003#FF2BFF8D0FAA0000
(1763085468.751716) can0 000A0004#000B000000498E02
(1763085468.751920) can0 294#101010101010
(1763085468.752036) can0 701#05
(1763085468.752287) can0 482#0000000008140001
(1763085468.752486) can0 295#101010111010
(1763085468.756221) can0 189#47029F01570100C0
(1763085468.759794) can0 181#810100207F000009
(1763085468.761433) can0 000A0003#FF2DFF8E0FAC0000
(1763085468.761722) can0 000A0004#000A000000488E02
(1763085468.765288) can0 281#0000000000000000
(1763085468.766213) can0 186#00004C1D010A0000
(1763085468.766592) can0 189#4602A001570100C0
(1763085468.770565) can0 1A2#00008313000000
(1763085468.770789) can0 1A4#00007612000000
(1763085468.771027) can0 2A1#1C1F1F2020222013
(1763085468.771256) can0 2A3#1E1F1A1B1B1E1918
(1763085468.771543) can0 000A0003#FF2FFF8E0FAC0000
(1763085468.771831) can0 000A0004#000BFFFF00478E02
(1763085468.772081) can0 382#0000000000000000
(1763085468.773421) can0 482#0000000008140001
(1763085468.773541) can0 701#05
(1763085468.776218) can0 189#46029F01560100C0
(1763085468.776471) can0 1A5#0000FF12000000
(1763085468.781431) can0 000A0003#FF30FF8C0FAB0000
(1763085468.781721) can0 000A0004#000B000000478E02
(1763085468.784457) can0 682#3E45240400000000
(1763085468.786217) can0 189#47029F01570100C0
(1763085468.790819) can0 1A0#000000000100
(1763085468.791435) can0 000A0003#FF31FF8A0FAB0000
(1763085468.791723) can0 000A0004#000AFFFF00488E02
(1763085468.792449) can0 000A0000#0000000000000000
(1763085468.792749) can0 000A0001#0000000000000000
(1763085468.793047) can0 000A0002#0000000000000000
(1763085468.793297) can0 382#0000000000000000
(1763085468.793715) can0 4C4#04C804C204B904B8
(1763085468.794736) can0 4C5#04B004B904BF04C0
(1763085468.795050) can0 701#05
(1763085468.795402) can0 482#0000000008140001
(1763085468.795743) can0 4C6#04BC04BC04B404B3
(1763085468.796215) can0 189#45029E01550100C0
(1763085468.796763) can0 4C7#04BA04BF04B804BE
(1763085468.797791) can0 4C8#04AD000000000000
(1763085468.798100) can0 181#810100207F000009
(1763085468.801430) can0 000A0003#FF32FF890FAB0000
(1763085468.801715) can0 000A0004#0006000000478E02
(1763085468.806207) can0 186#00004C1D010B0000
(1763085468.806600) can0 189#45029F01570100C0
(1763085468.808956) can0 281#0000000000000000
(1763085468.811431) can0 000A0003#FF32FF8A0FA90000
(1763085468.811720) can0 000A0004#0006000000468E02
(1763085468.814408) can0 382#0000000000000000
(1763085468.816217) can0 189#49029F01560100C0
(1763085468.816900) can0 701#05
(1763085468.817223) can0 482#0000000008140001
(1763085468.821431) can0 000A0003#FF30FF8D0FA80000
(1763085468.821718) can0 000A0004#0006FFFF00468E02
(1763085468.825404) can0 682#3E45230400000000
(1763085468.826231) can0 189#47029F01560100C0
(1763085468.826425) can0 080#
(1763085468.827577) can0 286#6400900100000000
(1763085468.831441) can0 000A0003#FF2FFF8E0FA60000
(1763085468.831729) can0 000A0004#0006FFFE00468E02
(1763085468.836220) can0 382#0000000000000000
(1763085468.836456) can0 189#49029F01560100C0
(1763085468.836701) can0 181#810100207F000009
(1763085468.838681) can0 1A3#00006513000000
(1763085468.838933) can0 482#0000000008140001
(1763085468.839053) can0 701#05
(1763085468.840701) can0 188#0C00503300000000
(1763085468.841448) can0 000A0003#FF2BFF910FA40000
(1763085468.841724) can0 000A0004#0005FFFE00468E02
(1763085468.841965) can0 288#6229432A00140000
(1763085468.842436) can0 388#2121222121000000
(1763085468.843398) can0 191#999999999998
(1763085468.844407) can0 192#989999999998
(1763085468.845410) can0 193#999999999999
(1763085468.846204) can0 186#00004C1D010C0000
(1763085468.846399) can0 194#999999999999
(1763085468.846629) can0 189#46029C01550100C0
(1763085468.847391) can0 195#999999999999
(1763085468.848425) can0 291#0F0F0F0F0F0F
(1763085468.849432) can0 292#0F0F0F0F100F
(1763085468.850400) can0 293#0F0F0F101010
(1763085468.851432) can0 000A0003#FF27FF920FA20000
(1763085468.851721) can0 000A0004#0005FFFF00468E02
(1763085468.851924) can0 294#101010101010
(1763085468.852407) can0 295#101010111010
(1763085468.852660) can0 281#0000000000000000
(1763085468.856211) can0 189#47029F01550100C0
(1763085468.858173) can0 382#0000000000000000
(1763085468.858822) can0 4C4#04C204BC04BE04AE
(1763085468.859831) can0 4C5#04B004B504B704C0
(1763085468.860560) can0 701#05
(1763085468.860844) can0 4C6#04B804BC04B804B3
(1763085468.861090) can0 482#0000000008140001
(1763085468.861435) can0 000A0003#FF23FF930FA00000
(1763085468.861722) can0 000A0004#0005FFFF00468E02
(1763085468.861953) can0 4C7#04B604BA04AE04B3
(1763085468.862892) can0 4C8#04AD000000000000
(1763085468.866211) can0 189#4502A001560100C0
(1763085468.866457) can0 682#3E45230400000000
(1763085468.871443) can0 000A0003#FF21FF920F9F0000
(1763085468.871729) can0 000A0004#0004FFFF00468E02
(1763085468.874438) can0 181#810100207F000009
(1763085468.876210) can0 189#47029F01580100C0
(1763085468.877362) can0 1A4#00007612000000
(1763085468.877586) can0 2A3#21231A1B1B1E1918
(1763085468.877962) can0 1A2#00008313000000
(1763085468.878200) can0 2A1#1C1F1F1F20222013
(1763085468.878554) can0 1A5#0000FF12000000
(1763085468.879918) can0 382#0000000000000000
(1763085468.881438) can0 000A0003#FF1FFF910FA00000
(1763085468.881726) can0 000A0004#0007FFFF00458E02
(1763085468.882404) can0 701#05
(1763085468.882725) can0 482#0000000008140001
(1763085468.886202) can0 186#00004C1D010D0000
(1763085468.886591) can0 189#46029F01570100C0
(1763085468.890819) can0 1A0#000000000100
(1763085468.891439) can0 000A0003#FF1DFF910FA00000
(1763085468.891729) can0 000A0004#0006000000468E02
(1763085468.892449) can0 000A0000#0000000000000000
(1763085468.892750) can0 000A0001#0000000000000000
(1763085468.893047) can0 000A0002#0000000000000000
(1763085468.896212) can0 189#4802A001550100C0
(1763085468.896462) can0 281#0000000000000000
(1763085468.901439) can0 000A0003#FF1BFF900FA10000
(1763085468.901727) can0 000A0004#0006000000468E02
(1763085468.901978) can0 382#0000000000000000
(1763085468.904444) can0 482#0000000008140001
(1763085468.904563) can0 701#05
(1763085468.906205) can0 189#46029F01560100C0
(1763085468.907308) can0 682#3E45230400000000
(1763085468.911438) can0 000A0003#FF1AFF900FA20000
(1763085468.911725) can0 000A0004#0005000100478E02
(1763085468.912734) can0 181#810100207F000009
(1763085468.916210) can0 189#4702A001570100C0
(1763085468.921450) can0 000A0003#FF1AFF8E0FA50000
(1763085468.921738) can0 000A0004#0005000100468E02
(1763085468.923684) can0 382#0000000000000000
(1763085468.923945) can0 4C4#04C804BC04B304B3
(1763085468.924957) can0 4C5#04AB04B904B704BC
(1763085468.925973) can0 4C6#04BC04BC04B804B3
(1763085468.926089) can0 701#05
(1763085468.926330) can0 186#00004C1D010E0000
(1763085468.926576) can0 482#0000000008140001
(1763085468.926808) can0 189#47029E01540100C0
(1763085468.927040) can0 4C7#04B604BA04B304B8
(1763085468.927442) can0 080#
(1763085468.928012) can0 4C8#04AD000000000000
(1763085468.928564) can0 286#6400900100000000
(1763085468.931439) can0 000A0003#FF1AFF8E0FA60000
(1763085468.931726) can0 000A0004#0005000100438E02
(1763085468.932680) can0 19A#00007F6B727F807E
(1763085468.933686) can0 29A#8070838083830000
(1763085468.936205) can0 189#49029F01570100C0
(1763085468.939568) can0 1A3#00006513000000
(1763085468.939948) can0 281#0000000000000000
(1763085468.941442) can0 000A0003#FF1AFF900FA70000
(1763085468.941730) can0 000A0004#0005000100438E02
(1763085468.945428) can0 382#0000000000000000
(1763085468.946205) can0 189#48029F01550100C0
(1763085468.947916) can0 701#05
(1763085468.948237) can0 482#0000000008140001
(1763085468.948486) can0 682#3E45240400000000
(1763085468.949715) can0 188#0C00873300000000
(1763085468.950420) can0 288#6229431400140000
(1763085468.951444) can0 000A0003#FF1AFF920FA90000
(1763085468.951732) can0 000A0004#0006000100438E02
(1763085468.951968) can0 388#2121222121000000
(1763085468.952411) can0 191#999999999998
(1763085468.953390) can0 192#989999999998
(1763085468.953692) can0 181#810100207F000009
(1763085468.954392) can0 193#999999999999
(1763085468.955402) can0 194#999999999999
(1763085468.956202) can0 189#46029F01550100C0
(1763085468.956406) can0 195#999999999999
(1763085468.957436) can0 291#0F0F0F0F0F0F
(1763085468.958414) can0 292#0F0F0F0F100F
(1763085468.959415) can0 293#0F0F0F101010
(1763085468.960416) can0 294#101010101010
(1763085468.961446) can0 000A0003#FF19FF940FAA0000
(1763085468.961739) can0 000A0004#0007000000438E02
(1763085468.961939) can0 295#101010111010
(1763085468.966196) can0 186#00004C1D010F0000
(1763085468.966607) can0 189#47029F01550100C0
(1763085468.967347) can0 382#0000000000000000
(1763085468.967468) can0 701#05
(1763085468.969943) can0 482#0000000008140001
(1763085468.971450) can0 000A0003#FF18FF950FAA0000
(1763085468.971739) can0 000A0004#0008FFFF00428E02
(1763085468.976205) can0 189#48029F01550100C0
(1763085468.980630) can0 1A5#0000FF12000000
(1763085468.981447) can0 000A0003#FF19FF950FAA0000
(1763085468.981736) can0 000A0004#0008FFFF00428E02
(1763085468.983637) can0 281#0000000000000000
(1763085468.984151) can0 1A4#00007612000000
(1763085468.984375) can0 2A3#21231A1B1B1E1918
(1763085468.985361) can0 1A2#00008313000000
(1763085468.985601) can0 2A1#1C1E1F1F20222012
(1763085468.986199) can0 189#45029E01550100C0
(1763085468.988860) can0 701#05
(1763085468.989093) can0 4C4#04C804BC04B304B8
(1763085468.989339) can0 482#0000000008140001
(1763085468.989611) can0 682#3E45230400000000
(1763085468.989866) can0 382#0000000000000000
(1763085468.990098) can0 4C5#04B004BE04BB04BC
(1763085468.990821) can0 1A0#000000000100
(1763085468.991074) can0 4C6#04BC04BC04BD04B3
(1763085468.991448) can0 000A0003#FF1AFF950FAA0000
(1763085468.991740) can0 000A0004#0009000000428E02
(1763085468.992090) can0 4C7#04B604BA04BE04BE
(1763085468.992460) can0 000A0000#0000000000000000
(1763085468.992760) can0 000A0001#0000000000000000
(1763085468.993058) can0 000A0002#0000000000000000
(1763085468.993304) can0 4C8#04AD000000000000
(1763085468.994635) can0 181#810100207F000009
(1763085468.996200) can0 189#46029E01540100C0
(1763085469.001447) can0 000A0003#FF1CFF950FAC0000
(1763085469.001734) can0 000A0004#0009FFFF00428E02
(1763085469.006194) can0 186#00004C1D01000000
(1763085469.006587) can0 189#48029F01560100C0
(1763085469.010901) can0 482#0000000008140001
(1763085469.011020) can0 701#05
(1763085469.011274) can0 382#0000000000000000
(1763085469.011560) can0 000A0003#FF1DFF950FAC0000
(1763085469.011852) can0 000A0004#000A000000428E02
(1763085469.016202) can0 189#47029F01580100C0
(1763085469.021453) can0 000A0003#FF1CFF950FAD0000
(1763085469.021741) can0 000A0004#000B000000428E02
(1763085469.026215) can0 189#4802A001560100C0
(1763085469.026442) can0 080#
(1763085469.027389) can0 281#0000000000000000
(1763085469.027633) can0 286#6400900100000000
(1763085469.030160) can0 682#3E45240400000000
(1763085469.031456) can0 000A0003#FF1BFF960FAD0000
(1763085469.031746) can0 000A0004#000A000000428E02
(1763085469.032751) can0 382#0000000000000000
(1763085469.032871) can0 701#05
(1763085469.033122) can0 181#810100207F000009
(1763085469.033402) can0 482#0000000008140001
(1763085469.036195) can0 189#47029F01540100C0
(1763085469.040432) can0 1A3#00006513000000
(1763085469.040672) can0 188#0C006B3300000000
(1763085469.041454) can0 000A0003#FF1BFF940FAD0000
(1763085469.041744) can0 000A0004#000B000000428E02
(1763085469.041978) can0 288#6329432200140000
(1763085469.042451) can0 388#2121222121000000
(1763085469.043413) can0 191#999999999999
(1763085469.044395) can0 192#999999999998
(1763085469.045397) can0 193#999999999999
(1763085469.046191) can0 186#00004C1D01010000
(1763085469.046408) can0 194#999999999999
(1763085469.046640) can0 189#4602A001560100C0
(1763085469.047406) can0 195#999999999999
(1763085469.048408) can0 291#0F0F0F0F0F0F
(1763085469.049414) can0 292#0F0F0F0F100F
(1763085469.050420) can0 293#0F0F0F101010
(1763085469.051455) can0 000A0003#FF1CFF940FAE0000
(1763085469.051748) can0 000A0004#000A000000418E02
(1763085469.051954) can0 294#101010101010
(1763085469.052425) can0 295#101010111010
(1763085469.054167) can0 4C4#04C204BC04B904B3
(1763085469.054381) can0 701#05
(1763085469.054704) can0 482#0000000008140001
(1763085469.054957) can0 382#0000000000000000
(1763085469.055188) can0 4C5#04AB04B904B704B8
(1763085469.056193) can0 189#45029E01550100C0
(1763085469.056428) can0 4C6#04C104BC04BD04B3
(1763085469.057209) can0 4C7#04B604B504BD04C3
(1763085469.058242) can0 4C8#04AD000000000000
(1763085469.061462) can0 000A0003#FF1DFF920FB00000
(1763085469.061756) can0 000A0004#000A000000418E02
(1763085469.066196) can0 189#4802A001570100C0
(1763085469.070970) can0 181#810100207F000009
(1763085469.071226) can0 281#0000000000000000
(1763085469.071510) can0 000A0003#FF1EFF910FB20000
(1763085469.071798) can0 000A0004#0009FFFF00428E02
(1763085469.072042) can0 682#3E45230400000000
(1763085469.076194) can0 189#4802A001560100C0
(1763085469.076439) can0 482#0000000008140001
(1763085469.076559) can0 701#05
(1763085469.076853) can0 382#0000000000000000
(1763085469.081457) can0 000A0003#FF1EFF8F0FB30000
(1763085469.081743) can0 000A0004#0009FFFF00428E02
(1763085469.082692) can0 1A5#0000FF12000000
(1763085469.086186) can0 186#00004C1D01020000
(1763085469.086605) can0 189#48029F01570100C0
(1763085469.090826) can0 1A0#000000000100
(1763085469.091047) can0 1A4#00007612000000
(1763085469.091277) can0 2A3#1F231A1B1B1E1818
(1763085469.091563) can0 000A0003#FF1EFF8E0FB40000
(1763085469.091855) can0 000A0004#0008000000428E02
(1763085469.092473) can0 000A0000#0000000000000000
(1763085469.092772) can0 000A0001#0000000000000000
(1763085469.093071) can0 000A0002#0000000000000000
(1763085469.093297) can0 1A2#00008313000000
(1763085469.093535) can0 2A1#1C1E1F1F20212012
(1763085469.096188) can0 189#47029E01550100C0
(1763085469.098263) can0 382#0000000000000000
(1763085469.098381) can0 701#05
(1763085469.098631) can0 482#0000000008140001
(1763085469.101456) can0 000A0003#FF20FF910FB20000
(1763085469.101747) can0 000A0004#0008000000428E02
(1763085469.106188) can0 189#4702A101560100C0
(1763085469.109266) can0 181#810100207F000009
(1763085469.111456) can0 000A0003#FF21FF930FB10000
(1763085469.111743) can0 000A0004#0008FFFF00438E02
(1763085469.112012) can0 682#3E45230400000000
(1763085469.114654) can0 281#0000000000000000
(1763085469.116189) can0 189#48029F01570100C0
(1763085469.119291) can0 4C4#04C204BC04B904B3
(1763085469.119885) can0 701#05
(1763085469.120212) can0 482#0000000008140001
(1763085469.120441) can0 4C5#04AB04B904B704B8
(1763085469.120692) can0 382#0000000000000000
(1763085469.121320) can0 4C6#04C104BC04BD04B3
(1763085469.121612) can0 000A0003#FF20FF950FB10000
(1763085469.121904) can0 000A0004#0007000000438E02
(1763085469.122145) can0 19A#00007F6D707F7F80
(1763085469.122376) can0 4C7#04B604B504BD04C3
(1763085469.122682) can0 29A#816F828084820000
(1763085469.123364) can0 4C8#04AD000000000000
(1763085469.126208) can0 186#00004C1D01030000
(1763085469.126596) can0 189#45029F01550100C0
(1763085469.127428) can0 080#
(1763085469.128578) can0 286#6400900100000000
(1763085469.131466) can0 000A0003#FF1FFF960FB10000
(1763085469.131754) can0 000A0004#0007000100438E02
(1763085469.136190) can0 189#48029F01580100C0
(1763085469.140663) can0 188#0C00FF3200000000
(1763085469.141312) can0 1A3#00006513000000
(1763085469.141602) can0 000A0003#FF1FFF970FB20000
(1763085469.141892) can0 000A0004#0007000000448E02
(1763085469.142128) can0 288#6329432A00140000
(1763085469.142375) can0 482#0000000008140001
(1763085469.142611) can0 388#2121222121000000
(1763085469.142727) can0 701#05
(1763085469.142981) can0 382#0000000000000000
(1763085469.143371) can0 191#999999999999
(1763085469.144383) can0 192#999999999998
(1763085469.145403) can0 193#999999999999
(1763085469.146185) can0 189#46029D01540100C0
(1763085469.146415) can0 194#999999999999
(1763085469.147432) can0 181#810100207F000009
(1763085469.147623) can0 195#999999999999
(1763085469.148417) can0 291#0F0F0F0F0F0F
(1763085469.149425) can0 292#0F0F0F0F100F
(1763085469.150408) can0 293#0F0F0F101010
(1763085469.151465) can0 000A0003#FF1DFF990FB20000
(1763085469.151755) can0 000A0004#0007000000488E02
(1763085469.151959) can0 294#101010101010
(1763085469.152383) can0 295#101010111010
(1763085469.152973) can0 682#3E45230400000000
(1763085469.156187) can0 189#47029F01560100C0
(1763085469.158350) can0 281#0000000000000000
(1763085469.161465) can0 000A0003#FF1BFF9B0FB00000
(1763085469.161756) can0 000A0004#0008000000488E02
(1763085469.163774) can0 382#0000000000000000
(1763085469.163892) can0 701#05
(1763085469.164142) can0 482#0000000008140001
(1763085469.166179) can0 186#00004C1D01040000
(1763085469.166591) can0 189#47029F01540100C0
(1763085469.171509) can0 000A0003#FF19FF9C0FAE0000
(1763085469.171758) can0 000A0004#0007000100488E02
(1763085469.176186) can0 189#48029F01560100C0
(1763085469.181465) can0 000A0003#FF18FF9E0FAD0000
(1763085469.181755) can0 000A0004#0007000200488E02
(1763085469.184398) can0 4C4#04C204C204B904AE
(1763085469.184770) can0 1A5#0000FF12000000
(1763085469.185415) can0 4C5#04B504B504BF04BC
(1763085469.185659) can0 181#810100207F000009
(1763085469.185787) can0 701#05
(1763085469.186037) can0 482#0000000008140001
(1763085469.186272) can0 189#46029E01550100C0
(1763085469.186523) can0 382#0000000000000000
(1763085469.186754) can0 4C6#04BC04BC04B804B3
(1763085469.187440) can0 4C7#04B604B004B804B8
(1763085469.188471) can0 4C8#04AD000000000000
(1763085469.190823) can0 1A0#000000000100
(1763085469.191472) can0 000A0003#FF17FF9F0FAB0000
(1763085469.191762) can0 000A0004#0008000100488E02
(1763085469.192479) can0 000A0000#0000000000000000
(1763085469.192779) can0 000A0001#0000000000000000
(1763085469.193077) can0 000A0002#0000000000000000
(1763085469.193898) can0 682#3E45230400000000
(1763085469.196182) can0 189#46029F01580100C0
(1763085469.197738) can0 1A4#00007612000000
(1763085469.197972) can0 2A3#1F201A1B1B1E1818
(1763085469.200179) can0 1A2#00008313000000
(1763085469.200414) can0 2A1#1C1E1F1F20212012
(1763085469.201474) can0 000A0003#FF15FFA10FAB0000
(1763085469.201764) can0 000A0004#0008000100488E02
(1763085469.202016) can0 281#0000000000000000
(1763085469.206176) can0 186#00004C1D01050000
(1763085469.206603) can0 189#4702A001560100C0
(1763085469.207475) can0 482#0000000008140001
(1763085469.207623) can0 701#05
(1763085469.207877) can0 382#0000000000000000
(1763085469.211514) can0 000A0003#FF13FFA30FAB0000
(1763085469.211765) can0 000A0004#0007000100488E02
(1763085469.216228) can0 189#48029F01570100C0
(1763085469.221506) can0 000A0003#FF0FFFA20FAE0000
(1763085469.221762) can0 000A0004#0007000100488E02
(1763085469.223911) can0 181#810100207F000009
(1763085469.226194) can0 189#47029F01570100C0
(1763085469.226427) can0 080#
(1763085469.227579) can0 286#6400900100000000
(1763085469.229321) can0 382#0000000000000000
(1763085469.229461) can0 701#05
(1763085469.229710) can0 482#0000000008140001
(1763085469.231470) can0 000A0003#FF0BFFA10FB10000
(1763085469.231759) can0 000A0004#0007000100478E02
(1763085469.234846) can0 682#3E45230400000000
(1763085469.236179) can0 189#4602A101570100C0
(1763085469.240681) can0 188#0C00743300000000
(1763085469.241474) can0 000A0003#FF0DFFA20FB10000
(1763085469.241761) can0 000A0004#0007000100498E02
(1763085469.241997) can0 288#6229432200140000
(1763085469.242220) can0 1A3#00006513000000
(1763085469.242456) can0 388#2121222121000000
(1763085469.243398) can0 191#999999999998
(1763085469.244409) can0 192#989999999998
(1763085469.245423) can0 193#999999999999
(1763085469.245687) can0 281#0000000000000000
(1763085469.246177) can0 186#00004C1D01060000
(1763085469.246393) can0 194#999999999999
(1763085469.246627) can0 189#45029F01550100C0
(1763085469.247392) can0 195#999999999999
(1763085469.248425) can0 291#0F0F0F0F0F0F
(1763085469.249430) can0 292#0F0F0F0F100F
(1763085469.249662) can0 4C4#04C204C204B904AE
(1763085469.250433) can0 293#0F0F0F101010
(1763085469.250666) can0 4C5#04B504B504BF04BC
(1763085469.250961) can0 701#05
(1763085469.251244) can0 482#0000000008140001
(1763085469.251526) can0 000A0003#FF0EFFA30FB20000
(1763085469.251817) can0 000A0004#00060000004A8E02
(1763085469.252021) can0 294#101010101010
(1763085469.252272) can0 382#0000000000000000
(1763085469.252471) can0 295#101010111010
(1763085469.252704) can0 4C7#04B604B504B804B8
(1763085469.252935) can0 4C6#04BC04BC04B804B3
(1763085469.253599) can0 4C8#04AD000000000000
(1763085469.256176) can0 189#46029D01540100C0
(1763085469.261476) can0 000A0003#FF11FFA20FB20000
(1763085469.261770) can0 000A0004#0006000000498E02
(1763085469.262061) can0 181#810100207F000009
(1763085469.266174) can0 189#49029F01570100C0
(1763085469.271478) can0 000A0003#FF13FFA10FB30000
(1763085469.271771) can0 000A0004#00050001004D8E02
(1763085469.272945) can0 482#0000000008140001
(1763085469.273063) can0 701#05
(1763085469.273317) can0 382#0000000000000000
(1763085469.275789) can0 682#3E45230400000000
(1763085469.276175) can0 189#47029F01580100C0
(1763085469.281478) can0 000A0003#FF15FFA20FB40000
(1763085469.281768) can0 000A0004#00050000004D8E02
(1763085469.286167) can0 186#00004C1D01070000
(1763085469.286590) can0 189#47029F01560100C0
(1763085469.286849) can0 1A5#0000FF12000000
(1763085469.289372) can0 281#0000000000000000
(1763085469.290825) can0 1A0#000000000100
(1763085469.291478) can0 000A0003#FF18FFA20FB60000
(1763085469.291767) can0 000A0004#00040000004D8E02
(1763085469.292492) can0 000A0000#0000000000000000
(1763085469.292791) can0 000A0001#0000000000000000
(1763085469.293089) can0 000A0002#0000000000000000
(1763085469.294794) can0 382#0000000000000000
(1763085469.294914) can0 701#05
(1763085469.295165) can0 482#0000000008140001
(1763085469.296174) can0 189#47029E01540100C0
(1763085469.300256) can0 181#810100207F000009
(1763085469.301488) can0 000A0003#FF1CFF9F0FB80000
(1763085469.301782) can0 000A0004#00040000004B8E02
(1763085469.304537) can0 1A4#00007612000000
(1763085469.304768) can0 2A3#1F201A1B1B1E1818
(1763085469.306172) can0 189#47029F01570100C0
(1763085469.307604) can0 1A2#00008313000000
(1763085469.307840) can0 2A1#1C1E1F1F20212012
(1763085469.311485) can0 000A0003#FF1FFF9E0FB90000
(1763085469.311770) can0 000A0004#0005FFFF004B8E02
(1763085469.314643) can0 4C4#04C204BC04B904AE
(1763085469.315657) can0 4C5#04B004B904B704B8
(1763085469.316177) can0 189#49029F01560100C0
(1763085469.316473) can0 701#05
(1763085469.316703) can0 4C6#04B804B804B804B3
(1763085469.316949) can0 482#0000000008140001
(1763085469.317198) can0 682#3E45230400000000
(1763085469.317452) can0 382#0000000000000000
(1763085469.317684) can0 4C7#04B104BA04B804B3
(1763085469.318718) can0 4C8#04AD000000000000
(1763085469.321475) can0 000A0003#FF21FF9D0FB70000
(1763085469.321763) can0 000A0004#0005FFFF004A8E02
(1763085469.326186) can0 186#00004C1D01080000
(1763085469.326581) can0 189#48029F01560100C0
(1763085469.327442) can0 080#
(1763085469.327706) can0 19A#00007C74757E8080
(1763085469.328595) can0 286#6400900100000000
(1763085469.328833) can0 29A#806E837F83830000
(1763085469.331476) can0 000A0003#FF22FF9D0FB40000
(1763085469.331762) can0 000A0004#0005FFFF004A8E02
(1763085469.333006) can0 281#0000000000000000
(1763085469.336170) can0 189#48029F01560100C0
(1763085469.338455) can0 482#0000000008140001
(1763085469.338575) can0 701#05
(1763085469.338829) can0 382#0000000000000000
(1763085469.339073) can0 181#810100207F000009
(1763085469.340679) can0 188#0C007D3300000000
(1763085469.341480) can0 000A0003#FF23FF9D0FB30000
(1763085469.341767) can0 000A0004#0005FFFF004A8E02
(1763085469.342001) can0 288#6229432B00140000
(1763085469.342443) can0 388#2121222121000000
(1763085469.343120) can0 1A3#00006513000000
(1763085469.343407) can0 191#999999999998
(1763085469.344416) can0 192#989999999998
(1763085469.345418) can0 193#999999999999
(1763085469.346168) can0 189#47029D01540100C0
(1763085469.346381) can0 194#999999999999
(1763085469.347385) can0 195#999999999999
(1763085469.348414) can0 291#0F0F0F0F0F0F
(1763085469.349438) can0 292#0F0F0F0F100F
(1763085469.350411) can0 293#0F0F0F101010
(1763085469.351486) can0 000A0003#FF24FF9C0FB20000
(1763085469.351774) can0 000A0004#0005FFFF004A8E02
(1763085469.351978) can0 294#101010101010
(1763085469.352416) can0 295#101010111010
(1763085469.356171) can0 189#4602A001570100C0
(1763085469.357674) can0 682#3E45230400000000
(1763085469.360308) can0 382#0000000000000000
(1763085469.360429) can0 701#05
(1763085469.360678) can0 482#0000000008140001
(1763085469.361485) can0 000A0003#FF25FF9C0FB10000
(1763085469.361771) can0 000A0004#0006FFFF004A8E02
(1763085469.366160) can0 186#00004C1D01090000
(1763085469.366608) can0 189#47029F01560100C0
(1763085469.371485) can0 000A0003#FF26FF9B0FAF0000
(1763085469.371775) can0 000A0004#0005FFFF00498E02
(1763085469.376169) can0 189#4902A001580100C0
(1763085469.376712) can0 181#810100207F000009
(1763085469.376999) can0 281#0000000000000000
(1763085469.379754) can0 4C4#04C804BC04B304B8
(1763085469.380767) can0 4C5#04B504C204BB04BC
(1763085469.381486) can0 000A0003#FF28FF990FAE0000
(1763085469.381777) can0 000A0004#0005FFFE00498E02
(1763085469.382009) can0 4C6#04BC04B804B804B7
(1763085469.382125) can0 701#05
(1763085469.382376) can0 482#0000000008140001
(1763085469.382630) can0 382#0000000000000000
(1763085469.382860) can0 4C7#04B104BA04BD04C3
(1763085469.383826) can0 4C8#04AD000000000000
(1763085469.386166) can0 189#46029E01550100C0
(1763085469.388947) can0 1A5#0000FF12000000
(1763085469.390827) can0 1A0#000000000100
(1763085469.391482) can0 000A0003#FF29FF970FAD0000
(1763085469.391776) can0 000A0004#0006FFFE00498E02
(1763085469.392500) can0 000A0000#0000000000000000
(1763085469.392800) can0 000A0001#0000000000000000
(1763085469.393098) can0 000A0002#0000000000000000
(1763085469.396165) can0 189#48029F01560100C0
(1763085469.398622) can0 682#3E45230400000000
(1763085469.401493) can0 000A0003#FF2BFF960FAE0000
(1763085469.401788) can0 000A0004#0006FFFE00498E02
(1763085469.403967) can0 482#0000000008140001
(1763085469.404086) can0 701#05
(1763085469.404340) can0 382#0000000000000000
(1763085469.406158) can0 186#00004C1D010A0000
(1763085469.406617) can0 189#46029F01570100C0
(1763085469.411324) can0 1A4#00007612000000
(1763085469.411606) can0 000A0003#FF2CFF960FAE0000
(1763085469.411900) can0 000A0004#0006FFFE00498E02
(1763085469.412128) can0 2A3#1C1D1A1B1B1E1818
(1763085469.414903) can0 181#810100207F000009
(1763085469.415128) can0 1A2#00008313000000
(1763085469.415367) can0 2A1#1C1E1F1F20212012
(1763085469.416162) can0 189#46029E01550100C0
(1763085469.420395) can0 281#0000000000000000
(1763085469.421499) can0 000A0003#FF2BFF960FB00000
(1763085469.421788) can0 000A0004#0007FFFE00498E02
(1763085469.425817) can0 382#0000000000000000
(1763085469.425936) can0 701#05
(1763085469.426187) can0 482#0000000008140001
(1763085469.426428) can0 189#49029F01580100C0
(1763085469.426524) can0 080#
(1763085469.427595) can0 286#6400900100000000
(1763085469.431493) can0 000A0003#FF2AFF960FB40000
(1763085469.431783) can0 000A0004#0008FFFE00498E02
(1763085469.436160) can0 189#48029F01570100C0
(1763085469.439566) can0 682#3E45230400000000
(1763085469.440668) can0 188#0C006B3300000000
(1763085469.441489) can0 000A0003#FF29FF970FB50000
(1763085469.441781) can0 000A0004#0009FFFE00488E02
(1763085469.442015) can0 288#6329432B00140000
(1763085469.442450) can0 388#2121222121000000
(1763085469.443413) can0 191#999999999998
(1763085469.444037) can0 1A3#00006513000000
(1763085469.444423) can0 192#989999999998
(1763085469.444861) can0 4C4#04C804BC04B304B8
(1763085469.445395) can0 193#999999999999
(1763085469.445875) can0 4C5#04B504C204BB04BC
(1763085469.446165) can0 186#00004C1D010B0000
(1763085469.446407) can0 194#999999999999
(1763085469.446639) can0 189#45029E01550100C0
(1763085469.446889) can0 4C6#04BC04B804B804B7
(1763085469.447407) can0 195#999999999999
(1763085469.447529) can0 701#05
(1763085469.447860) can0 482#0000000008140001
(1763085469.448090) can0 4C7#04B104BA04BD04C3
(1763085469.448340) can0 382#0000000000000000
(1763085469.448554) can0 291#0F0F0F0F0F0F
(1763085469.448932) can0 4C8#04AD000000000000
(1763085469.449414) can0 292#0F0F0F0F100F
(1763085469.450418) can0 293#0F0F0F101010
(1763085469.451484) can0 000A0003#FF28FF970FB50000
(1763085469.451772) can0 000A0004#000AFFFF00498E02
(1763085469.451975) can0 294#101010101010
(1763085469.452420) can0 295#101010111010
(1763085469.453213) can0 181#810100207F000009
(1763085469.456159) can0 189#47029F01550100C0
(1763085469.461501) can0 000A0003#FF27FF980FB40000
(1763085469.461788) can0 000A0004#000AFFFF00488E02
(1763085469.464031) can0 281#0000000000000000
(1763085469.466157) can0 189#4902A001560100C0
(1763085469.469478) can0 482#0000000008140001
(1763085469.469597) can0 701#05
(1763085469.469851) can0 382#0000000000000000
(1763085469.471495) can0 000A0003#FF26FF980FB30000
(1763085469.471783) can0 000A0004#000AFFFE00498E02
(1763085469.476160) can0 189#4602A001570100C0
(1763085469.480519) can0 682#3E45240400000000
(1763085469.481496) can0 000A0003#FF28FF980FB20000
(1763085469.481788) can0 000A0004#000BFFFE00498E02
(1763085469.486150) can0 186#00004C1D010C0000
(1763085469.486607) can0 189#49029F01570100C0
(1763085469.488455) can0 701#05
(1763085469.488736) can0 482#0000000008140001
(1763085469.489023) can0 382#0000000000000000
(1763085469.490829) can0 1A0#000000000100
(1763085469.491051) can0 1A5#0000FF12000000
(1763085469.491366) can0 181#810100207F000009
(1763085469.491654) can0 000A0003#FF2BFF990FB10000
(1763085469.491946) can0 000A0004#000BFFFE00488E02
(1763085469.492510) can0 000A0000#0000000000000000
(1763085469.492810) can0 000A0001#0000000000000000
(1763085469.493108) can0 000A0002#0000000000000000
(1763085469.496160) can0 189#45029F01580100C0
(1763085469.501497) can0 000A0003#FF2CFF990FB10000
(1763085469.501789) can0 000A0004#000CFFFE00488E02
(1763085469.506159) can0 189#49029F01580100C0
(1763085469.507719) can0 281#0000000000000000
(1763085469.509976) can0 4C4#04C204BC04B904B8
(1763085469.510427) can0 482#0000000008140001
(1763085469.510546) can0 701#05
(1763085469.510801) can0 382#0000000000000000
(1763085469.511031) can0 4C5#04B004B904BB04BC
(1763085469.511499) can0 000A0003#FF2EFF980FB20000
(1763085469.511787) can0 000A0004#000CFFFF00478E02
(1763085469.512023) can0 4C6#04C104C004B804B7
(1763085469.513023) can0 4C7#04B604B004B304BE
(1763085469.514051) can0 4C8#04AD000000000000
(1763085469.516155) can0 189#47029F01550100C0
(1763085469.518115) can0 1A4#00007612000000
(1763085469.518344) can0 2A3#1C1D1A1B1B1E1818
(1763085469.521495) can0 000A0003#FF30FF970FB20000
(1763085469.521782) can0 000A0004#000CFFFF00478E02
(1763085469.522027) can0 682#3E45230400000000
(1763085469.522375) can0 1A2#00008313000000
(1763085469.522611) can0 2A1#1C1E1F1F20212012
(1763085469.526169) can0 186#00004C1D010D0000
(1763085469.526599) can0 189#48029F01560100C0
(1763085469.527461) can0 080#
(1763085469.528579) can0 286#6400900100000000
(1763085469.529762) can0 382#0000000000000000
(1763085469.529883) can0 701#05
(1763085469.530133) can0 181#810100207F000009
(1763085469.530421) can0 482#0000000008140001
(1763085469.531502) can0 000A0003#FF31FF970FB20000
(1763085469.531796) can0 000A0004#000CFFFE00488E02
(1763085469.533702) can0 19A#00007F6F757E7D7F
(1763085469.534709) can0 29A#8073828183840000
(1763085469.536151) can0 189#48029F01560100C0
(1763085469.540697) can0 188#0C003E3300000000
(1763085469.541449) can0 288#6329432A00140000
(1763085469.541737) can0 000A0003#FF32FF960FB30000
(1763085469.542027) can0 000A0004#000BFFFE00478E02
(1763085469.542458) can0 388#2121222121000000
(1763085469.543418) can0 191#999999999998
(1763085469.544398) can0 192#999999999998
(1763085469.544948) can0 1A3#00006513000000
(1763085469.545398) can0 193#999999999999
(1763085469.546150) can0 189#46029F01580100C0
(1763085469.546414) can0 194#999999999999
(1763085469.547415) can0 195#999999999999
(1763085469.548415) can0 291#0F0F0F0F0F0F
(1763085469.549423) can0 292#0F0F0F0F100F
(1763085469.550426) can0 293#0F0F0F101010
(1763085469.551373) can0 482#0000000008140001
(1763085469.551659) can0 000A0003#FF34FF960FB60000
(1763085469.551950) can0 000A0004#000AFFFF00478E02
(1763085469.552153) can0 294#101010101010
(1763085469.552270) can0 701#05
(1763085469.552470) can0 295#101010111010
(1763085469.552720) can0 382#0000000000000000
(1763085469.552976) can0 281#0000000000000000
(1763085469.556150) can0 189#45029F01560100C0
(1763085469.561507) can0 000A0003#FF35FF950FB80000
(1763085469.561797) can0 000A0004#0009FFFF00468E02
(1763085469.562401) can0 682#3E45230400000000
(1763085469.566139) can0 186#00004C1D010E0000
(1763085469.566600) can0 189#4602A001580100C0
(1763085469.570490) can0 181#810100207F000009
(1763085469.571508) can0 000A0003#FF36FF940FB90000
(1763085469.571800) can0 000A0004#0008FFFF00478E02
(1763085469.573216) can0 382#0000000000000000
(1763085469.573336) can0 701#05
(1763085469.573586) can0 482#0000000008140001
(1763085469.575090) can0 4C4#04C204BC04B904B8
(1763085469.576101) can0 4C5#04B004B904BB04BC
(1763085469.576337) can0 189#48029F01550100C0
(1763085469.577122) can0 4C6#04C104C004B804B7
(1763085469.578135) can0 4C7#04B604B004B304BE
(1763085469.579165) can0 4C8#04AD000000000000
(1763085469.581516) can0 000A0003#FF37FF920FBC0000
(1763085469.581808) can0 000A0004#0008FFFF00478E02
(1763085469.586151) can0 189#49029F01560100C0
(1763085469.590831) can0 1A0#000000000100
(1763085469.591509) can0 000A0003#FF36FF8F0FBE0000
(1763085469.591800) can0 000A0004#0008000000468E02
(1763085469.592518) can0 000A0000#0000000000000000
(1763085469.592818) can0 000A0001#0000000000000000
(1763085469.593117) can0 000A0002#0000000000000000
(1763085469.593341) can0 1A5#0000FF12000000
(1763085469.594835) can0 701#05
(1763085469.595091) can0 281#0000000000000000
(1763085469.595361) can0 482#0000000008140001
(1763085469.595615) can0 382#0000000000000000
(1763085469.596143) can0 189#46029D01550100C0
(1763085469.601525) can0 000A0003#FF34FF8E0FBF0000
(1763085469.601804) can0 000A0004#0008000000468E02
(1763085469.603339) can0 682#3E45230400000000
(1763085469.606137) can0 186#00004C1D010F0000
(1763085469.606600) can0 189#48029F01570100C0
(1763085469.608818) can0 181#810100207F000009
(1763085469.611506) can0 000A0003#FF32FF8D0FC00000
(1763085469.611794) can0 000A0004#0008000000458E02
(1763085469.616148) can0 189#4802A001590100C0
(1763085469.619375) can0 701#05
(1763085469.619723) can0 482#0000000008140001
(1763085469.619981) can0 382#0000000000000000
(1763085469.621509) can0 000A0003#FF2FFF8D0FC20000
(1763085469.621799) can0 000A0004#0008000000458E02
(1763085469.624921) can0 1A4#00007612000000
(1763085469.625151) can0 2A3#1D1D1C1B1B1E1818
(1763085469.626162) can0 189#48029F01570100C0
(1763085469.626460) can0 080#
(1763085469.627581) can0 286#6400900100000000
(1763085469.629756) can0 1A2#00008313000000
(1763085469.629993) can0 2A1#1C1E1F1F20212012
(1763085469.631511) can0 000A0003#FF2DFF8E0FC60000
(1763085469.631797) can0 000A0004#0009FFFF00448E02
(1763085469.636145) can0 189#4802A001560100C0
(1763085469.638497) can0 701#05
(1763085469.638770) can0 281#0000000000000000
(1763085469.640184) can0 4C4#04C204B604B304B3
(1763085469.640706) can0 188#0C00083300000000
(1763085469.641201) can0 4C5#04B504B904BB04BC
(1763085469.641449) can0 482#0000000008140001
(1763085469.641733) can0 000A0003#FF2CFF8F0FC70000
(1763085469.642021) can0 000A0004#0009FFFF00448E02
(1763085469.642257) can0 288#6329432A00140000
(1763085469.642508) can0 382#0000000000000000
(1763085469.642743) can0 388#2121222121000000
(1763085469.642975) can0 4C6#04BC04BC04B804B3
(1763085469.643249) can0 4C7#04B604B504BE04B3
(1763085469.643442) can0 191#999999999998
(1763085469.644277) can0 4C8#04AD000000000000
(1763085469.644473) can0 192#999999999998
(1763085469.644718) can0 682#3E45230400000000
(1763085469.645408) can0 193#999999999999
(1763085469.645878) can0 1A3#00006513000000
(1763085469.646154) can0 186#00004C1D01000000
(1763085469.646422) can0 194#999999999999
(1763085469.646652) can0 189#45029C01540100C0
(1763085469.647056) can0 181#810100207F000009
(1763085469.647393) can0 195#999999999999
(1763085469.648423) can0 291#0F0F0F0F0F0F
(1763085469.649431) can0 292#0F0F0F0F100F
(1763085469.650432) can0 293#0F0F0F101010
(1763085469.651515) can0 000A0003#FF2BFF910FC60000
(1763085469.651805) can0 000A0004#0009000000458E02
(1763085469.652009) can0 294#101010101010
(1763085469.652406) can0 295#101010111010
(1763085469.656192) can0 189#49029F01570100C0
(1763085469.660348) can0 701#05
(1763085469.661525) can0 000A0003#FF29FF900FC80000
(1763085469.661813) can0 000A0004#000AFFFF00448E02
(1763085469.663293) can0 382#0000000000000000
(1763085469.663542) can0 482#0000000008140001
(1763085469.666143) can0 189#49029F01560100C0
(1763085469.671518) can0 000A0003#FF26FF8E0FCC0000
(1763085469.671804) can0 000A0004#000BFFFE00458E02
(1763085469.676142) can0 189#4802A001560100C0
(1763085469.681521) can0 000A0003#FF26FF8D0FCE0000
(1763085469.681810) can0 000A0004#000BFFFF00458E02
(1763085469.682164) can0 701#05
(1763085469.682509) can0 281#0000000000000000
(1763085469.685131) can0 181#810100207F000009
(1763085469.685382) can0 482#0000000008140001
(1763085469.685632) can0 682#3E45230400000000
(1763085469.685897) can0 382#0000000000000000
(1763085469.686141) can0 186#00004C1D01010000
(1763085469.686632) can0 189#45029F01550100C0
(1763085469.690833) can0 1A0#000000000100
(1763085469.691515) can0 000A0003#FF26FF8B0FD10000
(1763085469.691803) can0 000A0004#000CFFFF00458E02
(1763085469.692531) can0 000A0000#0000000000000000
(1763085469.692831) can0 000A0001#0000000000000000
(1763085469.693129) can0 000A0002#0000000000000000
(1763085469.695175) can0 1A5#0000FF12000000
(1763085469.696137) can0 189#47029F01550100C0
(1763085469.701522) can0 000A0003#FF27FF8A0FD40000
(1763085469.701811) can0 000A0004#000CFFFE00458E02
(1763085469.704007) can0 701#05
(1763085469.705322) can0 4C4#04C204BC04B904B3
(1763085469.706136) can0 189#48029F01570100C0
(1763085469.706367) can0 4C5#04B004B904B704BC
(1763085469.706966) can0 482#0000000008140001
(1763085469.707221) can0 382#0000000000000000
(1763085469.707455) can0 4C6#04C104BC04B804B3
(1763085469.708364) can0 4C7#04BA04BA04B804B8
(1763085469.709396) can0 4C8#04AD000000000000
(1763085469.711518) can0 000A0003#FF29FF870FD60000
(1763085469.711803) can0 000A0004#000CFFFD00468E02
(1763085469.716137) can0 189#48029F01560100C0
(1763085469.721522) can0 000A0003#FF29FF870FD70000
(1763085469.721813) can0 000A0004#000DFFFE00468E02
(1763085469.722699) can0 19A#00007F6A707E807F
(1763085469.723442) can0 181#810100207F000009
(1763085469.723703) can0 29A#816F838181850000
(1763085469.725856) can0 701#05
(1763085469.726113) can0 281#0000000000000000
(1763085469.726359) can0 186#00004C1D01020000
(1763085469.726591) can0 189#46029F01570100C0
(1763085469.726835) can0 682#3E45230400000000
(1763085469.727085) can0 482#0000000008140001
(1763085469.727444) can0 080#
(1763085469.728598) can0 286#6400900100000000
(1763085469.728848) can0 382#0000000000000000
(1763085469.731521) can0 000A0003#FF28FF880FD70000
(1763085469.731813) can0 000A0004#000DFFFE00468E02
(1763085469.732038) can0 1A4#00007612000000
(1763085469.732270) can0 2A3#1D1D1C1B1B1E1818
(1763085469.736137) can0 189#4602A001580100C0
(1763085469.737150) can0 1A2#00008313000000
(1763085469.737389) can0 2A1#1C1E1F1F20212012
(1763085469.741523) can0 000A0003#FF27FF880FD80000
(1763085469.741812) can0 000A0004#000DFFFE00458E02
(1763085469.746136) can0 189#48029F01580100C0
(1763085469.746786) can0 1A3#00006513000000
(1763085469.747906) can0 482#0000000008140001
(1763085469.748026) can0 701#05
(1763085469.748280) can0 382#0000000000000000
(1763085469.751528) can0 000A0003#FF27FF880FD90000
(1763085469.751816) can0 000A0004#000DFFFE00448E02
(1763085469.756136) can0 189#4802A001570100C0
(1763085469.761521) can0 000A0003#FF26FF8A0FDB0000
(1763085469.761808) can0 000A0004#000DFFFE00448E02
(1763085469.762053) can0 181#810100207F000009
(1763085469.766132) can0 186#00004C1D01030000
(1763085469.766612) can0 189#47029F01580100C0
(1763085469.767226) can0 682#3E45230400000000
(1763085469.769748) can0 382#0000000000000000
(1763085469.769869) can0 701#05
(1763085469.770125) can0 281#0000000000000000
(1763085469.770398) can0 482#0000000008140001
(1763085469.770629) can0 4C4#04C204BC04B904B3
(1763085469.771439) can0 4C5#04B004B904B704BC
(1763085469.771728) can0 000A0003#FF25FF8D0FDC0000
(1763085469.772020) can0 000A0004#000CFFFE00438E02
(1763085469.772460) can0 4C6#04C104BC04B804B3
(1763085469.773468) can0 4C7#04BA04BA04B804B8
(1763085469.774504) can0 4C8#04AD000000000000
(1763085469.776132) can0 189#4702A001570100C0
(1763085469.781527) can0 000A0003#FF25FF8F0FDD0000
(1763085469.781816) can0 000A0004#000CFFFE00448E02
(1763085469.786135) can0 189#4802A001580100C0
(1763085469.790834) can0 1A0#000000000100
(1763085469.791526) can0 000A0003#FF27FF900FDE0000
(1763085469.791815) can0 000A0004#000CFFFF00448E02
(1763085469.791932) can0 701#05
(1763085469.792182) can0 482#0000000008140001
(1763085469.792464) can0 382#0000000000000000
(1763085469.792764) can0 000A0000#0000000000000000
(1763085469.793065) can0 000A0001#0000000000000000
(1763085469.793362) can0 000A0002#0000000000000000
(1763085469.794731) can0 188#0C00623300000000
(1763085469.795432) can0 288#6329431400140000
(1763085469.796128) can0 189#46029E01540100C0
(1763085469.796440) can0 388#2121222121000000
(1763085469.797266) can0 1A5#0000FF12000000
(1763085469.797458) can0 191#999999999998
(1763085469.798386) can0 192#999999999998
(1763085469.799402) can0 193#999999999999
(1763085469.799784) can0 181#810100207F000009
(1763085469.800414) can0 194#999999999999
(1763085469.801416) can0 195#999999999999
(1763085469.801704) can0 000A0003#FF29FF910FE00000
(1763085469.801992) can0 000A0004#000AFFFF00458E02
(1763085469.802447) can0 291#0F0F0F0F0F0F
(1763085469.803424) can0 292#0F0F0F0F100F
(1763085469.804424) can0 293#0F0F0F101010
(1763085469.805428) can0 294#101010101010
(1763085469.806124) can0 186#00004C1D01040000
(1763085469.806432) can0 295#101010111010
(1763085469.806664) can0 189#46029D01540100C0
(1763085469.808102) can0 682#3E45230400000000
(1763085469.811525) can0 000A0003#FF2BFF910FE20000
(1763085469.811814) can0 000A0004#000AFFFE00448E02
(1763085469.813408) can0 482#0000000008140001
(1763085469.813528) can0 701#05
(1763085469.813784) can0 382#0000000000000000
(1763085469.814078) can0 281#0000000000000000
(1763085469.816128) can0 189#46029F01570100C0
(1763085469.821528) can0 000A0003#FF2CFF920FE30000
(1763085469.821816) can0 000A0004#000DFFFE00458E02
(1763085469.826146) can0 189#49029F01570100C0
(1763085469.826446) can0 080#
(1763085469.827597) can0 286#6400900100000000
(1763085469.831529) can0 000A0003#FF2DFF930FE40000
(1763085469.831818) can0 000A0004#000DFFFF00458E02
(1763085469.835261) can0 382#0000000000000000
(1763085469.835380) can0 701#05
(1763085469.835616) can0 4C4#04C204BC04B304B8
(1763085469.835863) can0 482#0000000008140001
(1763085469.836141) can0 189#47029F01570100C0
(1763085469.836549) can0 4C5#04B504BE04B704BC
(1763085469.837567) can0 4C6#04BC04C004B804AE
(1763085469.838080) can0 181#810100207F000009
(1763085469.838516) can0 1A4#00007612000000
(1763085469.838742) can0 2A3#1D1D1C1B1B1E1817
(1763085469.838976) can0 4C7#04B604B504B304B3
(1763085469.839608) can0 4C8#04AD000000000000
(1763085469.840712) can0 188#0C00873300000000
(1763085469.841438) can0 288#6329432B00140000
(1763085469.841726) can0 000A0003#FF2EFF940FE40000
(1763085469.842016) can0 000A0004#000D000000468E02
(1763085469.842449) can0 388#2121222121000000
(1763085469.843410) can0 191#999999999998
(1763085469.844422) can0 192#999999999998
(1763085469.844648) can0 1A2#00008313000000
(1763085469.844886) can0 2A1#1C1E1F1F20212012
(1763085469.845422) can0 193#999999999999
(1763085469.846120) can0 186#00004C1D01050000
(1763085469.846406) can0 194#999999999999
(1763085469.846638) can0 189#45029E01550100C0
(1763085469.847406) can0 195#999999999999
(1763085469.847696) can0 1A3#00006513000000
(1763085469.848436) can0 291#0F0F0F0F0F0F
(1763085469.849061) can0 682#3E45230400000000
(1763085469.849445) can0 292#0F0F0F0F100F
(1763085469.850416) can0 293#0F0F0F101010
(1763085469.851417) can0 294#101010101010
(1763085469.851701) can0 000A0003#FF30FF950FE40000
(1763085469.851991) can0 000A0004#000D000000468E02
(1763085469.852421) can0 295#101010111010
(1763085469.856125) can0 189#47029F01570100C0
(1763085469.856886) can0 701#05
(1763085469.857182) can0 281#0000000000000000
(1763085469.857433) can0 482#0000000008140001
(1763085469.857687) can0 382#0000000000000000
(1763085469.861531) can0 000A0003#FF32FF950FE30000
(1763085469.861817) can0 000A0004#000DFFFF00468E02
(1763085469.866126) can0 189#47029F01570100C0
(1763085469.871538) can0 000A0003#FF33FF960FE50000
(1763085469.871826) can0 000A0004#000DFFFF00468E02
(1763085469.876124) can0 189#49029F01570100C0
(1763085469.876366) can0 181#810100207F000009
(1763085469.878919) can0 482#0000000008140001
(1763085469.879039) can0 701#05
(1763085469.879293) can0 382#0000000000000000
(1763085469.881539) can0 000A0003#FF34FF980FE60000
(1763085469.881826) can0 000A0004#000EFFFF00468E02
(1763085469.886115) can0 186#00004C1D01060000
(1763085469.886607) can0 189#48029F01570100C0
(1763085469.889953) can0 682#3E45240400000000
(1763085469.890837) can0 1A0#000000000100
(1763085469.891537) can0 000A0003#FF35FF9B0FE70000
(1763085469.891827) can0 000A0004#000FFFFF00468E02
(1763085469.892545) can0 000A0000#0000000000000000
(1763085469.892845) can0 000A0001#0000000000000000
(1763085469.893143) can0 000A0002#0000000000000000
(1763085469.896126) can0 189#4602A001580100C0
(1763085469.899354) can0 1A5#0000FF12000000
(1763085469.900657) can0 4C4#04C204BC04B304B8
(1763085469.900908) can0 382#0000000000000000
(1763085469.901062) can0 701#05
(1763085469.901318) can0 281#0000000000000000
(1763085469.901606) can0 000A0003#FF36FF9D0FE80000
(1763085469.901896) can0 000A0004#000E000000458E02
(1763085469.902142) can0 482#0000000008140001
(1763085469.902376) can0 4C5#04B504BE04B704BC
(1763085469.902703) can0 4C6#04BC04C004B804AE
(1763085469.903716) can0 4C7#04B604B504B304B3
(1763085469.904745) can0 4C8#04AD000000000000
(1763085469.906117) can0 189#47029E01550100C0
(1763085469.911535) can0 000A0003#FF35FFA10FEA0000
(1763085469.911823) can0 000A0004#000E000000458E02
(1763085469.914419) can0 181#810100207F000009
(1763085469.916122) can0 189#48029F01560100C0
(1763085469.921536) can0 000A0003#FF34FFA30FEA0000
(1763085469.921824) can0 000A0004#000FFFFF00458E02
(1763085469.922390) can0 701#05
(1763085469.922711) can0 482#0000000008140001
(1763085469.922966) can0 382#0000000000000000
(1763085469.926136) can0 186#00004C1D01070000
(1763085469.926601) can0 189#48029F01560100C0
(1763085469.927462) can0 080#
(1763085469.928584) can0 286#6400900100000000
(1763085469.928824) can0 19A#00007F746C7E817E
(1763085469.929702) can0 29A#7F72837F83820000
(1763085469.930943) can0 682#3E45230400000000
(1763085469.931537) can0 000A0003#FF32FFA10FE80000
(1763085469.931827) can0 000A0004#000E000000458E02
(1763085469.936118) can0 189#47029F01560100C0
(1763085469.940672) can0 188#0C00873300000000
(1763085469.941445) can0 288#6329432200140000
(1763085469.941729) can0 000A0003#FF30FFA10FE70000
(1763085469.942021) can0 000A0004#000E000000448E02
(1763085469.942455) can0 388#2121222121000000
(1763085469.943401) can0 191#999999999998
(1763085469.944438) can0 482#0000000008140001
(1763085469.944634) can0 192#999999999998
(1763085469.944750) can0 701#05
(1763085469.945005) can0 382#0000000000000000
(1763085469.945261) can0 281#0000000000000000
(1763085469.945451) can0 193#999999999999
(1763085469.945677) can0 1A4#00007612000000
(1763085469.945903) can0 2A3#1D1D1D1B1B1E1817
(1763085469.946137) can0 189#45029D01540100C0
(1763085469.946412) can0 194#999999999999
(1763085469.947413) can0 195#999999999999
(1763085469.948446) can0 291#0F0F0F0F0F0F
(1763085469.948669) can0 1A3#00006513000000
(1763085469.949422) can0 292#0F0F0F0F100F
(1763085469.950425) can0 293#0F0F0F101010
(1763085469.951408) can0 294#101010101010
(1763085469.951698) can0 000A0003#FF2FFF9F0FE90000
(1763085469.951989) can0 000A0004#000E000000448E02
(1763085469.952215) can0 1A2#00008313000000
(1763085469.952415) can0 295#101010111010
(1763085469.952653) can0 2A1#1C1E1F1F20212012
(1763085469.952897) can0 181#810100207F000009
(1763085469.956118) can0 189#46029F01580100C0
(1763085469.961544) can0 000A0003#FF2DFF9E0FE90000
(1763085469.961830) can0 000A0004#000DFFFF00448E02
(1763085469.965781) can0 4C4#04C804C204B904B3
(1763085469.966131) can0 186#00004C1D01080000
(1763085469.966385) can0 382#0000000000000000
(1763085469.966621) can0 189#4602A001580100C0
(1763085469.966854) can0 4C5#04B504B504BB04C0
(1763085469.966969) can0 701#05
(1763085469.967219) can0 482#0000000008140001
(1763085469.967805) can0 4C6#04B804B804B804B3
(1763085469.968821) can0 4C7#04B604B504B304BE
(1763085469.969851) can0 4C8#04AD000000000000
(1763085469.971547) can0 000A0003#FF2CFF9E0FE70000
(1763085469.971832) can0 000A0004#000DFFFF00448E02
(1763085469.972076) can0 682#3E45230400000000
(1763085469.976115) can0 189#48029F01570100C0
(1763085469.981548) can0 000A0003#FF2AFF9D0FE40000
(1763085469.981835) can0 000A0004#000DFFFF00458E02
(1763085469.986113) can0 189#49029F01570100C0
(1763085469.987901) can0 701#05
(1763085469.988156) can0 281#0000000000000000
(1763085469.988430) can0 482#0000000008140001
(1763085469.988684) can0 382#0000000000000000
(1763085469.990836) can0 1A0#000000000100
(1763085469.991547) can0 000A0003#FF26FF9E0FE20000
(1763085469.991838) can0 000A0004#000FFFFE00458E02
(1763085469.992554) can0 000A0000#0000000000000000
(1763085469.992854) can0 000A0001#0000000000000000
(1763085469.993152) can0 000A0002#0000000000000000
(1763085469.993661) can0 181#810100207F000009
(1763085469.996116) can0 189#46029F01580100C0
(1763085470.001435) can0 1A5#0000FF12000000
(1763085470.001724) can0 000A0003#FF22FF9F0FE00000
(1763085470.002016) can0 000A0004#000FFFFE00458E02
(1763085470.006104) can0 186#00004C1D01090000
(1763085470.006608) can0 189#4602A001570100C0
(1763085470.009942) can0 482#0000000008140001
(1763085470.010062) can0 701#05
(1763085470.010332) can0 382#0000000000000000
(1763085470.011554) can0 000A0003#FF21FFA00FDF0000
(1763085470.011840) can0 000A0004#0010FFFD00458E02
(1763085470.012785) can0 682#3E45230400000000
(1763085470.016111) can0 189#4602A101580100C0
(1763085470.021555) can0 000A0003#FF20FFA10FDE0000
(1763085470.021841) can0 000A0004#000FFFFD00458E02
(1763085470.026131) can0 189#49029F01580100C0
(1763085470.026462) can0 080#
(1763085470.027613) can0 286#6400900100000000
(1763085470.030892) can0 4C4#04C204BC04B304B3
(1763085470.031553) can0 000A0003#FF1DFFA20FDD0000
(1763085470.031839) can0 000A0004#0010FFFD00458E02
(1763085470.032090) can0 382#0000000000000000
(1763085470.032322) can0 4C5#04AB04B904BB04C0
(1763085470.032438) can0 701#05
(1763085470.032686) can0 181#810100207F000009
(1763085470.032920) can0 4C6#04C104BC04B404B3
(1763085470.033173) can0 281#0000000000000000
(1763085470.033465) can0 482#0000000008140001
(1763085470.033932) can0 4C7#04B104BA04B804B8
(1763085470.034965) can0 4C8#04AD000000000000
(1763085470.036106) can0 189#45029E01570100C0
(1763085470.040681) can0 188#0C00353300000000
(1763085470.041448) can0 288#6329432200140000
(1763085470.041735) can0 000A0003#FF1AFFA20FDC0000
(1763085470.042019) can0 000A0004#0010FFFD00468E02
(1763085470.042461) can0 388#2121222121000000
(1763085470.043424) can0 191#999999999999
(1763085470.044405) can0 192#999999999998
(1763085470.045407) can0 193#999999999999
(1763085470.046101) can0 186#00004C1D010A0000
(1763085470.046421) can0 194#999999999999
(1763085470.046653) can0 189#45029F01570100C0
(1763085470.047421) can0 195#999999999999
(1763085470.048422) can0 291#0F0F0F0F0F0F
(1763085470.049428) can0 292#0F0F0F0F100F
(1763085470.049651) can0 1A3#00006513000000
(1763085470.050432) can0 293#0F0F0F101010
(1763085470.051432) can0 294#101010101010
(1763085470.051716) can0 000A0003#FF18FFA10FDD0000
(1763085470.052002) can0 000A0004#0011FFFD00458E02
(1763085470.052228) can0 1A4#00007612000000
(1763085470.052456) can0 2A3#1C1D1D1B1B1E1817
(1763085470.052655) can0 295#101010111010
(1763085470.053423) can0 701#05
(1763085470.053749) can0 482#0000000008140001
(1763085470.053997) can0 682#3E45230400000000
(1763085470.054282) can0 382#0000000000000000
(1763085470.056109) can0 189#45029E01560100C0
(1763085470.059307) can0 1A2#00008313000000
(1763085470.059543) can0 2A1#1C1E1F1F20212012
(1763085470.061555) can0 000A0003#FF14FF9F0FDD0000
(1763085470.061844) can0 000A0004#0010FFFE00458E02
(1763085470.066110) can0 189#4702A001580100C0
(1763085470.070010) can0 181#810100207F000009
(1763085470.071554) can0 000A0003#FF14FF9B0FE00000
(1763085470.071845) can0 000A0004#000FFFFE00458E02
(1763085470.075452) can0 482#0000000008140001
(1763085470.075571) can0 701#05
(1763085470.075828) can0 382#0000000000000000
(1763085470.076080) can0 281#0000000000000000
(1763085470.076316) can0 189#4502A001580100C0
(1763085470.081549) can0 000A0003#FF14FF990FE20000
(1763085470.081843) can0 000A0004#000FFFFE00468E02
(1763085470.086096) can0 186#00004C1D010B0000
(1763085470.086624) can0 189#48029F01570100C0
(1763085470.090838) can0 1A0#000000000100
(1763085470.091556) can0 000A0003#FF14FF9A0FE10000
(1763085470.091848) can0 000A0004#000EFFFE00468E02
(1763085470.092566) can0 000A0000#0000000000000000
(1763085470.092866) can0 000A0001#0000000000000000
(1763085470.093164) can0 000A0002#0000000000000000
(1763085470.094673) can0 682#3E45240400000000
(1763085470.094937) can0 482#0000000008140001
(1763085470.095091) can0 701#05
(1763085470.095998) can0 4C4#04C204BC04B304B3
(1763085470.096231) can0 189#45029F01550100C0
(1763085470.097013) can0 4C5#04AB04B904BB04C0
(1763085470.097308) can0 382#0000000000000000
(1763085470.098030) can0 4C6#04C104BC04B404B3
(1763085470.099044) can0 4C7#04B104BA04B804B8
(1763085470.100073) can0 4C8#04AD000000000000
(1763085470.101565) can0 000A0003#FF13FF9A0FE00000
(1763085470.101853) can0 000A0004#000EFFFF00468E02
(1763085470.103508) can0 1A5#0000FF12000000
(1763085470.106105) can0 189#4602A001570100C0
(1763085470.108307) can0 181#810100207F000009
(1763085470.111557) can0 000A0003#FF11FF970FDD0000
(1763085470.111847) can0 000A0004#000D000000458E02
(1763085470.116106) can0 189#4702A001580100C0
(1763085470.116402) can0 482#0000000008140001
(1763085470.116522) can0 701#05
(1763085470.116776) can0 382#0000000000000000
(1763085470.119138) can0 281#0000000000000000
(1763085470.121559) can0 000A0003#FF10FF940FDB0000
(1763085470.121849) can0 000A0004#0010000000458E02
(1763085470.126120) can0 186#00004C1D010C0000
(1763085470.126615) can0 189#47029F01560100C0
(1763085470.127447) can0 080#
(1763085470.128599) can0 286#6400900100000000
(1763085470.131562) can0 000A0003#FF0DFF900FD60000
(1763085470.131853) can0 000A0004#000F000000458E02
(1763085470.134721) can0 19A#00007F74757D827D
(1763085470.135628) can0 682#3E45230400000000
(1763085470.135866) can0 29A#7E6C828082830000
(1763085470.136108) can0 189#48029E01580100C0
(1763085470.138245) can0 382#0000000000000000
(1763085470.138364) can0 701#05
(1763085470.138615) can0 482#0000000008140001
(1763085470.140677) can0 188#0C00623300000000
(1763085470.141445) can0 288#6329432A00140000
(1763085470.141733) can0 000A0003#FF0AFF8C0FD10000
(1763085470.142023) can0 000A0004#000E000000458E02
(1763085470.142453) can0 388#2121222121000000
(1763085470.143401) can0 191#999999999999
(1763085470.144413) can0 192#999999999998
(1763085470.145415) can0 193#999999999999
(1763085470.146099) can0 189#46029F01560100C0
(1763085470.146473) can0 181#810100207F000009
(1763085470.146665) can0 194#999999999999
(1763085470.147397) can0 195#999999999999
(1763085470.148430) can0 291#0F0F0F0F0F0F
(1763085470.149436) can0 292#0F0F0F0F100F
(1763085470.150355) can0 1A3#00006513000000
(1763085470.150562) can0 293#0F0F0F101010
(1763085470.151440) can0 294#101010101010
(1763085470.151728) can0 000A0003#FF0BFF880FCF0000
(1763085470.152016) can0 000A0004#000EFFFF00458E02
(1763085470.152411) can0 295#101010111010
(1763085470.156100) can0 189#47029F01560100C0
(1763085470.158954) can0 1A4#00007612000000
(1763085470.159184) can0 2A3#1C1B1C1B1B1E1817
(1763085470.159874) can0 701#05
(1763085470.160203) can0 482#0000000008140001
(1763085470.160457) can0 382#0000000000000000
(1763085470.161115) can0 4C4#04C804BC04B904AE
(1763085470.161561) can0 000A0003#FF0CFF860FCD0000
(1763085470.161849) can0 000A0004#000EFFFF00458E02
(1763085470.162127) can0 4C5#04B004B504B704BC
(1763085470.162836) can0 281#0000000000000000
(1763085470.163142) can0 4C6#04BC04BC04B804B7
(1763085470.164159) can0 4C7#04B104B504B804B8
(1763085470.165189) can0 4C8#04AD000000000000
(1763085470.166089) can0 186#00004C1D010D0000
(1763085470.166614) can0 189#47029C01550100C0
(1763085470.166839) can0 1A2#00008313000000
(1763085470.167077) can0 2A1#1C1E1F1F20212012
(1763085470.171570) can0 000A0003#FF0CFF820FCE0000
(1763085470.171859) can0 000A0004#000E000000458E02
(1763085470.176095) can0 189#4802A101570100C0
(1763085470.176569) can0 682#3E45230400000000
(1763085470.181563) can0 000A0003#FF0DFF7F0FCE0000
(1763085470.181854) can0 000A0004#000D000000458E02
(1763085470.182100) can0 482#0000000008140001
(1763085470.182220) can0 701#05
(1763085470.182474) can0 382#0000000000000000
(1763085470.186094) can0 189#4602A101580100C0
(1763085470.187400) can0 181#810100207F000009
(1763085470.190842) can0 1A0#000000000100
(1763085470.191566) can0 000A0003#FF0CFF7D0FCE0000
(1763085470.191858) can0 000A0004#000D000000458E02
(1763085470.192575) can0 000A0000#0000000000000000
(1763085470.192876) can0 000A0001#0000000000000000
(1763085470.193173) can0 000A0002#0000000000000000
(1763085470.196097) can0 189#47029F01550100C0
(1763085470.201566) can0 000A0003#FF0BFF7B0FCD0000
(1763085470.201853) can0 000A0004#000DFFFF00458E02
(1763085470.203755) can0 382#0000000000000000
(1763085470.203874) can0 701#05
(1763085470.204124) can0 482#0000000008140001
(1763085470.205571) can0 1A5#0000FF12000000
(1763085470.206084) can0 186#00004C1D010E0000
(1763085470.206632) can0 281#0000000000000000
(1763085470.206863) can0 189#47029E01550100C0
(1763085470.211584) can0 000A0003#FF0BFF7A0FCC0000
(1763085470.211862) can0 000A0004#000D000000458E02
(1763085470.216097) can0 189#4902A001580100C0
(1763085470.217507) can0 682#3E45230400000000
(1763085470.221567) can0 000A0003#FF0DFF7B0FCB0000
(1763085470.221860) can0 000A0004#000C000000458E02
(1763085470.225597) can0 181#810100207F000009
(1763085470.225717) can0 701#05
(1763085470.225967) can0 482#0000000008140001
(1763085470.226200) can0 189#4702A001560100C0
(1763085470.226453) can0 382#0000000000000000
(1763085470.226550) can0 080#
(1763085470.226786) can0 4C4#04C804BC04B904AE
(1763085470.227229) can0 4C5#04B004B504B704BC
(1763085470.227603) can0 286#6400900100000000
(1763085470.228244) can0 4C6#04BC04BC04B804B7
(1763085470.229259) can0 4C7#04B104B504B804B8
(1763085470.230291) can0 4C8#04AD000000000000
(1763085470.231574) can0 000A0003#FF0FFF7A0FCC0000
(1763085470.231862) can0 000A0004#000CFFFF00458E02
(1763085470.236092) can0 189#47029F01570100C0
(1763085470.240695) can0 188#0C00873300000000
(1763085470.241467) can0 288#6329432200140000
(1763085470.241752) can0 000A0003#FF11FF780FCD0000
(1763085470.242042) can0 000A0004#000D000000468E02
(1763085470.242447) can0 388#2121222121000000
(1763085470.243390) can0 191#999999999999
(1763085470.244402) can0 192#999999999998
(1763085470.245422) can0 193#999999999999
(1763085470.246082) can0 186#00004C1D010F0000
(1763085470.246404) can0 194#999999999999
(1763085470.246637) can0 189#45029F01560100C0
(1763085470.247405) can0 195#999999999999
(1763085470.247651) can0 482#0000000008140001
(1763085470.247771) can0 701#05
(1763085470.248026) can0 382#0000000000000000
(1763085470.248436) can0 291#0F0F0F0F0F0F
(1763085470.249444) can0 292#0F0F0F0F100F
(1763085470.250167) can0 281#0000000000000000
(1763085470.250447) can0 293#0F0F0F101010
(1763085470.251253) can0 1A3#00006513000000
(1763085470.251457) can0 294#101010101010
(1763085470.251743) can0 000A0003#FF16FF780FCF0000
(1763085470.252033) can0 000A0004#000D000000468E02
(1763085470.252419) can0 295#101010111010
(1763085470.256093) can0 189#4602A101560100C0
(1763085470.258455) can0 682#3E45230400000000
(1763085470.261578) can0 000A0003#FF1BFF780FD10000
(1763085470.261867) can0 000A0004#000D000000468E02
(1763085470.263894) can0 181#810100207F000009
(1763085470.265758) can0 1A4#00007612000000
(1763085470.265990) can0 2A3#1C1B1C1B1B1E1817
(1763085470.266226) can0 189#4702A001580100C0
(1763085470.269268) can0 382#0000000000000000
(1763085470.269386) can0 701#05
(1763085470.269636) can0 482#0000000008140001
(1763085470.271570) can0 000A0003#FF1DFF780FCF0000
(1763085470.271859) can0 000A0004#000D000000468E02
(1763085470.274117) can0 1A2#00008313000000
(1763085470.274355) can0 2A1#1C1E1F1F20212012
(1763085470.276088) can0 189#47029F01580100C0
(1763085470.281573) can0 000A0003#FF21FF770FCC0000
(1763085470.281861) can0 000A0004#000D000000468E02
(1763085470.286084) can0 186#00004C1D01000000
(1763085470.286611) can0 189#4702A001580100C0
(1763085470.290841) can0 1A0#000000000100
(1763085470.290957) can0 701#05
(1763085470.291208) can0 482#0000000008140001
(1763085470.291456) can0 382#0000000000000000
(1763085470.291740) can0 000A0003#FF24FF750FCA0000
(1763085470.292031) can0 000A0004#000C000000468E02
(1763085470.292284) can0 281#0000000000000000
(1763085470.292514) can0 4C5#04B404B904B704BC
(1763085470.292814) can0 000A0000#0000000000000000
(1763085470.293114) can0 000A0001#0000000000000000
(1763085470.293412) can0 000A0002#0000000000000000
(1763085470.293646) can0 4C6#04C104BC04B804B3
(1763085470.293880) can0 4C4#04BC04C704B904B8
(1763085470.294407) can0 4C7#04B104BA04AE04B8
(1763085470.295438) can0 4C8#04AD000000000000
(1763085470.296088) can0 189#46029D01540100C0
(1763085470.301579) can0 000A0003#FF26FF730FC90000
(1763085470.301869) can0 000A0004#000C000000458E02
(1763085470.302113) can0 181#810100207F000009
(1763085470.302362) can0 682#3E45230400000000
(1763085470.306089) can0 189#48029F01580100C0
(1763085470.307661) can0 1A5#0000FF12000000
(1763085470.311584) can0 000A0003#FF29FF710FC70000
(1763085470.311865) can0 000A0004#000C000000468E02
(1763085470.312927) can0 482#0000000008140001
(1763085470.313047) can0 701#05
(1763085470.313302) can0 382#0000000000000000
(1763085470.316087) can0 189#4902A001560100C0
(1763085470.321576) can0 000A0003#FF2BFF700FC50000
(1763085470.321865) can0 000A0004#000B000000468E02
(1763085470.323717) can0 19A#000081726F7E807D
(1763085470.324724) can0 29A#8074828183820000
(1763085470.326103) can0 186#00004C1D01010000
(1763085470.326600) can0 189#48029C01560100C0
(1763085470.327464) can0 080#
(1763085470.328614) can0 286#6400900100000000
(1763085470.331579) can0 000A0003#FF2BFF700FC30000
(1763085470.331867) can0 000A0004#000A000000468E02
(1763085470.334777) can0 382#0000000000000000
(1763085470.334897) can0 701#05
(1763085470.335153) can0 281#0000000000000000
(1763085470.335428) can0 482#0000000008140001
(1763085470.336080) can0 189#47029E01560100C0
(1763085470.340242) can0 181#810100207F000009
(1763085470.340715) can0 188#0C00823300000000
(1763085470.341444) can0 288#6329432A00140000
(1763085470.341733) can0 000A0003#FF2BFF700FC30000
(1763085470.342023) can0 000A0004#000A000000468E02
(1763085470.342453) can0 388#2121222121000000
(1763085470.343095) can0 682#3E45230400000000
(1763085470.343417) can0 191#999999999998
(1763085470.344427) can0 192#999999999998
(1763085470.345430) can0 193#999999999999
(1763085470.346079) can0 189#47029E01550100C0
(1763085470.346411) can0 194#999999999999
(1763085470.347411) can0 195#999999999999
(1763085470.348441) can0 291#0F0F0F0F0F0F
(1763085470.349446) can0 292#0F0F0F0F100F
(1763085470.350421) can0 293#0F0F0F101010
(1763085470.351424) can0 294#101010101010
(1763085470.351709) can0 000A0003#FF2BFF730FC30000
(1763085470.352002) can0 000A0004#000A000000458E02
(1763085470.352226) can0 1A3#00006513000000
(1763085470.352427) can0 295#101010111010
(1763085470.356080) can0 189#47029F01570100C0
(1763085470.356478) can0 4C4#04BC04C204B904B3
(1763085470.356594) can0 701#05
(1763085470.356844) can0 482#0000000008140001
(1763085470.357098) can0 382#0000000000000000
(1763085470.357490) can0 4C5#04B404B904B704C0
(1763085470.358510) can0 4C6#04C104BC04B804B3
(1763085470.359523) can0 4C7#04B604B504B804BE
(1763085470.360551) can0 4C8#04AD000000000000
(1763085470.361575) can0 000A0003#FF2CFF760FC40000
(1763085470.361863) can0 000A0004#0009000100468E02
(1763085470.366076) can0 186#00004C1D01020000
(1763085470.366629) can0 189#4702A101580100C0
(1763085470.371582) can0 000A0003#FF2CFF790FC50000
(1763085470.371870) can0 000A0004#0009000000468E02
(1763085470.372569) can0 1A4#00007612000000
(1763085470.372795) can0 2A3#1A191A1A1B1E1817
(1763085470.376082) can0 189#47029F01570100C0
(1763085470.378436) can0 482#0000000008140001
(1763085470.378553) can0 701#05
(1763085470.378809) can0 382#0000000000000000
(1763085470.379054) can0 181#810100207F000009
(1763085470.379334) can0 281#0000000000000000
(1763085470.381500) can0 1A2#00008313000000
(1763085470.381788) can0 000A0003#FF2BFF7A0FC50000
(1763085470.382078) can0 000A0004#0009000000468E02
(1763085470.382332) can0 2A1#1C1E1F1F20212012
(1763085470.384031) can0 682#3E45230400000000
(1763085470.386079) can0 189#47029F01550100C0
(1763085470.390845) can0 1A0#000000000100
(1763085470.391585) can0 000A0003#FF28FF7D0FC70000
(1763085470.391875) can0 000A0004#0009000000468E02
(1763085470.392593) can0 000A0000#0000000000000000
(1763085470.392893) can0 000A0001#0000000000000000
(1763085470.393191) can0 000A0002#0000000000000000
(1763085470.396079) can0 189#48029F01560100C0
(1763085470.400289) can0 382#0000000000000000
(1763085470.400408) can0 701#05
(1763085470.400658) can0 482#0000000008140001
(1763085470.401588) can0 000A0003#FF25FF800FC90000
(1763085470.401876) can0 000A0004#000AFFFF00468E02
(1763085470.406076) can0 186#00004C1D01030000
(1763085470.406640) can0 189#4602A001560100C0
(1763085470.409737) can0 1A5#0000FF12000000
(1763085470.411594) can0 000A0003#FF24FF810FCA0000
(1763085470.411871) can0 000A0004#000BFFFF00468E02
(1763085470.416081) can0 189#4702A001570100C0
(1763085470.416693) can0 181#810100207F000009
(1763085470.421593) can0 000A0003#FF23FF820FCA0000
(1763085470.421879) can0 000A0004#000BFFFF00468E02
(1763085470.422111) can0 4C4#04C204BC04B904B8
(1763085470.422227) can0 701#05
(1763085470.422484) can0 281#0000000000000000
(1763085470.422716) can0 4C5#04AB04B904BB04C0
(1763085470.422962) can0 482#0000000008140001
(1763085470.423235) can0 382#0000000000000000
(1763085470.423623) can0 4C6#04C104C004B804B3
(1763085470.424635) can0 4C7#04B604B504B804BE
(1763085470.424993) can0 682#3E45230400000000
(1763085470.425661) can0 4C8#04AD000000000000
(1763085470.426089) can0 189#46029E01550100C0
(1763085470.426465) can0 080#
(1763085470.427616) can0 286#6400900100000000
(1763085470.431591) can0 000A0003#FF23FF840FC80000
(1763085470.431877) can0 000A0004#000CFFFF00468E02
(1763085470.436076) can0 189#48029F01550100C0
(1763085470.440677) can0 188#0C003E3300000000
(1763085470.441451) can0 288#6329432B00140000
(1763085470.441739) can0 000A0003#FF23FF860FC70000
(1763085470.442027) can0 000A0004#000DFFFF00468E02
(1763085470.442462) can0 388#2121222121000000
(1763085470.443404) can0 191#999999999998
(1763085470.443952) can0 482#0000000008140001
(1763085470.444072) can0 701#05
(1763085470.444327) can0 382#0000000000000000
(1763085470.444523) can0 192#999999999998
(1763085470.445385) can0 193#999999999999
(1763085470.446065) can0 186#00004C1D01040000
(1763085470.446416) can0 194#999999999999
(1763085470.446650) can0 189#46029D01540100C0
(1763085470.447420) can0 195#999999999999
(1763085470.448450) can0 291#0F0F0F0F0F0F
(1763085470.449426) can0 292#0F0F0F0F100F
(1763085470.450430) can0 293#0F0F0F101010
(1763085470.451414) can0 294#101010101010
(1763085470.451700) can0 000A0003#FF24FF880FC50000
(1763085470.451990) can0 000A0004#000DFFFF00458E02
(1763085470.452416) can0 295#101010111010
(1763085470.453029) can0 1A3#00006513000000
(1763085470.454884) can0 181#810100207F000009
(1763085470.456069) can0 189#47029E01540100C0
(1763085470.461594) can0 000A0003#FF26FF8D0FC20000
(1763085470.461880) can0 000A0004#000EFFFF00458E02
(1763085470.465799) can0 382#0000000000000000
(1763085470.465918) can0 701#05
(1763085470.466152) can0 189#48029F01570100C0
(1763085470.466404) can0 281#0000000000000000
(1763085470.466678) can0 482#0000000008140001
(1763085470.466926) can0 682#3E45230400000000
(1763085470.471590) can0 000A0003#FF27FF8E0FC20000
(1763085470.471876) can0 000A0004#000EFFFF00468E02
(1763085470.476070) can0 189#4702A001560100C0
(1763085470.479364) can0 1A4#00007612000000
(1763085470.479590) can0 2A3#1A191A1A1A1E1817
(1763085470.481584) can0 000A0003#FF28FF8F0FC40000
(1763085470.481878) can0 000A0004#000F000000468E02
(1763085470.486064) can0 186#00004C1D01050000
(1763085470.486625) can0 189#46029F01570100C0
(1763085470.486856) can0 4C4#04CE04BC04B904AE
(1763085470.487511) can0 701#05
(1763085470.487743) can0 4C5#04B004BE04B704BC
(1763085470.487990) can0 482#0000000008140001
(1763085470.488243) can0 382#0000000000000000
(1763085470.488752) can0 4C6#04C104BC04C104B3
(1763085470.488978) can0 1A2#00008313000000
(1763085470.489216) can0 2A1#1C1E1F1F20212012
(1763085470.489760) can0 4C7#04B604AC04B804B8
(1763085470.490792) can0 4C8#04AD000000000000
(1763085470.491004) can0 1A0#000000000100
(1763085470.491592) can0 000A0003#FF29FF8E0FC50000
(1763085470.491887) can0 000A0004#000F000000468E02
(1763085470.492607) can0 000A0000#0000000000000000
(1763085470.492907) can0 000A0001#0000000000000000
(1763085470.493205) can0 000A0002#0000000000000000
(1763085470.493449) can0 181#810100207F000009
(1763085470.496068) can0 189#46029F01560100C0
(1763085470.501597) can0 000A0003#FF29FF8D0FC80000
(1763085470.501885) can0 000A0004#000FFFFF00468E02
(1763085470.506072) can0 189#49029F01560100C0
(1763085470.506872) can0 682#3E45230400000000
(1763085470.509457) can0 482#0000000008140001
(1763085470.509577) can0 701#05
(1763085470.509831) can0 382#0000000000000000
(1763085470.510088) can0 281#0000000000000000
(1763085470.511609) can0 000A0003#FF2AFF8B0FCB0000
(1763085470.511888) can0 000A0004#000FFFFF00458E02
(1763085470.512112) can0 1A5#0000FF12000000
(1763085470.516071) can0 189#4602A001570100C0
(1763085470.521592) can0 000A0003#FF2CFF8B0FCE0000
(1763085470.521880) can0 000A0004#000FFFFF00448E02
(1763085470.526085) can0 186#00004C1D01060000
(1763085470.526619) can0 189#48029F01550100C0
(1763085470.527427) can0 080#
(1763085470.528449) can0 701#05
(1763085470.528691) can0 286#6400900100000000
(1763085470.528937) can0 482#0000000008140001
(1763085470.529191) can0 382#0000000000000000
(1763085470.529707) can0 19A#0000806F717E807F
(1763085470.530719) can0 29A#8166838083830000
(1763085470.531336) can0 181#810100207F000009
(1763085470.531624) can0 000A0003#FF2DFF8B0FCF0000
(1763085470.531914) can0 000A0004#000FFFFF00458E02
(1763085470.536064) can0 189#4602A001570100C0
(1763085470.540682) can0 188#0C001E3300000000
(1763085470.541455) can0 288#6329432200140000
(1763085470.541739) can0 000A0003#FF2EFF8B0FD10000
(1763085470.542031) can0 000A0004#0010000000458E02
(1763085470.542468) can0 388#2121222121000000
(1763085470.543431) can0 191#999999999999
(1763085470.544412) can0 192#989999999998
(1763085470.545414) can0 193#999999999999
(1763085470.546064) can0 189#46029E01550100C0
(1763085470.546426) can0 194#999999999999
(1763085470.547426) can0 195#999999999999
(1763085470.547813) can0 682#3E45230400000000
(1763085470.548427) can0 291#0F0F0F0F0F0F
(1763085470.549435) can0 292#0F0F0F0F100F
(1763085470.550415) can0 482#0000000008140001
(1763085470.550622) can0 293#0F0F0F101010
(1763085470.550738) can0 701#05
(1763085470.550993) can0 382#0000000000000000
(1763085470.551438) can0 294#101010101010
(1763085470.551726) can0 000A0003#FF2FFF8C0FD30000
(1763085470.552020) can0 000A0004#000F000000468E02
(1763085470.552252) can0 4C4#04CE04BC04B904AE
(1763085470.552452) can0 295#101010111010
(1763085470.552842) can0 4C5#04B004BE04B704BC
(1763085470.553167) can0 281#0000000000000000
(1763085470.553863) can0 4C6#04C104BC04C104B3
(1763085470.554087) can0 1A3#00006513000000
(1763085470.554873) can0 4C7#04B604AC04B804B8
(1763085470.555902) can0 4C8#04AD000000000000
(1763085470.556136) can0 189#45029D01530100C0
(1763085470.561601) can0 000A0003#FF2EFF8D0FD40000
(1763085470.561892) can0 000A0004#000FFFFF00478E02
(1763085470.566057) can0 186#00004C1D01070000
(1763085470.566613) can0 189#49029F01540100C0
(1763085470.569526) can0 181#810100207F000009
(1763085470.571603) can0 000A0003#FF2DFF8E0FD60000
(1763085470.571896) can0 000A0004#000F000000478E02
(1763085470.572256) can0 382#0000000000000000
(1763085470.572376) can0 701#05
(1763085470.572631) can0 482#0000000008140001
(1763085470.576066) can0 189#47029F01570100C0
(1763085470.581603) can0 000A0003#FF2BFF8F0FDB0000
(1763085470.581892) can0 000A0004#000F000100438E02
(1763085470.586061) can0 189#4602A101580100C0
(1763085470.586286) can0 1A4#00007612000000
(1763085470.586516) can0 2A3#1D1E1C1A1A1E1817
(1763085470.588757) can0 682#3E45240400000000
(1763085470.590846) can0 1A0#000000000100
(1763085470.591601) can0 000A0003#FF2BFF8D0FDD0000
(1763085470.591892) can0 000A0004#000F000100438E02
(1763085470.592615) can0 000A0000#0000000000000000
(1763085470.592915) can0 000A0001#0000000000000000
(1763085470.593213) can0 000A0002#0000000000000000
(1763085470.593875) can0 701#05
(1763085470.594196) can0 482#0000000008140001
(1763085470.594452) can0 382#0000000000000000
(1763085470.596058) can0 189#46029E01540100C0
(1763085470.596284) can0 1A2#00008313000000
(1763085470.596522) can0 2A1#1C1E1F1F20212012
(1763085470.596860) can0 281#0000000000000000
(1763085470.601602) can0 000A0003#FF2BFF8A0FDE0000
(1763085470.601893) can0 000A0004#000F000100438E02
(1763085470.606056) can0 186#00004C1D01080000
(1763085470.606622) can0 189#4702A101570100C0
(1763085470.607872) can0 181#810100207F000009
(1763085470.611618) can0 000A0003#FF2CFF860FDF0000
(1763085470.611894) can0 000A0004#000EFFFF00438E02
(1763085470.613890) can0 1A5#0000FF12000000
(1763085470.615916) can0 482#0000000008140001
(1763085470.616148) can0 189#47029F01560100C0
(1763085470.616265) can0 701#05
(1763085470.616519) can0 382#0000000000000000
(1763085470.616939) can0 4C4#04C204BC04B904B3
(1763085470.617957) can0 4C5#04AB04BE04BB04BC
(1763085470.618970) can0 4C6#04C104B804B804AE
(1763085470.619981) can0 4C7#04B604B004B804B8
(1763085470.621016) can0 4C8#04AD000000000000
(1763085470.621609) can0 000A0003#FF2BFF840FDF0000
(1763085470.621898) can0 000A0004#000EFFFF00428E02
(1763085470.626074) can0 189#4702A001560100C0
(1763085470.626480) can0 080#
(1763085470.627604) can0 286#6400900100000000
(1763085470.629772) can0 682#3E45240400000000
(1763085470.631615) can0 000A0003#FF2BFF810FDF0000
(1763085470.631904) can0 000A0004#000FFFFF00428E02
(1763085470.636056) can0 189#4802A001550100C0
(1763085470.640481) can0 482#0000000008140001
(1763085470.640599) can0 701#05
(1763085470.640853) can0 382#0000000000000000
(1763085470.641109) can0 281#0000000000000000
(1763085470.641610) can0 000A0003#FF29FF810FE00000
(1763085470.641900) can0 000A0004#000FFFFF00438E02
(1763085470.645974) can0 181#810100207F000009
(1763085470.646212) can0 186#00004C1D01090000
(1763085470.646643) can0 189#47029F01550100C0
(1763085470.649658) can0 188#0C00C13300000000
(1763085470.650454) can0 288#6329431400140000
(1763085470.651461) can0 388#2121222121000000
(1763085470.651755) can0 000A0003#FF27FF7F0FE00000
(1763085470.652047) can0 000A0004#000F000000438E02
(1763085470.652409) can0 191#999999999999
(1763085470.653423) can0 192#989999999998
(1763085470.654424) can0 193#999999999999
(1763085470.654841) can0 1A3#00006513000000
(1763085470.655435) can0 194#999999999999
(1763085470.656053) can0 189#45029D01540100C0
(1763085470.656409) can0 195#999999999999
(1763085470.657437) can0 291#0F0F0F0F0F0F
(1763085470.658446) can0 292#0F0F0F0F100F
(1763085470.659445) can0 293#0F0F0F101010
(1763085470.660419) can0 294#101010101010
(1763085470.661421) can0 295#101010111010
(1763085470.661707) can0 000A0003#FF24FF7D0FDD0000
(1763085470.661999) can0 000A0004#000E000000448E02
(1763085470.662341) can0 382#0000000000000000
(1763085470.662460) can0 701#05
(1763085470.662710) can0 482#0000000008140001
(1763085470.666054) can0 189#46029F01570100C0
(1763085470.670642) can0 682#3E45230400000000
(1763085470.671617) can0 000A0003#FF22FF7C0FDB0000
(1763085470.671909) can0 000A0004#000E000000448E02
(1763085470.676055) can0 189#49029F01550100C0
(1763085470.681612) can0 000A0003#FF21FF7D0FDA0000
(1763085470.681899) can0 000A0004#000E000100448E02
(1763085470.682131) can0 4C4#04C204BC04B304B3
(1763085470.683061) can0 4C5#04AB04BE04BF04BC
(1763085470.684071) can0 4C6#04C104B804B404B3
(1763085470.684315) can0 181#810100207F000009
(1763085470.684461) can0 701#05
(1763085470.684718) can0 281#0000000000000000
(1763085470.684968) can0 482#0000000008140001
(1763085470.685198) can0 4C7#04B604B004B804B8
(1763085470.685450) can0 382#0000000000000000
(1763085470.686051) can0 186#00004C1D010A0000
(1763085470.686325) can0 4C8#04AD000000000000
(1763085470.686653) can0 189#45029E01540100C0
(1763085470.690848) can0 1A0#000000000100
(1763085470.691613) can0 000A0003#FF20FF7D0FD70000
(1763085470.691904) can0 000A0004#000E000100438E02
(1763085470.692631) can0 000A0000#0000000000000000
(1763085470.692928) can0 000A0001#0000000000000000
(1763085470.693227) can0 000A0002#0000000000000000
(1763085470.693454) can0 1A4#00007612000000
(1763085470.693683) can0 2A3#1D1E1C191A1C1817
(1763085470.696051) can0 189#46029F01560100C0
(1763085470.701615) can0 000A0003#FF1FFF7D0FD40000
(1763085470.701907) can0 000A0004#000E000100438E02
(1763085470.703656) can0 1A2#00008313000000
(1763085470.703892) can0 2A1#1C1E1F1F20212012
(1763085470.705991) can0 482#0000000008140001
(1763085470.706227) can0 189#4602A101570100C0
(1763085470.706344) can0 701#05
(1763085470.706598) can0 382#0000000000000000
(1763085470.711634) can0 000A0003#FF1EFF7D0FD20000
(1763085470.711905) can0 000A0004#000E000100428E02
(1763085470.712149) can0 682#3E45230400000000
(1763085470.715962) can0 1A5#0000FF12000000
(1763085470.716195) can0 189#47029F01570100C0
(1763085470.718709) can0 19A#0000806D7B7D7F7F
(1763085470.719717) can0 29A#816C837F82810000
(1763085470.721623) can0 000A0003#FF1CFF800FD30000
(1763085470.721913) can0 000A0004#000D000200428E02
(1763085470.722469) can0 181#810100207F000009
(1763085470.726063) can0 186#00004C1D010B0000
(1763085470.726607) can0 189#48029F01550100C0
(1763085470.727463) can0 080#
(1763085470.727932) can0 382#0000000000000000
(1763085470.728052) can0 701#05
(1763085470.728308) can0 281#0000000000000000
(1763085470.728559) can0 482#0000000008140001
(1763085470.728803) can0 286#6400900100000000
(1763085470.731623) can0 000A0003#FF1BFF820FD10000
(1763085470.731909) can0 000A0004#000D000200438E02
(1763085470.736051) can0 189#48029F01570100C0
(1763085470.740700) can0 188#0C00593300000000
(1763085470.741472) can0 288#6229432200140000
(1763085470.741763) can0 000A0003#FF18FF810FCE0000
(1763085470.742050) can0 000A0004#000D000100448E02
