(1763083956.808936) can0 000A0002#0000000000000000
(1763083956.811970) can0 682#3D43340400005F00
(1763083956.814549) can0 701#05
(1763083956.814785) can0 189#0F0320025C010651
(1763083956.817323) can0 000A0003#FEC1FF4D10120000
(1763083956.817613) can0 000A0004#00000000FE158E02
(1763083956.818758) can0 4C4#04AF04A604A5049E
(1763083956.819766) can0 4C5#049E04A204A304A3
(1763083956.820215) can0 382#94020100BB020000
(1763083956.820550) can0 181#D10300207F000009
(1763083956.820787) can0 4C6#049F04A4049C0492
(1763083956.821797) can0 4C7#04A304A504A504AD
(1763083956.822829) can0 4C8#047A000000000000
(1763083956.824730) can0 189#0E0321025B010651
(1763083956.825583) can0 281#4301000007000000
(1763083956.825904) can0 482#4301050008360001
(1763083956.827323) can0 000A0003#FEB7FF4F100F0000
(1763083956.827609) can0 000A0004#FFFDFFFBFE188E02
(1763083956.834746) can0 189#0E0320025C010651
(1763083956.836227) can0 701#05
(1763083956.837316) can0 000A0003#FEB0FF4E10120000
(1763083956.837601) can0 000A0004#FFFCFFF6FE1C8E02
(1763083956.837958) can0 19A#00007C6B757F7D80
(1763083956.838958) can0 29A#8073847F84830000
(1763083956.841949) can0 382#D2021A00BB020000
(1763083956.844741) can0 186#03074C1D09050000
(1763083956.845002) can0 189#0D0320025C010551
(1763083956.845862) can0 080#
(1763083956.846987) can0 286#0000900100000000
(1763083956.847319) can0 000A0003#FEACFF4E10180000
(1763083956.847604) can0 000A0004#FFFAFFF5FE1D8E02
(1763083956.847845) can0 482#4201050008360001
(1763083956.852878) can0 682#3D43340400006000
(1763083956.853776) can0 188#0C00083300000000
(1763083956.854544) can0 288#082A1F2C00140000
(1763083956.854777) can0 189#0E0322025B010651
(1763083956.855551) can0 388#1E1F1C1A1E000000
(1763083956.856508) can0 191#9E9E9E9E9E9E
(1763083956.857323) can0 000A0003#FEB3FF5310270000
(1763083956.857608) can0 000A0004#FFF8FFEFFE1C8E02
(1763083956.857801) can0 192#9E9E9E9E9E9E
(1763083956.858063) can0 701#05
(1763083956.858493) can0 193#9E9E9E9E9E9E
(1763083956.859503) can0 194#9E9E9E9E9E9E
(1763083956.860507) can0 195#9E9E9E9E9E9F
(1763083956.861186) can0 181#D10300207F000009
(1763083956.861529) can0 291#0E0E0E0F0E0E
(1763083956.862506) can0 292#0D0E0F0F0F0E
(1763083956.863515) can0 293#0E0E0F0F0F0E
(1763083956.864525) can0 294#0E0E0F0F0F0E
(1763083956.864757) can0 189#0D0321025B010551
(1763083956.865519) can0 295#0D0E0E0E0E0D
(1763083956.866622) can0 382#ED021C00B8020000
(1763083956.867321) can0 000A0003#FEB5FF5A102F0000
(1763083956.867607) can0 000A0004#FFF8FFF0FE1F8E02
(1763083956.869223) can0 482#4401050008360001
(1763083956.869576) can0 281#4401000007000000
(1763083956.872032) can0 1A3#C0014E09000000
(1763083956.874729) can0 189#0E0320025C010651
(1763083956.877324) can0 000A0003#FEAFFF61102A0000
(1763083956.877610) can0 000A0004#FFF8FFF0FE228E02
(1763083956.878656) can0 1A4#C001600A000000
(1763083956.878882) can0 2A3#0F1111121212100F
(1763083956.879908) can0 701#05
(1763083956.883019) can0 1A2#C001720D000000
(1763083956.883241) can0 2A1#1313131212111111
(1763083956.883931) can0 4C4#04AF04AC04A504A3
(1763083956.884716) can0 186#03074C1D09060000
(1763083956.884950) can0 4C5#049E04A704A3049F
(1763083956.885184) can0 189#0D0320025A010551
(1763083956.885960) can0 4C6#04A404A404A504A0
(1763083956.886976) can0 4C7#04A304A504A504AD
(1763083956.887324) can0 000A0003#FEA6FF6C10200000
(1763083956.887612) can0 000A0004#FFFAFFEFFE258E02
(1763083956.888002) can0 4C8#047A000000000000
(1763083956.888551) can0 382#A802FCFFB8020000
(1763083956.891207) can0 482#4201050008360001
(1763083956.893815) can0 682#3D43340400006000
(1763083956.894731) can0 189#0F0320025C010651
(1763083956.896423) can0 1A5#C001720D000000
(1763083956.897321) can0 000A0003#FEB0FF7610120000
(1763083956.897605) can0 000A0004#FFF9FFEDFE288E02
(1763083956.899363) can0 181#D10300207F000009
(1763083956.901960) can0 701#05
(1763083956.904728) can0 189#0E0321025C010651
(1763083956.906791) can0 1A0#000000000100
(1763083956.907327) can0 000A0003#FEB2FF7F10070000
(1763083956.907611) can0 000A0004#FFF9FFF0FE2C8E02
(1763083956.908336) can0 000A0000#0000000000000000
(1763083956.908636) can0 000A0001#0000000000000000
(1763083956.908936) can0 000A0002#0000000000000000
(1763083956.910274) can0 382#D2028000B8020000
(1763083956.912808) can0 281#3F01000007000000
(1763083956.913127) can0 482#3F01050008360001
(1763083956.914726) can0 189#0D0320025B010651
(1763083956.917331) can0 000A0003#FEAAFF8410050000
(1763083956.917615) can0 000A0004#FFF8FFEEFE2E8E02
(1763083956.923576) can0 701#05
(1763083956.924712) can0 186#09074C1D09070000
(1763083956.925008) can0 189#0D0320025B010551
(1763083956.927330) can0 000A0003#FE9FFF8C100A0000
(1763083956.927614) can0 000A0004#FFF6FFF2FE328E02
(1763083956.929400) can0 382#B3024600B8020000
(1763083956.934733) can0 482#4601050008360001
(1763083956.934962) can0 189#0D0321025C010651
(1763083956.937330) can0 000A0003#FEA8FF8A10180000
(1763083956.937614) can0 000A0004#FFF4FFEDFE368E02
(1763083956.940302) can0 181#D10300207F000009
(1763083956.944739) can0 189#0D0321025C010651
(1763083956.944863) can0 080#
(1763083956.945408) can0 701#05
(1763083956.946016) can0 286#0000900100000000
(1763083956.947328) can0 000A0003#FEB2FF8710250000
(1763083956.947614) can0 000A0004#FFF4FFEDFE388E02
(1763083956.949106) can0 4C4#04AF04AC04A504A3
(1763083956.950122) can0 4C5#049E04A704A3049F
(1763083956.951138) can0 4C6#04A404A404A504A0
(1763083956.951377) can0 382#8E02CBFFBA020000
(1763083956.952151) can0 4C7#04A304A504A504AD
(1763083956.953179) can0 4C8#047A000000000000
(1763083956.954724) can0 189#0D0320025A010551
(1763083956.956680) can0 281#4401000007000000
(1763083956.956926) can0 482#4401050008360001
(1763083956.957336) can0 000A0003#FEB9FF82102E0000
(1763083956.957620) can0 000A0004#FFF4FFEEFE3B8E02
(1763083956.964707) can0 186#12074C1D09080000
(1763083956.965014) can0 189#0D0320025C010651
(1763083956.967339) can0 000A0003#FEC3FF7C103B0000
(1763083956.967626) can0 000A0004#FFF3FFEAFE3D8E02
(1763083956.967742) can0 701#05
(1763083956.972959) can0 382#A2023D00BE020000
(1763083956.973182) can0 1A3#C0013B09000000
(1763083956.974718) can0 189#0D0321025C010651
(1763083956.977333) can0 000A0003#FEC8FF7D10280000
(1763083956.977622) can0 000A0004#FFF3FFE7FE408E02
(1763083956.978320) can0 181#D10300207F000009
(1763083956.978657) can0 482#3F01060008360001
(1763083956.978985) can0 682#3D43340400005F00
(1763083956.984722) can0 189#0E0321025C010651
(1763083956.985713) can0 1A4#0006600A000000
(1763083956.985939) can0 2A3#0F1112131312100F
(1763083956.987340) can0 000A0003#FECBFF7E101C0000
(1763083956.987625) can0 000A0004#FFF1FFE8FE408E02
(1763083956.989229) can0 701#05
(1763083956.990689) can0 1A2#C003720D000000
(1763083956.990916) can0 2A1#1010131212111111
(1763083956.994719) can0 189#0E0321025B010651
(1763083956.994958) can0 382#8D02D3FFBE020000
(1763083956.997340) can0 000A0003#FEDBFF7E101B0000
(1763083956.997627) can0 000A0004#FFF5FFE8FE418E02
(1763083956.997870) can0 482#4201060008360001
(1763083956.998594) can0 1A5#C003720D000000
(1763083957.000370) can0 281#4301000007000000
(1763083957.004707) can0 186#16074C1D09090000
(1763083957.005022) can0 189#0F0322025B010651
(1763083957.006789) can0 1A0#000000000100
(1763083957.007338) can0 000A0003#FEE9FF7E10190000
(1763083957.007624) can0 000A0004#FFF7FFE9FE428E02
(1763083957.007864) can0 188#0C00D23200000000
(1763083957.008344) can0 000A0000#0000000000000000
(1763083957.008645) can0 000A0001#0000000000000000
(1763083957.008944) can0 000A0002#0000000000000000
(1763083957.009186) can0 288#082A1F1F00140000
(1763083957.009524) can0 388#1E1F1C1A1E000000
(1763083957.010481) can0 191#9E9E9E9E9E9E
(1763083957.010921) can0 701#05
(1763083957.011491) can0 192#9E9E9E9E9E9E
(1763083957.012515) can0 193#9E9E9E9E9E9E
(1763083957.013491) can0 194#9E9E9E9E9E9E
(1763083957.014289) can0 4C4#04A904A604A5049E
(1763083957.014499) can0 195#9E9E9E9E9E9F
(1763083957.014735) can0 189#100321025C010651
(1763083957.015298) can0 4C5#04A304A204A304A4
(1763083957.015523) can0 291#0E0E0E0F0E0E
(1763083957.016318) can0 4C6#04A404A804A004A0
(1763083957.016528) can0 292#0D0E0F0F0F0E
(1763083957.016769) can0 382#C5025D00BF020000
(1763083957.017092) can0 181#D10300207F000009
(1763083957.017376) can0 000A0003#FEE9FF7E102A0000
(1763083957.017662) can0 000A0004#FFF9FFE5FE448E02
(1763083957.017871) can0 293#0E0E0F0F0F0E
(1763083957.018107) can0 4C7#049F04A504A504AD
(1763083957.018375) can0 4C8#047A000000000000
(1763083957.018587) can0 294#0E0E0F0F0F0E
(1763083957.019512) can0 295#0D0E0E0E0E0D
(1763083957.019753) can0 482#4501060008360001
(1763083957.020048) can0 682#3D43340400005F00
(1763083957.024712) can0 189#0F0322025A010651
(1763083957.027337) can0 000A0003#FEE9FF7F10340000
(1763083957.027625) can0 000A0004#FFF9FFE5FE458E02
(1763083957.032647) can0 701#05
(1763083957.034713) can0 189#0F0323025C010651
(1763083957.037340) can0 000A0003#FEEBFF8110350000
(1763083957.037625) can0 000A0004#FFF6FFE2FE488E02
(1763083957.038704) can0 382#B002A9FFBF020000
(1763083957.041182) can0 482#4401060008360001
(1763083957.043825) can0 281#4501000007000000
(1763083957.044062) can0 19A#00008079687F827C
(1763083957.044725) can0 186#33074C1D090A0000
(1763083957.044959) can0 29A#7E62848181850000
(1763083957.045191) can0 189#0F0322025A010651
(1763083957.045847) can0 080#
(1763083957.046998) can0 286#0000900100000000
(1763083957.047337) can0 000A0003#FEECFF8410360000
(1763083957.047623) can0 000A0004#FFF4FFE3FE4B8E02
(1763083957.051772) can0 701#05
(1763083957.053776) can0 188#0C00503300000000
(1763083957.054554) can0 288#082A1F2300140000
(1763083957.054789) can0 189#0F0323025B010651
(1763083957.055032) can0 181#D10300207F000009
(1763083957.055562) can0 388#1E1F1C1A1E000000
(1763083957.056489) can0 191#9E9E9E9E9E9E
(1763083957.057334) can0 000A0003#FEF4FF8710390000
(1763083957.057622) can0 000A0004#FFF3FFE0FE4E8E02
(1763083957.057813) can0 192#9E9E9E9E9E9E
(1763083957.058505) can0 193#9E9E9E9E9E9E
(1763083957.059514) can0 194#9E9E9E9E9E9E
(1763083957.060423) can0 682#3D43340400006000
(1763083957.060614) can0 195#9E9E9E9E9E9F
(1763083957.060854) can0 382#A8024C00CA020000
(1763083957.061209) can0 482#3F01060008360001
(1763083957.061504) can0 291#0D0D0E0F0E0E
(1763083957.062519) can0 292#0D0E0F0F0F0E
(1763083957.063527) can0 293#0E0E0F0F0F0E
(1763083957.064540) can0 294#0E0F0F0F0F0F
(1763083957.064772) can0 189#0F0322025B010651
(1763083957.065501) can0 295#0D0E0E0E0D0D
(1763083957.067343) can0 000A0003#FEF9FF8A103C0000
(1763083957.067627) can0 000A0004#FFF3FFE1FE508E02
(1763083957.073693) can0 701#05
(1763083957.074064) can0 1A3#C0013B09000000
(1763083957.074710) can0 189#0E0323025B010651
(1763083957.077338) can0 000A0003#FEFCFF8F10350000
(1763083957.077625) can0 000A0004#FFF2FFE4FE548E02
(1763083957.079469) can0 4C4#04A904A604A5049E
(1763083957.080478) can0 4C5#04A304A204A304A4
(1763083957.081496) can0 4C6#04A404A804A004A0
(1763083957.082140) can0 482#4201060008360001
(1763083957.082474) can0 382#B802C2FFCA020000
(1763083957.082710) can0 4C7#049F04A504A504AD
(1763083957.083538) can0 4C8#047A000000000000
(1763083957.084698) can0 186#0C074C1D090B0000
(1763083957.085008) can0 189#0D032A025A010651
(1763083957.087344) can0 000A0003#FEFDFF9410300000
(1763083957.087626) can0 000A0004#FFF3FFE5FE598E02
(1763083957.087870) can0 281#4301000007000000
(1763083957.092768) can0 1A4#C007600A000000
(1763083957.093009) can0 181#D10300207F000009
(1763083957.093239) can0 2A3#0E1112131312100F
(1763083957.094709) can0 189#0D0322025A010651
(1763083957.095535) can0 701#05
(1763083957.097342) can0 000A0003#FEFBFF9B102A0000
(1763083957.097630) can0 000A0004#FFF3FFE6FE5B8E02
(1763083957.098342) can0 1A2#C000940D000000
(1763083957.098574) can0 2A1#1010101111121111
(1763083957.100761) can0 1A5#0007720D000000
(1763083957.101357) can0 682#3D43340400006100
(1763083957.103968) can0 382#B4023E00BB020000
(1763083957.104329) can0 482#4201060008360001
(1763083957.104703) can0 189#0D0321025B010651
(1763083957.106790) can0 1A0#000000000100
(1763083957.107349) can0 000A0003#FEF8FFA510230000
(1763083957.107631) can0 000A0004#FFF2FFE9FE5E8E02
(1763083957.108357) can0 000A0000#0000000000000000
(1763083957.108657) can0 000A0001#0000000000000000
(1763083957.108957) can0 000A0002#0000000000000000
(1763083957.114708) can0 189#0D0323025B010651
(1763083957.117353) can0 000A0003#FEF9FFA0101F0000
(1763083957.117639) can0 000A0004#FFF2FFEFFE628E02
(1763083957.117757) can0 701#05
(1763083957.123058) can0 482#4301060008360001
(1763083957.123388) can0 382#98022300BB020000
(1763083957.124693) can0 186#12074C1D090C0000
(1763083957.125018) can0 189#0D0322025B010551
(1763083957.127352) can0 000A0003#FEFCFF9A101C0000
(1763083957.127636) can0 000A0004#FFF3FFEFFE648E02
(1763083957.131381) can0 181#D10300207F000009
(1763083957.131632) can0 281#4101000007000000
(1763083957.134703) can0 189#0E0323025C010651
(1763083957.137346) can0 000A0003#FEFCFF9810150000
(1763083957.137630) can0 000A0004#FFF3FFF1FE668E02
(1763083957.141844) can0 701#05
(1763083957.142391) can0 682#3D43340400006000
(1763083957.144648) can0 4C4#04AE04A6049F04A2
(1763083957.144878) can0 189#0E0322025B010651
(1763083957.144981) can0 080#
(1763083957.145223) can0 382#C202E3FFBE020000
(1763083957.145468) can0 482#4201060008360001
(1763083957.145699) can0 4C5#04A704A104A2049E
(1763083957.146000) can0 286#0000900100000000
(1763083957.146678) can0 4C6#04A3049F049B049F
(1763083957.147352) can0 000A0003#FEFDFF95100B0000
(1763083957.147635) can0 000A0004#FFF1FFF3FE678E02
(1763083957.147869) can0 4C7#049E049F04A404A6
(1763083957.148715) can0 4C8#0479000000000000
(1763083957.153783) can0 188#0C00233300000000
(1763083957.154561) can0 288#082A1F2300140000
(1763083957.154795) can0 189#0F0323025C010651
(1763083957.155539) can0 388#1E1F1C1A1E000000
(1763083957.156479) can0 191#9E9E9E9E9E9E
(1763083957.157349) can0 000A0003#FF00FF860FF10000
(1763083957.157637) can0 000A0004#FFF0FFF4FE698E02
(1763083957.157827) can0 192#9E9E9E9E9E9E
(1763083957.158495) can0 193#9E9E9E9E9E9E
(1763083957.159491) can0 194#9E9E9E9E9E9E
(1763083957.160498) can0 195#9E9E9E9E9E9F
(1763083957.161512) can0 291#0D0D0E0F0E0E
(1763083957.162525) can0 292#0D0E0F0F0F0E
(1763083957.163535) can0 293#0E0E0F0F0F0E
(1763083957.163900) can0 701#05
(1763083957.164352) can0 482#4001060008360001
(1763083957.164566) can0 294#0E0F0F0F0F0F
(1763083957.164801) can0 186#16074C1D090D0000
(1763083957.165036) can0 189#0E03200259010651
(1763083957.165278) can0 382#ED02E4FFBE020000
(1763083957.165491) can0 295#0D0E0E0E0D0D
(1763083957.167358) can0 000A0003#FF05FF780FD80000
(1763083957.167647) can0 000A0004#FFEFFFF8FE6B8E02
(1763083957.169576) can0 181#D10300207F000009
(1763083957.174699) can0 189#0F0323025C010651
(1763083957.174946) can0 281#4101000007000000
(1763083957.175169) can0 1A3#C0093B09000000
(1763083957.177346) can0 000A0003#FF09FF740FD90000
(1763083957.177630) can0 000A0004#FFEDFFFAFE6D8E02
(1763083957.183238) can0 682#3D43340400005F00
(1763083957.184704) can0 189#100323025C010651
(1763083957.185862) can0 382#B202FEFFBF020000
(1763083957.186046) can0 701#05
(1763083957.186421) can0 482#4001060008360001
(1763083957.187346) can0 000A0003#FF0EFF6F0FD90000
(1763083957.187631) can0 000A0004#FFEBFFFEFE728E02
(1763083957.194700) can0 189#100323025B010651
(1763083957.197354) can0 000A0003#FF17FF6B0FE90000
(1763083957.197639) can0 000A0004#FFEB0003FE768E02
(1763083957.199834) can0 1A4#000C600A000000
(1763083957.200070) can0 2A3#0E1010101012100F
(1763083957.202941) can0 1A5#C009720D000000
(1763083957.204684) can0 186#1E074C1D090E0000
(1763083957.205011) can0 189#0E0322025C010651
(1763083957.205127) can0 701#05
(1763083957.205539) can0 382#9502E2FFBF020000
(1763083957.206001) can0 1A2#C001810D000000
(1763083957.206229) can0 2A1#1210101111121212
(1763083957.206794) can0 1A0#000000000100
(1763083957.207348) can0 000A0003#FF1DFF680FF20000
(1763083957.207637) can0 000A0004#FFED0007FE798E02
(1763083957.208364) can0 000A0000#0000000000000000
(1763083957.208663) can0 000A0001#0000000000000000
(1763083957.208962) can0 000A0002#0000000000000000
(1763083957.209811) can0 4C4#04AE04A5049A04A2
(1763083957.210529) can0 181#D10300207F000009
(1763083957.210825) can0 4C5#049D049D04A204A3
(1763083957.211067) can0 482#3F01060008360001
(1763083957.211845) can0 4C6#049E04A3049B049F
(1763083957.212856) can0 4C7#0499049F04A404AC
(1763083957.213883) can0 4C8#0479000000000000
(1763083957.214697) can0 189#0F0322025A010651
(1763083957.217351) can0 000A0003#FF24FF6B0FF70000
(1763083957.217638) can0 000A0004#FFEF000FFE7D8E02
(1763083957.218648) can0 281#3F01000007000000
(1763083957.224182) can0 682#3D43340400006000
(1763083957.224697) can0 189#0E0322025C010651
(1763083957.227355) can0 000A0003#FF28FF6F0FF60000
(1763083957.227642) can0 000A0004#FFEB000FFE7F8E02
(1763083957.229192) can0 701#05
(1763083957.229645) can0 382#BC02B9FFC2020000
(1763083957.232501) can0 482#4401060008360001
(1763083957.234700) can0 189#100323025C010651
(1763083957.237352) can0 000A0003#FF26FF700FE80000
(1763083957.237641) can0 000A0004#FFE7000FFE818E02
(1763083957.244710) can0 186#31074C1D090F0000
(1763083957.245001) can0 189#100323025B010651
(1763083957.245861) can0 080#
(1763083957.247015) can0 286#0000900100000000
(1763083957.247359) can0 000A0003#FF23FF700FE00000
(1763083957.247645) can0 000A0004#FFE7000EFE838E02
(1763083957.248740) can0 181#D10300207F000009
(1763083957.249976) can0 19A#00007F7275807E7E
(1763083957.250980) can0 29A#8171838085820000
(1763083957.251377) can0 382#CB023A00C9020000
(1763083957.251553) can0 701#05
(1763083957.253810) can0 188#0C00473300000000
(1763083957.254081) can0 482#4301060008360001
(1763083957.254539) can0 288#082A1F2C00140000
(1763083957.254775) can0 189#100322025B010651
(1763083957.255547) can0 388#1E1F1C1A1E000000
(1763083957.256503) can0 191#9E9E9E9E9E9E
(1763083957.257357) can0 000A0003#FF25FF720FD90000
(1763083957.257645) can0 000A0004#FFE9000EFE848E02
(1763083957.257839) can0 192#9E9E9E9E9E9E
(1763083957.258520) can0 193#9E9E9E9E9E9E
(1763083957.259499) can0 194#9E9E9E9E9E9E
(1763083957.260504) can0 195#9E9E9E9E9E9F
(1763083957.261519) can0 291#0D0D0E0F0E0E
(1763083957.262533) can0 292#0D0E0F0F0F0E
(1763083957.263511) can0 293#0E0E0F0F0F0E
(1763083957.264521) can0 294#0E0E0F0F0F0E
(1763083957.264755) can0 189#0F0322025B010651
(1763083957.265000) can0 281#4501000007000000
(1763083957.265352) can0 682#3D43340400006100
(1763083957.265552) can0 295#0D0E0E0E0D0D
(1763083957.267358) can0 000A0003#FF29FF760FD50000
(1763083957.267644) can0 000A0004#FFED000CFE868E02
(1763083957.272848) can0 701#05
(1763083957.273409) can0 382#BC02FEFFC9020000
(1763083957.273785) can0 482#4401060008360001
(1763083957.274694) can0 189#0E0321025B010651
(1763083957.274981) can0 4C4#04AE04A5049A04A2
(1763083957.275996) can0 4C5#049D049D04A204A3
(1763083957.276217) can0 1A3#80033B09000000
(1763083957.277013) can0 4C6#049E04A3049B049F
(1763083957.277356) can0 000A0003#FF2CFF790FD40000
(1763083957.277642) can0 000A0004#FFEF000BFE888E02
(1763083957.278028) can0 4C7#0499049F04A404AC
(1763083957.279055) can0 4C8#0479000000000000
(1763083957.284680) can0 186#18074C1D09000000
(1763083957.285028) can0 189#0E0323025B010651
(1763083957.287080) can0 181#D10300207F000009
(1763083957.287362) can0 000A0003#FF2EFF7B0FD40000
(1763083957.287646) can0 000A0004#FFF10009FE8A8E02
(1763083957.292387) can0 701#05
(1763083957.294690) can0 189#0E0323025C010651
(1763083957.295052) can0 382#D2021000C0020000
(1763083957.297356) can0 000A0003#FF28FF7D0FCD0000
(1763083957.297642) can0 000A0004#FFF40005FE8D8E02
(1763083957.297884) can0 482#4701060008360001
(1763083957.304694) can0 189#100323025C010651
(1763083957.305114) can0 1A5#C008720D000000
(1763083957.306072) can0 682#3D43340400006100
(1763083957.306796) can0 1A0#000000000100
(1763083957.307020) can0 1A4#C001600A000000
(1763083957.307258) can0 2A3#0E1010101010100F
(1763083957.307546) can0 000A0003#FF1EFF7F0FC30000
(1763083957.307833) can0 000A0004#FFF70001FE908E02
(1763083957.308376) can0 000A0000#0000000000000000
(1763083957.308676) can0 000A0001#0000000000000000
(1763083957.308974) can0 000A0002#0000000000000000
(1763083957.309220) can0 281#4901000007000000
(1763083957.313652) can0 1A2#C001810D000000
(1763083957.313874) can0 2A1#1212121213121212
(1763083957.313991) can0 701#05
(1763083957.314365) can0 382#EB027700C0020000
(1763083957.314702) can0 189#0E03210258010651
(1763083957.317362) can0 000A0003#FF1BFF810FCE0000
(1763083957.317649) can0 000A0004#FFFA0001FE938E02
(1763083957.319582) can0 482#4901060008360001
(1763083957.324681) can0 186#2D074C1D09010000
(1763083957.325034) can0 189#0F0323025C010651
(1763083957.325293) can0 181#D10300207F000009
(1763083957.327367) can0 000A0003#FF1BFF830FF80000
(1763083957.327654) can0 000A0004#0002FFFBFE978E02
(1763083957.334688) can0 189#120325025B010651
(1763083957.335720) can0 701#05
(1763083957.336101) can0 382#C902B2FFC8020000
(1763083957.337389) can0 000A0003#FF13FF8010160000
(1763083957.337659) can0 000A0004#0009FFF3FE9B8E02
(1763083957.340160) can0 4C4#04A804A5049A0498
(1763083957.341169) can0 4C5#04A204A6049E049E
(1763083957.341651) can0 482#4601060008360001
(1763083957.342186) can0 4C6#049E04A7049B0496
(1763083957.343202) can0 4C7#049E049F049F04A6
(1763083957.344228) can0 4C8#0479000000000000
(1763083957.344703) can0 189#130326025B010651
(1763083957.344863) can0 080#
(1763083957.346015) can0 286#0000900100000000
(1763083957.347134) can0 682#3D43340400006100
(1763083957.347417) can0 000A0003#FF08FF7B102F0000
(1763083957.347704) can0 000A0004#000DFFECFE9E8E02
(1763083957.352455) can0 281#4501000007000000
(1763083957.353742) can0 188#0C00F63200000000
(1763083957.354531) can0 288#082A1F2B00140000
(1763083957.354764) can0 189#140327025C010651
(1763083957.355538) can0 388#1E1F1C1A1E000000
(1763083957.356512) can0 191#9E9E9E9E9E9E
(1763083957.357367) can0 000A0003#FF00FF75103A0000
(1763083957.357657) can0 000A0004#000DFFE7FEA08E02
(1763083957.357849) can0 192#9E9E9E9E9E9E
(1763083957.358086) can0 382#AD022300C8020000
(1763083957.358229) can0 701#05
(1763083957.358497) can0 193#9E9E9E9E9E9E
(1763083957.359505) can0 194#9E9E9E9E9E9E
(1763083957.360513) can0 195#9E9E9E9E9E9F
(1763083957.361525) can0 291#0D0D0E0F0E0E
(1763083957.362509) can0 292#0D0E0F0F0F0E
(1763083957.363359) can0 482#4501060008360001
(1763083957.363568) can0 293#0E0E0F0F0F0E
(1763083957.364528) can0 294#0E0E0F0F0F0E
(1763083957.364762) can0 186#66074C1D09020000
(1763083957.365033) can0 189#1303260259010651
(1763083957.365524) can0 295#0D0E0E0E0D0D
(1763083957.366327) can0 181#D10300207F000009
(1763083957.367367) can0 000A0003#FEF4FF6A10410000
(1763083957.367653) can0 000A0004#000EFFE2FEA38E02
(1763083957.374682) can0 189#140327025C010651
(1763083957.377119) can0 1A3#00063B09000000
(1763083957.377405) can0 000A0003#FEF6FF64103D0000
(1763083957.377691) can0 000A0004#000CFFDDFEA68E02
(1763083957.379305) can0 701#05
(1763083957.379866) can0 382#0A03E9FFDE020000
(1763083957.384685) can0 189#140328025B010651
(1763083957.385098) can0 482#4901060008360001
(1763083957.387386) can0 000A0003#FEFEFF6210340000
(1763083957.387672) can0 000A0004#000AFFE0FEAB8E02
(1763083957.388170) can0 682#3D43340400006000
(1763083957.394680) can0 189#130328025C010651
(1763083957.395927) can0 281#4B01000007000000
(1763083957.397377) can0 000A0003#FEFFFF6410260000
(1763083957.397665) can0 000A0004#0007FFE1FEAE8E02
(1763083957.399078) can0 382#20034800DE020000
(1763083957.399199) can0 701#05
(1763083957.404197) can0 181#D10300207F000009
(1763083957.404665) can0 186#5C074C1D09030000
(1763083957.405023) can0 189#110327025B010651
(1763083957.405316) can0 4C4#04A804A5049A0498
(1763083957.406327) can0 4C5#04A204A6049E049E
(1763083957.406794) can0 1A0#000000000100
(1763083957.407290) can0 482#4901060008360001
(1763083957.407581) can0 000A0003#FEFBFF6A10070000
(1763083957.407866) can0 000A0004#0007FFE1FEB18E02
(1763083957.408092) can0 1A5#C007720D000000
(1763083957.408392) can0 000A0000#0000000000000000
(1763083957.408694) can0 000A0001#0000000000000000
(1763083957.408990) can0 000A0002#0000000000000000
(1763083957.409224) can0 4C7#049E049F049F04A6
(1763083957.409469) can0 4C8#0479000000000000
(1763083957.409704) can0 4C6#049E04A7049B0496
(1763083957.413952) can0 1A4#C001600A000000
(1763083957.414180) can0 2A3#0F1212121010100F
(1763083957.414680) can0 189#1203250259010651
(1763083957.417376) can0 000A0003#FEF8FF6A0FFA0000
(1763083957.417661) can0 000A0004#0006FFE8FEB58E02
(1763083957.420244) can0 701#05
(1763083957.420798) can0 382#B902C6FFDA020000
(1763083957.421330) can0 1A2#C009E70D000000
(1763083957.421553) can0 2A1#1212121213131212
(1763083957.424677) can0 189#130325025B010651
(1763083957.427373) can0 000A0003#FEFAFF660FF50000
(1763083957.427661) can0 000A0004#0001FFEAFEB88E02
(1763083957.431637) can0 482#4001060008360001
(1763083957.431967) can0 682#3D43340400006200
(1763083957.434681) can0 189#140325025A010651
(1763083957.437371) can0 000A0003#FEFDFF670FF30000
(1763083957.437654) can0 000A0004#0002FFEBFEB98E02
(1763083957.438973) can0 19A#00007D736C7E7D81
(1763083957.439797) can0 281#3E01000007000000
(1763083957.440034) can0 29A#817A837E84810000
(1763083957.440148) can0 701#05
(1763083957.442431) can0 382#FC024500DA020000
(1763083957.444689) can0 186#5F074C1D09040000
(1763083957.445021) can0 189#130325025A010651
(1763083957.445262) can0 181#D10300207F000009
(1763083957.445816) can0 080#
(1763083957.446998) can0 286#0000900100000000
(1763083957.447380) can0 000A0003#FF05FF700FF20000
(1763083957.447664) can0 000A0004#0000FFE9FEBC8E02
(1763083957.453349) can0 482#4701060008360001
(1763083957.453777) can0 188#0C00E83200000000
(1763083957.454559) can0 288#062A1F2400140000
(1763083957.454790) can0 189#140325025A010651
(1763083957.455561) can0 388#1E1F1C1A1E000000
(1763083957.456501) can0 191#9E9E9E9E9E9E
(1763083957.457377) can0 000A0003#FF08FF760FDD0000
(1763083957.457663) can0 000A0004#0000FFECFEBE8E02
(1763083957.457855) can0 192#9E9E9E9E9E9E
(1763083957.458504) can0 193#9E9E9E9E9E9E
(1763083957.459515) can0 194#9E9E9E9E9E9E
(1763083957.460516) can0 195#9E9E9E9E9E9E
(1763083957.461273) can0 701#05
(1763083957.461501) can0 291#0D0D0E0F0E0E
(1763083957.461763) can0 382#EE025A00DB020000
(1763083957.462517) can0 292#0D0E0F0F0F0E
(1763083957.463525) can0 293#0E0E0F0F0F0E
(1763083957.464535) can0 294#0E0E0F0F0F0E
(1763083957.464769) can0 189#1303250259010651
(1763083957.465529) can0 295#0D0E0E0E0D0D
(1763083957.467380) can0 000A0003#FF07FF790FCA0000
(1763083957.467670) can0 000A0004#0000FFEFFEBF8E02
(1763083957.470533) can0 4C4#04AF04A604A004A3
(1763083957.471545) can0 4C5#04A804A2049F04A4
(1763083957.472560) can0 4C6#04A404A404A00497
(1763083957.472800) can0 682#3D43340400006200
(1763083957.473574) can0 4C7#04A3049B04A504A7
(1763083957.474598) can0 4C8#047A000000000000
(1763083957.474835) can0 189#140325025A010651
(1763083957.475419) can0 482#4C01060008360001
(1763083957.477376) can0 000A0003#FF09FF7B0FBB0000
(1763083957.477664) can0 000A0004#0001FFEAFEC08E02
(1763083957.478121) can0 1A3#80073B09000000
(1763083957.483032) can0 701#05
(1763083957.483481) can0 382#0403D4FFDB020000
(1763083957.483817) can0 181#D10300207F000009
(1763083957.484065) can0 281#4D01000007000000
(1763083957.484663) can0 186#60074C1D09050000
(1763083957.485011) can0 189#1303250259010651
(1763083957.487373) can0 000A0003#FF12FF770FC90000
(1763083957.487662) can0 000A0004#0003FFE7FEC18E02
(1763083957.494675) can0 189#140328025D010651
(1763083957.497126) can0 482#4701060008360001
(1763083957.497416) can0 000A0003#FF1BFF740FD40000
(1763083957.497704) can0 000A0004#0005FFE9FEC08E02
(1763083957.504673) can0 189#120327025B010651
(1763083957.505439) can0 382#8202E4FFDB020000
(1763083957.505618) can0 701#05
(1763083957.506796) can0 1A0#000000000100
(1763083957.507382) can0 000A0003#FF21FF720FDB0000
(1763083957.507669) can0 000A0004#0006FFE8FEC08E02
(1763083957.508395) can0 000A0000#0000000000000000
(1763083957.508695) can0 000A0001#0000000000000000
(1763083957.508994) can0 000A0002#0000000000000000
(1763083957.509485) can0 1A5#C009810D000000
(1763083957.513618) can0 682#3D43340400006200
(1763083957.514669) can0 189#130326025B010651
(1763083957.517384) can0 000A0003#FF2BFF720FDC0000
(1763083957.517670) can0 000A0004#0006FFE8FEC08E02
(1763083957.518851) can0 482#4801060008360001
(1763083957.520986) can0 1A4#C003600A000000
(1763083957.521215) can0 2A3#0F1212121111110F
(1763083957.521694) can0 181#D10300207F000009
(1763083957.524658) can0 186#60074C1D09060000
(1763083957.525025) can0 189#120325025B010651
(1763083957.526811) can0 701#05
(1763083957.527149) can0 281#4A01000007000000
(1763083957.527435) can0 000A0003#FF37FF770FCF0000
(1763083957.527723) can0 000A0004#0007FFE4FEC08E02
(1763083957.527964) can0 382#C5023E00DB020000
(1763083957.529008) can0 1A2#C003E70D000000
(1763083957.529233) can0 2A1#1112111113131212
(1763083957.534669) can0 189#130326025B010651
(1763083957.535701) can0 4C4#04AF04A604A504A8
(1763083957.536709) can0 4C5#04A804A204A304A4
(1763083957.537385) can0 000A0003#FF3EFF790FCC0000
(1763083957.537674) can0 000A0004#0008FFE2FEC18E02
(1763083957.537907) can0 4C6#04A404A4049C049B
(1763083957.538739) can0 4C7#04A804AA04AB04AD
(1763083957.539768) can0 4C8#047A000000000000
(1763083957.540681) can0 482#4D01060008360001
(1763083957.544686) can0 189#130326025B010651
(1763083957.544879) can0 080#
(1763083957.545999) can0 286#0000900100000000
(1763083957.547382) can0 000A0003#FF43FF740FCD0000
(1763083957.547668) can0 000A0004#0009FFE2FEC28E02
(1763083957.548610) can0 701#05
(1763083957.548992) can0 382#B802AFFFDB020000
(1763083957.553792) can0 188#0C002C3300000000
(1763083957.554558) can0 288#052AE42D00140000
(1763083957.554788) can0 189#130326025A010651
(1763083957.555028) can0 682#3D43340400006200
(1763083957.555569) can0 388#1E1F1C1A1E000000
(1763083957.556496) can0 191#9E9E9E9E9E9E
(1763083957.557380) can0 000A0003#FF4AFF6F0FD30000
(1763083957.557666) can0 000A0004#000AFFE6FEC48E02
(1763083957.557859) can0 192#9E9E9E9E9E9E
(1763083957.558512) can0 193#9E9E9E9E9E9E
(1763083957.559520) can0 194#9E9E9E9E9E9E
(1763083957.559795) can0 181#D10300207F000009
(1763083957.560493) can0 195#9E9E9E9E9E9E
(1763083957.561518) can0 291#0E0E0E0F0E0E
(1763083957.562527) can0 292#0E0E0F0F0F0E
(1763083957.562768) can0 482#4501060008360001
(1763083957.563532) can0 293#0E0E0F0F0F0E
(1763083957.564545) can0 294#0E0E0F0F0F0E
(1763083957.564777) can0 186#4D074C1D09070000
(1763083957.565049) can0 189#120325025A010651
(1763083957.565507) can0 295#0D0E0E0E0D0D
(1763083957.567389) can0 000A0003#FF53FF6A0FE30000
(1763083957.567671) can0 000A0004#000AFFEAFEC68E02
(1763083957.570705) can0 382#D0025100D4020000
(1763083957.570823) can0 701#05
(1763083957.571139) can0 281#4301000007000000
(1763083957.574665) can0 189#120326025A010651
(1763083957.577389) can0 000A0003#FF59FF670FEE0000
(1763083957.577675) can0 000A0004#0005FFECFEC88E02
(1763083957.579129) can0 1A3#00063109000000
(1763083957.584363) can0 482#4601060008360001
(1763083957.584695) can0 189#120326025A010651
(1763083957.587388) can0 000A0003#FF6CFF6F0FFF0000
(1763083957.587677) can0 000A0004#0004FFF3FECA8E02
(1763083957.592526) can0 701#05
(1763083957.594663) can0 189#110326025B010651
(1763083957.595281) can0 382#E5021200D4020000
(1763083957.595823) can0 682#3D43330400006200
(1763083957.597386) can0 000A0003#FF7AFF7610070000
(1763083957.597674) can0 000A0004#0002FFFAFECB8E02
(1763083957.598121) can0 181#D10300207F000009
(1763083957.600882) can0 4C4#04AF04A604A504AD
(1763083957.601885) can0 4C5#04A304A204A304A4
(1763083957.602908) can0 4C6#04A404A004A004A0
(1763083957.603917) can0 4C7#04AC04AA04AB04AD
(1763083957.604647) can0 186#53074C1D09080000
(1763083957.604945) can0 4C8#047A000000000000
(1763083957.605179) can0 189#1003240259010651
(1763083957.606305) can0 482#4D01060008360001
(1763083957.606711) can0 1A0#000000000100
(1763083957.607395) can0 000A0003#FF82FF7C0FFE0000
(1763083957.607683) can0 000A0004#00020000FECD8E02
(1763083957.608403) can0 000A0000#0000000000000000
(1763083957.608705) can0 000A0001#0000000000000000
(1763083957.609001) can0 000A0002#0000000000000000
(1763083957.611658) can0 1A5#000C810D000000
(1763083957.614041) can0 701#05
(1763083957.614513) can0 281#4901000007000000
(1763083957.614746) can0 189#100325025A010651
(1763083957.614985) can0 382#A702FBFFD7020000
(1763083957.617393) can0 000A0003#FF86FF800FF90000
(1763083957.617681) can0 000A0004#00010004FECE8E02
(1763083957.624669) can0 189#100326025B010651
(1763083957.627398) can0 000A0003#FF81FF7C0FF90000
(1763083957.627685) can0 000A0004#FFFF0005FECE8E02
(1763083957.628037) can0 1A4#C001510A000000
(1763083957.628261) can0 2A3#101312121111110F
(1763083957.628504) can0 482#4801060008360001
(1763083957.634659) can0 189#120325025C010651
(1763083957.636223) can0 382#DA024500D7020000
(1763083957.636405) can0 701#05
(1763083957.636647) can0 181#D10300207F000009
(1763083957.636872) can0 1A2#C001BB0D000000
(1763083957.637099) can0 2A1#1112111111111011
(1763083957.637336) can0 682#3D43340400006300
(1763083957.637621) can0 000A0003#FF7CFF770FF60000
(1763083957.637908) can0 000A0004#FFFD0006FECE8E02
(1763083957.644675) can0 186#4D074C1D09090000
(1763083957.644970) can0 19A#00007C7B6F837D82
(1763083957.645202) can0 189#110325025A010651
(1763083957.645964) can0 29A#8275878586850000
(1763083957.646067) can0 080#
(1763083957.647017) can0 286#0000900100000000
(1763083957.647396) can0 000A0003#FF78FF720FF10000
(1763083957.647682) can0 000A0004#FFFB0004FECF8E02
(1763083957.649838) can0 482#4701060008360001
(1763083957.653791) can0 188#0C00F63200000000
(1763083957.654564) can0 288#052AE42400140000
(1763083957.654799) can0 189#1203250259010651
(1763083957.655546) can0 388#1E1F1C1A1E000000
(1763083957.656484) can0 191#9E9E9E9E9E9E
(1763083957.657394) can0 000A0003#FF72FF6A0FE90000
(1763083957.657681) can0 000A0004#FFFC0002FECE8E02
(1763083957.657874) can0 192#9E9E9E9E9E9E
(1763083957.657989) can0 701#05
(1763083957.658249) can0 382#A702A3FFD4020000
(1763083957.658494) can0 281#4901000007000000
(1763083957.658689) can0 193#9E9E9E9E9E9E
(1763083957.659496) can0 194#9E9E9E9E9E9E
(1763083957.660500) can0 195#9E9E9E9E9E9E
(1763083957.661524) can0 291#0E0E0E0F0E0E
(1763083957.662535) can0 292#0E0E0F0F0F0E
(1763083957.663541) can0 293#0E0E0F0F0F0E
(1763083957.664502) can0 294#0E0E0F0F0F0E
(1763083957.664736) can0 189#1003240259010651
(1763083957.665498) can0 295#0D0E0E0E0D0D
(1763083957.666038) can0 4C4#04AF04A604A5049E
(1763083957.667057) can0 4C5#049E04A7049A049F
(1763083957.667397) can0 000A0003#FF72FF620FE90000
(1763083957.667686) can0 000A0004#FFFDFFFCFECE8E02
(1763083957.668068) can0 4C6#04A404A004A50497
(1763083957.669074) can0 4C7#04A304A004A504AD
(1763083957.670103) can0 4C8#047A000000000000
(1763083957.671818) can0 482#5101060008360001
(1763083957.674657) can0 189#1003260259010651
(1763083957.677148) can0 181#D10300207F000009
(1763083957.677438) can0 000A0003#FF6FFF5C0FEB0000
(1763083957.677729) can0 000A0004#0000FFFCFECF8E02
(1763083957.677968) can0 682#3D43340400006200
(1763083957.679774) can0 701#05
(1763083957.680092) can0 1A3#00063B09000000
(1763083957.680330) can0 382#E1026700D4020000
(1763083957.684642) can0 186#47074C1D090A0000
(1763083957.685030) can0 189#100326025A010651
(1763083957.687397) can0 000A0003#FF68FF5B0FEF0000
(1763083957.687686) can0 000A0004#FFFFFFFAFECF8E02
(1763083957.693552) can0 482#5001060008360001
(1763083957.694658) can0 189#0D0323025A010651
(1763083957.697397) can0 000A0003#FF5EFF590FF50000
(1763083957.697686) can0 000A0004#FFFCFFF8FECF8E02
(1763083957.701470) can0 701#05
(1763083957.701735) can0 281#4B01000007000000
(1763083957.702168) can0 382#FA02E0FFD2020000
(1763083957.704656) can0 189#0A0322025B010551
(1763083957.706709) can0 1A0#000000000100
(1763083957.707397) can0 000A0003#FF51FF660FD40000
(1763083957.707680) can0 000A0004#FFF9FFFBFED18E02
(1763083957.708416) can0 000A0000#0000000000000000
(1763083957.708714) can0 000A0001#0000000000000000
(1763083957.709012) can0 000A0002#0000000000000000
(1763083957.713822) can0 1A5#4008720D000000
(1763083957.714657) can0 189#08031F025B010551
(1763083957.715357) can0 482#4501060008360001
(1763083957.715722) can0 181#D10300207F000009
(1763083957.717446) can0 000A0003#FF4BFF6D0FB60000
(1763083957.717696) can0 000A0004#FFF8FFFCFED38E02
(1763083957.718461) can0 682#3D43340400006200
(1763083957.723215) can0 701#05
(1763083957.723668) can0 382#C602DAFFD2020000
(1763083957.724638) can0 186#C6064C1D090B0000
(1763083957.725039) can0 189#06031F025A010551
(1763083957.727395) can0 000A0003#FF50FF6B0FA40000
(1763083957.727684) can0 000A0004#FFFBFFFEFED48E02
(1763083957.731186) can0 4C4#04AF04A604A5049E
(1763083957.732202) can0 4C5#049E04A7049A049F
(1763083957.733215) can0 4C6#04A404A004A50497
(1763083957.734228) can0 4C7#04A304A004A504AD
(1763083957.734655) can0 189#07031F025B010551
(1763083957.735082) can0 1A4#C007510A000000
(1763083957.735313) can0 2A3#101312121110100F
(1763083957.735558) can0 4C8#047A000000000000
(1763083957.737399) can0 000A0003#FF58FF680F8B0000
(1763083957.737684) can0 000A0004#FFF80000FED68E02
(1763083957.737926) can0 482#4A01050008360001
(1763083957.744328) can0 1A2#000E940D000000
(1763083957.744557) can0 2A1#1011121111111011
(1763083957.744791) can0 189#08031F025B010551
(1763083957.744893) can0 080#
(1763083957.745482) can0 382#C6024500A0020000
(1763083957.745603) can0 701#05
(1763083957.745848) can0 281#4C01000007000000
(1763083957.746092) can0 286#0000900100000000
(1763083957.747407) can0 000A0003#FF62FF670F8C0000
(1763083957.747699) can0 000A0004#FFF60003FED68E02
(1763083957.753595) can0 181#D10300207F000009
(1763083957.753837) can0 188#0C00ED3200000000
(1763083957.754541) can0 288#072A1F2C00140000
(1763083957.754780) can0 189#08031F025B010551
(1763083957.755551) can0 388#1E1F1C1A1E000000
(1763083957.756509) can0 191#9E9E9E9E9E9E
(1763083957.757401) can0 000A0003#FF69FF660F8C0000
(1763083957.757687) can0 000A0004#FFF10008FED78E02
(1763083957.757878) can0 192#9E9E9E9E9E9E
(1763083957.758526) can0 193#9E9E9E9E9E9E
(1763083957.759152) can0 482#4B01050008360001
(1763083957.759497) can0 682#3D43340400006200
(1763083957.759687) can0 194#9E9E9E9E9E9E
(1763083957.760509) can0 195#9E9E9E9E9E9F
(1763083957.761523) can0 291#0D0D0E0F0E0E
(1763083957.762541) can0 292#0D0E0F0F0F0E
(1763083957.763517) can0 293#0E0E0F0F0F0E
(1763083957.764525) can0 294#0E0E0F0F0F0E
(1763083957.764760) can0 186#C6064C1D090C0000
(1763083957.765035) can0 189#08031E0259010551
(1763083957.765521) can0 295#0D0E0E0E0E0D
(1763083957.767112) can0 701#05
(1763083957.767407) can0 000A0003#FF6BFF610F710000
(1763083957.767693) can0 000A0004#FFEB0004FED78E02
(1763083957.767929) can0 382#9602BAFFA0020000
(1763083957.774653) can0 189#08031F025B010551
(1763083957.777404) can0 000A0003#FF69FF5D0F580000
(1763083957.777689) can0 000A0004#FFE60006FED78E02
(1763083957.780771) can0 482#4A01050008360001
(1763083957.781071) can0 1A3#00074E09000000
(1763083957.784652) can0 189#08031F025C010551
(1763083957.787415) can0 000A0003#FF71FF5A0F420000
(1763083957.787698) can0 000A0004#FFE40004FED88E02
(1763083957.788716) can0 701#05
(1763083957.789171) can0 382#89022400A0020000
(1763083957.789419) can0 281#4A01000007000000
(1763083957.791794) can0 181#D10300207F000009
(1763083957.794646) can0 189#07031F025A010551
(1763083957.796360) can0 4C4#04AE04A5049F049D
(1763083957.797409) can0 000A0003#FF75FF580F340000
(1763083957.797696) can0 000A0004#FFE40005FED88E02
(1763083957.797926) can0 4C5#049D04A104A204A3
(1763083957.798386) can0 4C6#04A3049F04A404A3
(1763083957.799408) can0 4C7#04A2049F049F04AC
(1763083957.800428) can0 4C8#0479000000000000
(1763083957.802832) can0 482#4A01050008360001
(1763083957.803160) can0 682#3D43340400006100
(1763083957.804629) can0 186#CB064C1D090D0000
(1763083957.805028) can0 189#07031F0259010551
(1763083957.806802) can0 1A0#000000000100
(1763083957.807403) can0 000A0003#FF76FF590F3A0000
(1763083957.807690) can0 000A0004#FFE60008FED88E02
(1763083957.808418) can0 000A0000#0000000000000000
(1763083957.808718) can0 000A0001#0000000000000000
(1763083957.809016) can0 000A0002#0000000000000000
(1763083957.810886) can0 382#AC02F4FFA2020000
(1763083957.811002) can0 701#05
(1763083957.814651) can0 189#06031F025C010551
(1763083957.815981) can0 1A5#00064B0D000000
(1763083957.817410) can0 000A0003#FF74FF590F400000
(1763083957.817694) can0 000A0004#FFE6000BFEDA8E02
(1763083957.824640) can0 482#4E01050008360001
(1763083957.824873) can0 189#05031F0259010551
(1763083957.827410) can0 000A0003#FF6AFF620F420000
(1763083957.827694) can0 000A0004#FFE70010FEDE8E02
(1763083957.830113) can0 181#D10300207F000009
(1763083957.832484) can0 701#05
(1763083957.832747) can0 281#4C01000007000000
(1763083957.833165) can0 382#BB02A2FFA2020000
(1763083957.834643) can0 189#03031E025C010551
(1763083957.837409) can0 000A0003#FF64FF680F440000
(1763083957.837696) can0 000A0004#FFE70012FEDE8E02
(1763083957.842153) can0 1A4#C0015B0A000000
(1763083957.842386) can0 2A3#0E0F12121110100F
(1763083957.843887) can0 682#3D43340400005F00
(1763083957.844653) can0 186#B6064C1D090E0000
(1763083957.845022) can0 189#04031E025A010551
(1763083957.845879) can0 080#
(1763083957.846504) can0 482#4C01050008360001
(1763083957.847002) can0 286#0000900100000000
(1763083957.847410) can0 000A0003#FF58FF6F0F4A0000
(1763083957.847696) can0 000A0004#FFE70014FEDF8E02
(1763083957.850955) can0 19A#000086726C7B877C
(1763083957.851966) can0 29A#7D5D808181860000
(1763083957.852188) can0 1A2#C0034B0D000000
(1763083957.852414) can0 2A1#1011121313121211
(1763083957.854457) can0 701#05
(1763083957.854694) can0 189#04031F0259010551
(1763083957.854927) can0 382#AB023D009A020000
(1763083957.857411) can0 000A0003#FF4CFF760F500000
(1763083957.857695) can0 000A0004#FFE80016FEE28E02
(1763083957.861547) can0 4C4#04AE04A5049F049D
(1763083957.862552) can0 4C5#049D04A104A204A3
(1763083957.862829) can0 188#0C00ED3200000000
(1763083957.863534) can0 288#072A1F1E00140000
(1763083957.863774) can0 4C6#049E049F049F049F
(1763083957.864543) can0 388#1E1F1D1A1E000000
(1763083957.864775) can0 189#03031E0259010551
(1763083957.865010) can0 4C7#04A2049F049F04A6
(1763083957.865522) can0 191#9E9E9E9E9E9E
(1763083957.865764) can0 4C8#0479000000000000
(1763083957.866007) can0 482#4C01050008360001
(1763083957.866499) can0 192#9E9E9E9E9E9E
(1763083957.867412) can0 000A0003#FF4FFF750F610000
(1763083957.867695) can0 000A0004#FFE80017FEE38E02
(1763083957.867887) can0 193#9E9E9E9E9E9E
(1763083957.868513) can0 194#9E9E9E9E9E9E
(1763083957.869523) can0 195#9E9E9E9E9E9F
(1763083957.870533) can0 291#0D0D0E0F0E0E
(1763083957.871076) can0 181#D10300207F000009
(1763083957.871518) can0 292#0D0E0F0F0F0E
(1763083957.872527) can0 293#0E0E0F0F0F0E
(1763083957.873536) can0 294#0E0E0F0F0F0E
(1763083957.874532) can0 295#0D0E0E0E0E0D
(1763083957.874769) can0 189#03031D0258010551
(1763083957.876405) can0 382#9402D1FF9A020000
(1763083957.876596) can0 701#05
(1763083957.876846) can0 281#4E01000007000000
(1763083957.877415) can0 000A0003#FF55FF740F790000
(1763083957.877702) can0 000A0004#FFE80016FEE58E02
(1763083957.882046) can0 1A3#C0097A09000000
(1763083957.884623) can0 186#A8064C1D090F0000
(1763083957.884863) can0 682#3D43340400006000
(1763083957.885098) can0 189#03031F0259010551
(1763083957.887304) can0 482#4E01050008360001
(1763083957.887593) can0 000A0003#FF5AFF740F860000
(1763083957.887877) can0 000A0004#FFE70012FEE88E02
(1763083957.894645) can0 189#04031F025C010551
(1763083957.897421) can0 000A0003#FF5FFF740F930000
(1763083957.897706) can0 000A0004#FFE8000DFEE98E02
(1763083957.897985) can0 701#05
(1763083957.898471) can0 382#8202F1FF94020000
(1763083957.904637) can0 189#04031F025B010551
(1763083957.906803) can0 1A0#000000000100
(1763083957.907418) can0 000A0003#FF5AFF750F980000
(1763083957.907703) can0 000A0004#FFEA000BFEEA8E02
(1763083957.908434) can0 000A0000#0000000000000000
(1763083957.908733) can0 000A0001#0000000000000000
(1763083957.909032) can0 000A0002#0000000000000000
(1763083957.909275) can0 181#D10300207F000009
(1763083957.909586) can0 482#4D01050008360001
(1763083957.914639) can0 189#04031F025B010551
(1763083957.917424) can0 000A0003#FF52FF760FA00000
(1763083957.917710) can0 000A0004#FFEE000BFEEC8E02
(1763083957.918166) can0 1A5#C0014B0D000000
(1763083957.919816) can0 701#05
(1763083957.920192) can0 382#C802160094020000
(1763083957.920443) can0 281#4E01000007000000
(1763083957.924624) can0 186#A8064C1D09000000
(1763083957.925020) can0 189#03031E025A010551
(1763083957.925892) can0 682#3D43340400006000
(1763083957.926726) can0 4C4#04AE04AB04A404A2
(1763083957.927422) can0 000A0003#FF51FF780FBB0000
(1763083957.927708) can0 000A0004#FFF60009FEEE8E02
(1763083957.927938) can0 4C5#049D04A104A2049E
(1763083957.928752) can0 4C6#049E04A3049B049A
(1763083957.929766) can0 4C7#04A204A404A404A6
(1763083957.930797) can0 4C8#0479000000000000
(1763083957.931108) can0 482#4E01050008360001
(1763083957.934655) can0 189#03031E025A010551
(1763083957.937455) can0 000A0003#FF52FF7C0FD40000
(1763083957.937709) can0 000A0004#FFF90009FEF18E02
(1763083957.941864) can0 701#05
(1763083957.942241) can0 382#8702BCFF94020000
(1763083957.944665) can0 189#04031F025A010551
(1763083957.944880) can0 080#
(1763083957.946035) can0 286#0000900100000000
(1763083957.947426) can0 000A0003#FF4EFF7E0FE80000
(1763083957.947704) can0 000A0004#FFF90008FEF28E02
(1763083957.947945) can0 181#D10300207F000009
(1763083957.949228) can0 1A4#8007600A000000
(1763083957.949468) can0 2A3#0E0F10101011100F
(1763083957.952805) can0 482#4D01050008360001
(1763083957.953796) can0 188#0C00113300000000
(1763083957.954553) can0 288#072A1F2C00140000
(1763083957.954789) can0 189#04031E0258010551
(1763083957.955563) can0 388#1E1F1D1A1E000000
(1763083957.956520) can0 191#9E9E9E9E9E9E
(1763083957.957435) can0 000A0003#FF47FF8110030000
(1763083957.957724) can0 000A0004#FFF80008FEF58E02
(1763083957.957915) can0 192#9E9E9E9E9E9E
(1763083957.958506) can0 193#9E9E9E9E9E9E
(1763083957.959517) can0 194#9E9E9E9E9E9E
(1763083957.959746) can0 1A2#C003F80C000000
(1763083957.959971) can0 2A1#1213121313121211
(1763083957.960520) can0 195#9E9E9E9E9E9F
(1763083957.961513) can0 291#0E0E0E0F0E0E
(1763083957.962520) can0 292#0D0E0F0F0F0E
(1763083957.963530) can0 293#0E0E0F0F0F0E
(1763083957.963644) can0 701#05
(1763083957.963952) can0 281#5001000007000000
(1763083957.964195) can0 382#7602DEFF94020000
(1763083957.964538) can0 294#0E0F0F0F0F0E
(1763083957.964774) can0 186#90064C1D09010000
(1763083957.965050) can0 189#03031C0258010551
(1763083957.965534) can0 295#0D0E0E0E0D0D
(1763083957.967415) can0 000A0003#FF3DFF7B10140000
(1763083957.967698) can0 000A0004#FFF60005FEF78E02
(1763083957.969206) can0 682#3D43340400005E00
(1763083957.972266) can0 482#4C01050008360001
(1763083957.974643) can0 189#05031D0259010551
(1763083957.977419) can0 000A0003#FF36FF7310200000
(1763083957.977705) can0 000A0004#FFF70004FEF98E02
(1763083957.983034) can0 1A3#C0077A09000000
(1763083957.984624) can0 189#05031E025C010551
(1763083957.985321) can0 701#05
(1763083957.985701) can0 382#8A0226008B020000
(1763083957.986047) can0 181#D10300207F000009
(1763083957.987423) can0 000A0003#FF2EFF7010220000
(1763083957.987710) can0 000A0004#FFF90001FEFC8E02
(1763083957.991885) can0 4C4#04A804A5049F04A2
(1763083957.992898) can0 4C5#049D04AA04A2049E
(1763083957.993914) can0 4C6#049A04A3049F049A
(1763083957.994652) can0 189#06031D025A010551
(1763083957.994926) can0 4C7#049904A404A404AC
(1763083957.995956) can0 4C8#0479000000000000
(1763083957.996624) can0 482#4D01050008360001
(1763083957.997419) can0 000A0003#FF28FF6F101E0000
(1763083957.997710) can0 000A0004#FFF9FFFDFEFF8E02
(1763083958.004613) can0 186#BA064C1D09020000
(1763083958.005041) can0 189#05031E025A010551
(1763083958.006801) can0 1A0#000000000000
(1763083958.007418) can0 000A0003#FF25FF7310140000
(1763083958.007705) can0 000A0004#FFFDFFF9FF028E02
(1763083958.007946) can0 382#7002FFFF8B020000
(1763083958.008066) can0 701#05
(1763083958.008314) can0 281#4D01000007000000
(1763083958.008616) can0 000A0000#0000000000000000
(1763083958.008914) can0 000A0001#0000000000000000
(1763083958.009212) can0 000A0002#0000000000000000
(1763083958.010159) can0 682#3D43340400005F00
(1763083958.014639) can0 189#04031D025B010551
(1763083958.017426) can0 000A0003#FF24FF76100B0000
(1763083958.017716) can0 000A0004#FFFBFFF9FF048E02
(1763083958.018315) can0 482#4E01050008360001
(1763083958.020325) can0 1A5#00074B0D000000
(1763083958.024632) can0 189#06031F025A010551
(1763083958.026649) can0 181#D10300207F000009
(1763083958.027438) can0 000A0003#FF24FF780FFD0000
(1763083958.027727) can0 000A0004#FFF8FFF7FF068E02
(1763083958.029461) can0 382#8B0220009B020000
(1763083958.029579) can0 701#05
(1763083958.034641) can0 189#05031E025B010551
(1763083958.037427) can0 000A0003#FF24FF790FEF0000
(1763083958.037717) can0 000A0004#FFF4FFF3FF098E02
(1763083958.039987) can0 19A#00007C985A7E7E7B
(1763083958.040291) can0 482#5401050008360001
(1763083958.040967) can0 29A#7D56828180840000
(1763083958.044637) can0 186#B2064C1D09030000
(1763083958.045036) can0 189#05031D025A010551
(1763083958.045868) can0 080#
(1763083958.047021) can0 286#0000900100000000
(1763083958.047434) can0 000A0003#FF20FF790FDA0000
(1763083958.047716) can0 000A0004#FFF1FFEEFF0B8E02
(1763083958.050743) can0 701#05
(1763083958.051190) can0 682#3D43340400005F00
(1763083958.051432) can0 382#B4021E0098020000
(1763083958.051884) can0 281#5101000007000000
(1763083958.053795) can0 188#0C00ED3200000000
(1763083958.054547) can0 288#072A1F2C00140000
(1763083958.054783) can0 189#04031D025B010551
(1763083958.055555) can0 388#1E1F1D1A1E000000
(1763083958.056307) can0 1A4#C001600A000000
(1763083958.056495) can0 191#9E9E9E9E9E9E
(1763083958.056729) can0 2A3#0F0F10101011110F
(1763083958.057070) can0 4C4#04A804A5049F04A2
(1763083958.057429) can0 000A0003#FF1DFF790FCB0000
(1763083958.057715) can0 000A0004#FFF0FFECFF0D8E02
(1763083958.057907) can0 192#9E9E9E9E9E9E
(1763083958.058135) can0 4C5#049D04AA04A2049E
(1763083958.058516) can0 193#9E9E9E9E9E9E
(1763083958.059098) can0 4C6#049A04A3049F049A
(1763083958.059526) can0 194#9E9E9E9E9E9E
(1763083958.060108) can0 4C7#049904A404A404AC
(1763083958.060501) can0 195#9E9E9E9E9E9F
(1763083958.061140) can0 4C8#0479000000000000
(1763083958.061522) can0 291#0E0E0E0F0E0E
(1763083958.062215) can0 482#4E01050008360001
(1763083958.062531) can0 292#0D0E0F0F0F0E
(1763083958.063522) can0 293#0E0E0F0F0F0E
(1763083958.064531) can0 294#0E0F0F0F0F0E
(1763083958.064766) can0 189#04031B0259010551
(1763083958.065495) can0 295#0D0E0E0E0D0D
(1763083958.067302) can0 1A2#8003240D000000
(1763083958.067587) can0 000A0003#FF1FFF790FC70000
(1763083958.067879) can0 000A0004#FFEFFFEDFF0F8E02
(1763083958.068119) can0 181#D10300207F000009
(1763083958.068349) can0 2A1#1213131313121211
(1763083958.072911) can0 382#8202C4FF98020000
(1763083958.073032) can0 701#05
(1763083958.074642) can0 189#04031F025A010551
(1763083958.077431) can0 000A0003#FF24FF790FCC0000
(1763083958.077715) can0 000A0004#FFEDFFEAFF128E02
(1763083958.083825) can0 482#4B01050008360001
(1763083958.084044) can0 1A3#00067A09000000
(1763083958.084606) can0 186#AB064C1D09040000
(1763083958.085029) can0 189#04031E0259010551
(1763083958.087439) can0 000A0003#FF28FF780FD50000
(1763083958.087722) can0 000A0004#FFEEFFEAFF158E02
(1763083958.092040) can0 682#3D43330400005E00
(1763083958.094419) can0 701#05
(1763083958.094652) can0 189#06031D025B010551
(1763083958.094893) can0 281#4C01000007000000
(1763083958.095199) can0 382#A7023B0096020000
(1763083958.097431) can0 000A0003#FF2EFF750FED0000
(1763083958.097718) can0 000A0004#FFF0FFEAFF148E02
(1763083958.104620) can0 189#06031F025A010551
(1763083958.105771) can0 181#D10300207F000009
(1763083958.106038) can0 482#5001050008360001
(1763083958.106806) can0 1A0#000000000100
(1763083958.107438) can0 000A0003#FF36FF770FF60000
(1763083958.107724) can0 000A0004#FFF3FFECFF178E02
(1763083958.108453) can0 000A0000#0000000000000000
(1763083958.108754) can0 000A0001#0000000000000000
(1763083958.109050) can0 000A0002#0000000000000000
(1763083958.113854) can0 382#97020F0096020000
(1763083958.113972) can0 701#05
(1763083958.114632) can0 189#05031D025C010551
(1763083958.117436) can0 000A0003#FF42FF7B0FF70000
(1763083958.117722) can0 000A0004#FFF7FFEFFF188E02
(1763083958.122239) can0 4C4#04A804AB049F049D
(1763083958.122498) can0 1A5#8003320D000000
(1763083958.123246) can0 4C5#04A204A1049E049E
(1763083958.124264) can0 4C6#049A049F049B049A
(1763083958.124615) can0 186#B2064C1D09050000
(1763083958.124859) can0 482#5201050008360001
(1763083958.125089) can0 189#05031D0259010551
(1763083958.125323) can0 4C7#04A204A404A904AC
(1763083958.126306) can0 4C8#0479000000000000
(1763083958.127447) can0 000A0003#FF4BFF800FF90000
(1763083958.127728) can0 000A0004#FFF8FFF1FF188E02
(1763083958.132982) can0 682#3E43340400005F00
(1763083958.134620) can0 189#05031E025B010551
(1763083958.135457) can0 701#05
(1763083958.135797) can0 281#5101000007000000
(1763083958.136144) can0 382#9C02210098020000
(1763083958.137446) can0 000A0003#FF5BFF8C0FFD0000
(1763083958.137733) can0 000A0004#FFF7FFFAFF1A8E02
(1763083958.143888) can0 181#D10300207F000009
(1763083958.144633) can0 189#06031E025B010551
(1763083958.144867) can0 080#
(1763083958.146020) can0 286#0000900100000000
(1763083958.146951) can0 482#4F01050008360001
(1763083958.147439) can0 000A0003#FF65FF91100C0000
(1763083958.147725) can0 000A0004#FFF5FFFAFF1B8E02
(1763083958.153789) can0 188#0C00083300000000
(1763083958.154570) can0 288#072A1F2C00140000
(1763083958.154805) can0 189#07031F025C010551
(1763083958.155551) can0 388#1E1F1D1A1E000000
(1763083958.156510) can0 191#9E9E9E9E9E9E
(1763083958.157444) can0 000A0003#FF63FF92101E0000
(1763083958.157730) can0 000A0004#FFF2FFFEFF1D8E02
(1763083958.157922) can0 192#9E9E9E9E9E9E
(1763083958.158040) can0 701#05
(1763083958.158306) can0 382#8B02F3FF98020000
(1763083958.158524) can0 193#9E9E9E9E9E9E
(1763083958.159502) can0 194#9E9E9E9E9E9E
(1763083958.160509) can0 195#9E9E9E9E9E9F
(1763083958.161531) can0 291#0E0E0E0F0E0E
(1763083958.162536) can0 292#0D0E0F0F0F0E
(1763083958.163365) can0 1A4#0006600A000000
(1763083958.163572) can0 293#0E0E0F0F0F0E
(1763083958.163798) can0 2A3#0F1111111111110F
(1763083958.164524) can0 294#0E0E0F0F0F0E
(1763083958.164762) can0 186#A4064C1D09060000
(1763083958.165070) can0 189#05031C0258010551
(1763083958.165520) can0 295#0D0E0E0E0D0D
(1763083958.165945) can0 482#4C01050008360001
(1763083958.167447) can0 000A0003#FF5DFF9310290000
(1763083958.167730) can0 000A0004#FFF2FFFDFF1E8E02
(1763083958.173922) can0 682#3E43340400005F00
(1763083958.174619) can0 189#07031F025A010551
(1763083958.174961) can0 1A2#C001F80C000000
(1763083958.175187) can0 2A1#1013131313121211
(1763083958.176646) can0 701#05
(1763083958.176998) can0 281#4F01000007000000
(1763083958.177440) can0 000A0003#FF4DFF9710380000
(1763083958.177730) can0 000A0004#FFF3FFF5FF1F8E02
(1763083958.179275) can0 382#7B02EBFF93020000
(1763083958.182209) can0 181#D10300207F000009
(1763083958.184615) can0 189#06031E025B010551
(1763083958.185049) can0 1A3#80037A09000000
(1763083958.187448) can0 000A0003#FF41FF9910350000
(1763083958.187731) can0 000A0004#FFF3FFF4FF218E02
(1763083958.187974) can0 482#5201050008360001
(1763083958.188209) can0 4C4#04A804AB049F049D
(1763083958.188440) can0 4C5#04A204A1049E049E
(1763083958.189458) can0 4C6#049A049F049B049A
(1763083958.190474) can0 4C7#04A204A404A904AC
(1763083958.191501) can0 4C8#0479000000000000
(1763083958.194619) can0 189#06031E0259010551
(1763083958.197444) can0 000A0003#FF3CFF9A102D0000
(1763083958.197728) can0 000A0004#FFF1FFF0FF228E02
(1763083958.198140) can0 701#05
(1763083958.198591) can0 382#7902C3FF93020000
(1763083958.204597) can0 186#B2064C1D09070000
(1763083958.205027) can0 189#06031D0259010551
(1763083958.206808) can0 1A0#000000000000
(1763083958.207454) can0 000A0003#FF37FF9B102C0000
(1763083958.207735) can0 000A0004#FFF0FFE9FF248E02
(1763083958.208458) can0 000A0000#0000000000000000
(1763083958.208762) can0 000A0001#0000000000000000
(1763083958.209056) can0 000A0002#0000000000000000
(1763083958.209415) can0 482#5601050008360001
(1763083958.214625) can0 189#05031F0259010551
(1763083958.217446) can0 000A0003#FF3AFF9A10410000
(1763083958.217731) can0 000A0004#FFF0FFDFFF258E02
(1763083958.217971) can0 682#3D43340400005E00
(1763083958.220297) can0 382#8A02E8FF98020000
(1763083958.220417) can0 701#05
(1763083958.220665) can0 181#D10300207F000009
(1763083958.220975) can0 281#5201000007000000
(1763083958.224611) can0 189#06031D025A010551
(1763083958.224834) can0 1A5#C0014B0D000000
(1763083958.227453) can0 000A0003#FF3AFF9A104C0000
(1763083958.227738) can0 000A0004#FFF4FFDBFF268E02
(1763083958.231219) can0 482#5201050008360001
(1763083958.234623) can0 189#04031E025A010551
(1763083958.237454) can0 000A0003#FF38FF9B10500000
(1763083958.237738) can0 000A0004#FFF6FFD9FF278E02
(1763083958.241904) can0 701#05
(1763083958.242385) can0 382#9C023B0098020000
(1763083958.244620) can0 186#AD064C1D09080000
(1763083958.245018) can0 189#05031D0259010551
(1763083958.245986) can0 19A#00007C965A807D82
(1763083958.246088) can0 080#
(1763083958.246988) can0 29A#7D62878080830000
(1763083958.247231) can0 286#0000900100000000
(1763083958.247521) can0 000A0003#FF35FF9E10480000
(1763083958.247806) can0 000A0004#FFF8FFD5FF278E02
(1763083958.252601) can0 4C4#04A904A604A004A3
(1763083958.253611) can0 4C5#04A304A704A3049F
(1763083958.253855) can0 188#0C00113300000000
(1763083958.254620) can0 189#06031B0259010551
(1763083958.254848) can0 288#072A1F2B00140000
(1763083958.255081) can0 4C6#04A4049B049C04A0
(1763083958.255560) can0 388#1E1F1D1A1E000000
(1763083958.255796) can0 4C7#04A804A504A004A7
(1763083958.256036) can0 482#5401050008360001
(1763083958.256516) can0 191#9E9E9E9E9E9E
(1763083958.256760) can0 4C8#047A000000000000
(1763083958.257452) can0 000A0003#FF2FFFA610270000
(1763083958.257736) can0 000A0004#FFF7FFD4FF278E02
(1763083958.257928) can0 192#9E9E9E9E9E9E
(1763083958.258534) can0 193#9E9E9E9E9E9E
(1763083958.258778) can0 181#D10300207F000009
(1763083958.259070) can0 682#3D43340400005F00
(1763083958.259493) can0 194#9E9E9E9E9E9E
(1763083958.260499) can0 195#9E9E9E9E9E9F
(1763083958.261521) can0 291#0E0E0E0F0E0E
(1763083958.262547) can0 292#0D0E0F0F0F0E
(1763083958.263523) can0 293#0E0E0F0F0F0E
(1763083958.263730) can0 701#05
(1763083958.264115) can0 382#A102EDFF96020000
(1763083958.264440) can0 281#5201000007000000
(1763083958.264672) can0 189#05031B0259010551
(1763083958.264884) can0 294#0E0E0F0F0F0E
(1763083958.265528) can0 295#0D0E0E0E0D0D
(1763083958.267458) can0 000A0003#FF2FFFAA10290000
(1763083958.267743) can0 000A0004#FFF3FFD3FF288E02
(1763083958.270431) can0 1A4#8007600A000000
(1763083958.270658) can0 2A3#0F1111111112110F
(1763083958.274621) can0 189#07031F0259010551
(1763083958.277459) can0 000A0003#FF36FFAA10360000
(1763083958.277745) can0 000A0004#FFF1FFD6FF288E02
(1763083958.277987) can0 482#4F01050008360001
(1763083958.282635) can0 1A2#8003240D000000
(1763083958.282845) can0 2A1#1011111110121211
(1763083958.283090) can0 701#05
(1763083958.284592) can0 186#B2064C1D09090000
(1763083958.285050) can0 189#05031E0259010551
(1763083958.285935) can0 382#6602E7FF96020000
(1763083958.286161) can0 1A3#C0017A09000000
(1763083958.287456) can0 000A0003#FF40FFAC10420000
(1763083958.287741) can0 000A0004#FFEFFFD7FF298E02
(1763083958.294619) can0 189#080320025A010551
(1763083958.296723) can0 482#4F01050008360001
(1763083958.297087) can0 181#D10300207F000009
(1763083958.297457) can0 000A0003#FF4AFFB010420000
(1763083958.297743) can0 000A0004#FFEFFFDAFF2A8E02
(1763083958.302424) can0 682#3D43340400006000
(1763083958.304602) can0 189#080321025B010551
(1763083958.306809) can0 1A0#000000000000
(1763083958.307453) can0 000A0003#FF50FFB310460000
(1763083958.307741) can0 000A0004#FFEEFFDDFF2B8E02
(1763083958.307856) can0 701#05
(1763083958.308103) can0 281#5201000007000000
(1763083958.308345) can0 382#A702500098020000
(1763083958.308645) can0 000A0000#0000000000000000
(1763083958.308945) can0 000A0001#0000000000000000
(1763083958.309243) can0 000A0002#0000000000000000
(1763083958.314620) can0 189#0A0320025B010551
(1763083958.317459) can0 000A0003#FF5DFFB310570000
(1763083958.317743) can0 000A0004#FFECFFDAFF2C8E02
(1763083958.317980) can0 4C4#04AF04A004A004A3
(1763083958.318704) can0 482#5501050008360001
(1763083958.318934) can0 4C5#04A304A2049F04A3
(1763083958.319796) can0 4C6#04A404A404A504A4
(1763083958.320812) can0 4C7#04A304A504A504AD
(1763083958.321840) can0 4C8#047A000000000000
(1763083958.324587) can0 186#E0064C1D090A0000
(1763083958.325060) can0 189#08031F025B010551
(1763083958.326847) can0 1A5#8003720D000000
(1763083958.327462) can0 000A0003#FF65FFB110640000
(1763083958.327748) can0 000A0004#FFEDFFD8FF2E8E02
(1763083958.329146) can0 701#05
(1763083958.329609) can0 382#B002FFFF98020000
(1763083958.334603) can0 189#080320025C010551
(1763083958.337466) can0 000A0003#FF65FFAD106A0000
(1763083958.337750) can0 000A0004#FFF0FFD7FF2E8E02
(1763083958.337993) can0 181#D10300207F000009
(1763083958.340754) can0 482#4C01050008360001
(1763083958.343363) can0 682#3D43330400005F00
(1763083958.344623) can0 189#080320025B010551
(1763083958.344886) can0 080#
(1763083958.346038) can0 286#0000900100000000
(1763083958.347463) can0 000A0003#FF64FFAA106D0000
(1763083958.347747) can0 000A0004#FFF2FFD2FF2F8E02
(1763083958.348458) can0 701#05
(1763083958.348941) can0 382#DA021300AA020000
(1763083958.351335) can0 281#4E01000007000000
(1763083958.353800) can0 188#0C00503300000000
(1763083958.354557) can0 288#072A1F2C00140000
(1763083958.354792) can0 189#07031F025B010551
(1763083958.355568) can0 388#1E1F1D1A1E000000
(1763083958.356524) can0 191#9E9E9E9E9E9E
(1763083958.357460) can0 000A0003#FF67FFAD105B0000
(1763083958.357744) can0 000A0004#FFF2FFC9FF308E02
(1763083958.357936) can0 192#9E9E9E9E9E9E
(1763083958.358509) can0 193#9E9E9E9E9E9E
(1763083958.359519) can0 194#9E9E9E9E9E9E
(1763083958.360524) can0 195#9E9E9E9E9E9F
(1763083958.361538) can0 291#0D0D0E0F0E0E
(1763083958.362235) can0 482#5101050008360001
(1763083958.362523) can0 292#0D0E0F0F0F0E
(1763083958.363533) can0 293#0E0E0F0F0F0E
(1763083958.364541) can0 294#0E0F0F0F0F0E
(1763083958.364773) can0 186#B7064C1D090B0000
(1763083958.365057) can0 189#06031E0259010551
(1763083958.365537) can0 295#0D0E0E0E0D0D
(1763083958.367468) can0 000A0003#FF6CFFB1104B0000
(1763083958.367751) can0 000A0004#FFF2FFC5FF308E02
(1763083958.372820) can0 701#05
(1763083958.373399) can0 382#9A0254009A020000
(1763083958.374595) can0 189#07031F025B010551
(1763083958.375992) can0 181#D10300207F000009
(1763083958.377473) can0 000A0003#FF73FFB6103E0000
(1763083958.377765) can0 000A0004#FFEFFFC1FF2E8E02
(1763083958.377991) can0 1A4#0007600A000000
(1763083958.378223) can0 2A3#0F1010101112110F
(1763083958.382955) can0 4C4#04AF04A004A004A3
(1763083958.383962) can0 4C5#04A304A2049F04A3
(1763083958.384204) can0 482#5801050008360001
(1763083958.384598) can0 189#07031F025C010551
(1763083958.384976) can0 4C6#04A404A404A504A4
(1763083958.385992) can0 4C7#04A304A504A504AD
(1763083958.386907) can0 682#3D43340400006000
(1763083958.387129) can0 1A3#000C4E09000000
(1763083958.387371) can0 4C8#047A000000000000
(1763083958.387657) can0 000A0003#FF77FFB910360000
(1763083958.387941) can0 000A0004#FFEFFFBDFF2E8E02
(1763083958.390243) can0 1A2#0007720D000000
(1763083958.390471) can0 2A1#1011111110111112
(1763083958.392020) can0 701#05
(1763083958.394594) can0 189#07031F025A010551
(1763083958.395018) can0 382#BF0226009A020000
(1763083958.395336) can0 281#5601000007000000
(1763083958.397468) can0 000A0003#FF83FFB5103F0000
(1763083958.397754) can0 000A0004#FFF0FFBFFF2F8E02
(1763083958.403094) can0 482#5301050008360001
(1763083958.404578) can0 186#C6064C1D090C0000
(1763083958.405046) can0 189#07031F025D010551
(1763083958.406808) can0 1A0#000000000100
(1763083958.407464) can0 000A0003#FF8AFFB110420000
(1763083958.407747) can0 000A0004#FFF0FFBFFF318E02
(1763083958.408482) can0 000A0000#0000000000000000
(1763083958.408783) can0 000A0001#0000000000000000
(1763083958.409082) can0 000A0002#0000000000000000
(1763083958.414106) can0 181#D10300207F000009
(1763083958.414297) can0 701#05
(1763083958.414601) can0 189#07031F025C010551
(1763083958.416819) can0 382#9602A5FFA0020000
(1763083958.417470) can0 000A0003#FF8AFFAC103E0000
(1763083958.417757) can0 000A0004#FFF1FFC1FF338E02
(1763083958.424595) can0 189#08031F025C010551
(1763083958.425148) can0 482#4C01050008360001
(1763083958.427465) can0 000A0003#FF89FFA510390000
(1763083958.427752) can0 000A0004#FFF3FFC6FF348E02
(1763083958.427994) can0 682#3D43340400006000
(1763083958.429008) can0 1A5#4004720D000000
(1763083958.434591) can0 189#06031E025D010551
(1763083958.435605) can0 701#05
(1763083958.436058) can0 382#9B024B00A0020000
(1763083958.437471) can0 000A0003#FF92FF9F10420000
(1763083958.437753) can0 000A0004#FFF5FFC8FF368E02
(1763083958.438653) can0 281#4D01000007000000
(1763083958.444600) can0 186#CB064C1D090D0000
(1763083958.445040) can0 189#08031F025A010551
(1763083958.445898) can0 080#
(1763083958.447020) can0 286#0000900100000000
(1763083958.447261) can0 482#4E01050008360001
(1763083958.447549) can0 000A0003#FF9BFF9A104E0000
(1763083958.447835) can0 000A0004#FFF6FFCBFF378E02
(1763083958.448117) can0 4C4#04AE04A5049A049D
(1763083958.449129) can0 4C5#049804A1049D049E
(1763083958.450147) can0 4C6#04A3049A049B049A
(1763083958.451161) can0 4C7#049E049A04A404AC
(1763083958.451975) can0 19A#00007C74647F817B
(1763083958.452219) can0 4C8#0479000000000000
(1763083958.452463) can0 181#D10300207F000009
(1763083958.452982) can0 29A#7E5F8087818B0000
(1763083958.453830) can0 188#0C00923200000000
(1763083958.454562) can0 288#062A1F2C00140000
(1763083958.454799) can0 189#08031F025C010551
(1763083958.454916) can0 701#05
(1763083958.455376) can0 382#C6020300A2020000
(1763083958.455617) can0 388#1E1F1D1A1E000000
(1763083958.456530) can0 191#9E9E9E9E9E9E
(1763083958.457469) can0 000A0003#FF9AFF98105A0000
(1763083958.457754) can0 000A0004#FFF8FFCCFF378E02
(1763083958.457947) can0 192#9E9E9E9E9E9E
(1763083958.458516) can0 193#9E9E9E9E9E9E
(1763083958.459521) can0 194#9E9E9E9E9E9E
(1763083958.460528) can0 195#9E9E9E9E9E9F
(1763083958.461515) can0 291#0D0E0E0F0E0E
(1763083958.462528) can0 292#0D0E0F0F0F0E
(1763083958.463535) can0 293#0E0E0F0F0F0E
(1763083958.464544) can0 294#0E0F0F0F0F0E
(1763083958.464777) can0 189#08031E025C010551
(1763083958.465540) can0 295#0D0E0E0E0D0D
(1763083958.467476) can0 000A0003#FF9AFF94106A0000
(1763083958.467757) can0 000A0004#FFFAFFC9FF348E02
(1763083958.468594) can0 482#5201050008360001
(1763083958.468930) can0 682#3D43340400005F00
(1763083958.474587) can0 189#09031F025C010551
(1763083958.476861) can0 701#05
(1763083958.477226) can0 382#8B02BBFFA2020000
(1763083958.477517) can0 000A0003#FF8FFF90106F0000
(1763083958.477803) can0 000A0004#FFFBFFCBFF318E02
(1763083958.482353) can0 281#5101000007000000
(1763083958.484574) can0 186#CB064C1D090E0000
(1763083958.484796) can0 1A4#0007510A000000
(1763083958.485032) can0 2A3#0F1010101010100F
(1763083958.485266) can0 189#08031E025B010551
(1763083958.487475) can0 000A0003#FF84FF8E106F0000
(1763083958.487760) can0 000A0004#FFFCFFC8FF2D8E02
(1763083958.488112) can0 1A3#80074E09000000
(1763083958.490545) can0 181#D10300207F000009
(1763083958.490881) can0 482#5101050008360001
(1763083958.494589) can0 189#08031E025A010551
(1763083958.497482) can0 000A0003#FF80FF9010680000
(1763083958.497767) can0 000A0004#FFFCFFC8FF2A8E02
(1763083958.497994) can0 1A2#000E940D000000
(1763083958.498221) can0 2A1#1212121210111112
(1763083958.501105) can0 701#05
(1763083958.501551) can0 382#9802E2FFA2020000
(1763083958.504584) can0 189#08031E025B010551
(1763083958.506813) can0 1A0#000000000100
(1763083958.507472) can0 000A0003#FF7AFF93105E0000
(1763083958.507758) can0 000A0004#FFFBFFC3FF268E02
(1763083958.508490) can0 000A0000#0000000000000000
(1763083958.508791) can0 000A0001#0000000000000000
(1763083958.509087) can0 000A0002#0000000000000000
(1763083958.512466) can0 482#5201050008360001
(1763083958.512722) can0 682#3D43340400006100
(1763083958.513279) can0 4C4#04AE04A5049A049D
(1763083958.514290) can0 4C5#049804A1049D049E
(1763083958.514590) can0 189#07031E025A010551
(1763083958.515307) can0 4C6#04A3049A049B049A
(1763083958.516322) can0 4C7#049E049A04A404AC
(1763083958.517351) can0 4C8#0479000000000000
(1763083958.517638) can0 000A0003#FF74FF8C105A0000
(1763083958.517926) can0 000A0004#FFFEFFC2FF218E02
(1763083958.523276) can0 382#7402A5FFA2020000
(1763083958.523393) can0 701#05
(1763083958.524569) can0 186#CB064C1D090F0000
(1763083958.525039) can0 189#07031D025B010551
(1763083958.526264) can0 281#5301000007000000
(1763083958.527480) can0 000A0003#FF6FFF8710580000
(1763083958.527767) can0 000A0004#0000FFC0FF1E8E02
(1763083958.531171) can0 1A5#0007810D000000
(1763083958.531568) can0 181#D10300207F000009
(1763083958.534410) can0 482#5201050008360001
(1763083958.534644) can0 189#07031E025C010551
(1763083958.537491) can0 000A0003#FF6AFF7D105F0000
(1763083958.537773) can0 000A0004#0002FFC0FF198E02
(1763083958.542057) can0 701#05
(1763083958.542502) can0 382#AF022000A2020000
(1763083958.544602) can0 189#08031F025B010551
(1763083958.544901) can0 080#
(1763083958.546020) can0 286#0000900100000000
(1763083958.547482) can0 000A0003#FF65FF7410660000
(1763083958.547771) can0 000A0004#0005FFBEFF158E02
(1763083958.553438) can0 682#3D43340400006000
(1763083958.553796) can0 188#0C001A3300000000
(1763083958.554568) can0 288#062A1F2D00140000
(1763083958.554805) can0 189#08031F025B010551
(1763083958.555580) can0 388#1E1F1D1A1E000000
(1763083958.556507) can0 191#9E9E9E9E9E9E
(1763083958.557484) can0 000A0003#FF65FF6A10700000
(1763083958.557770) can0 000A0004#0006FFBCFF128E02
(1763083958.557964) can0 192#9E9E9E9E9E9E
(1763083958.558523) can0 193#9E9E9E9E9E9E
(1763083958.558765) can0 482#5101050008360001
(1763083958.559529) can0 194#9E9E9E9E9E9E
(1763083958.560506) can0 195#9E9E9E9E9E9F
(1763083958.561520) can0 291#0D0E0E0F0E0E
(1763083958.562535) can0 292#0D0E0F0F0F0E
(1763083958.563543) can0 293#0E0E0F0F0F0E
(1763083958.564109) can0 701#05
(1763083958.564558) can0 382#9802EAFFA2020000
(1763083958.564795) can0 186#C6064C1D09000000
(1763083958.565007) can0 294#0E0F0F0F0F0E
(1763083958.565240) can0 189#07031D0259010551
(1763083958.565517) can0 295#0D0E0E0E0D0D
(1763083958.567477) can0 000A0003#FF64FF6310760000
(1763083958.567761) can0 000A0004#0007FFBCFF108E02
(1763083958.569679) can0 181#D10300207F000009
(1763083958.569926) can0 281#5401000007000000
(1763083958.574581) can0 189#08031F025A010551
(1763083958.577478) can0 000A0003#FF65FF6110750000
(1763083958.577761) can0 000A0004#0008FFB8FF0D8E02
(1763083958.578453) can0 4C4#04A104A6049A049D
(1763083958.579467) can0 4C5#0498049D049D049E
(1763083958.580474) can0 4C6#049E049F04960496
(1763083958.580734) can0 482#5601050008360001
(1763083958.581488) can0 4C7#04990495049F04A1
(1763083958.582516) can0 4C8#0479000000000000
(1763083958.584580) can0 189#08031D025B010551
(1763083958.585819) can0 701#05
(1763083958.586380) can0 382#80023200A0020000
(1763083958.587482) can0 000A0003#FF66FF6310730000
(1763083958.587766) can0 000A0004#0008FFB6FF098E02
(1763083958.589126) can0 1A3#C0033109000000
(1763083958.591635) can0 1A4#400C510A000000
(1763083958.591868) can0 2A3#0E1012101010100F
(1763083958.594575) can0 189#07031E025C010551
(1763083958.594818) can0 682#3D43340400006000
(1763083958.597487) can0 000A0003#FF69FF6310740000
(1763083958.597773) can0 000A0004#0008FFB6FF058E02
(1763083958.602768) can0 482#5501050008360001
(1763083958.604564) can0 186#C6064C1D09010000
(1763083958.605061) can0 189#07031E025B010551
(1763083958.605517) can0 1A2#000CBB0D000000
(1763083958.605743) can0 2A1#1212121212121212
(1763083958.606815) can0 1A0#000000000100
(1763083958.607482) can0 000A0003#FF6BFF6410750000
(1763083958.607773) can0 000A0004#0007FFB4FF028E02
(1763083958.607890) can0 701#05
(1763083958.608135) can0 382#CF023D00A0020000
(1763083958.608498) can0 000A0000#0000000000000000
(1763083958.608797) can0 000A0001#0000000000000000
(1763083958.609096) can0 000A0002#0000000000000000
(1763083958.609339) can0 181#D10300207F000009
(1763083958.613358) can0 281#5301000007000000
(1763083958.614570) can0 189#06031D025C010551
(1763083958.617493) can0 000A0003#FF6FFF5F106F0000
(1763083958.617782) can0 000A0004#0007FFB4FEFF8E02
(1763083958.624253) can0 482#4F01050008360001
(1763083958.624589) can0 189#07031F025C010551
(1763083958.627491) can0 000A0003#FF73FF5810690000
(1763083958.627781) can0 000A0004#0008FFB3FEFB8E02
(1763083958.629726) can0 382#8102B3FFA0020000
(1763083958.629846) can0 701#05
(1763083958.633350) can0 1A5#C009810D000000
(1763083958.634574) can0 189#05031D025C010551
(1763083958.635407) can0 682#3D43340400006100
(1763083958.637485) can0 000A0003#FF74FF5210600000
(1763083958.637774) can0 000A0004#0009FFB3FEFA8E02
(1763083958.640973) can0 19A#000080618B7C7C7C
(1763083958.641976) can0 29A#876E817D86810000
(1763083958.643620) can0 4C4#04AE04A5049F04A7
(1763083958.643862) can0 482#5001050008360001
(1763083958.644585) can0 186#A5064C1D09020000
(1763083958.644816) can0 4C5#049D04A6049D049E
(1763083958.645048) can0 189#04031C025B010551
(1763083958.645646) can0 4C6#04A3049A049F049A
(1763083958.645885) can0 080#
(1763083958.646661) can0 4C7#049E049F04A404AC
(1763083958.647036) can0 286#0000900100000000
(1763083958.647491) can0 000A0003#FF74FF4910530000
(1763083958.647778) can0 000A0004#0009FFB4FEF78E02
(1763083958.648020) can0 4C8#0479000000000000
(1763083958.649158) can0 181#D10300207F000009
(1763083958.651777) can0 382#80022B0093020000
(1763083958.651896) can0 701#05
(1763083958.654575) can0 189#03031E025B010551
(1763083958.657130) can0 281#5401000007000000
(1763083958.657494) can0 000A0003#FF6EFF44103E0000
(1763083958.657784) can0 000A0004#0006FFB2FEF48E02
(1763083958.664575) can0 189#04031F025C010551
(1763083958.667492) can0 000A0003#FF64FF40102C0000
(1763083958.667780) can0 000A0004#0005FFB4FEF28E02
(1763083958.668048) can0 482#5701050008360001
(1763083958.673063) can0 701#05
(1763083958.673512) can0 382#CC020B0093020000
(1763083958.674568) can0 189#04031D0258010551
(1763083958.676265) can0 682#3D43340400006000
(1763083958.677490) can0 000A0003#FF62FF4110220000
(1763083958.677778) can0 000A0004#0005FFB2FEF18E02
(1763083958.684557) can0 186#AE064C1D09030000
(1763083958.685047) can0 189#04031D025C010551
(1763083958.687179) can0 181#D10300207F000009
(1763083958.687488) can0 000A0003#FF5FFF4310150000
(1763083958.687776) can0 000A0004#0005FFB1FEEF8E02
(1763083958.689992) can0 482#5101050008360001
(1763083958.690213) can0 1A3#C0013109000000
(1763083958.694567) can0 189#04031D025B010551
(1763083958.695238) can0 382#7802BAFF97020000
(1763083958.695432) can0 701#05
(1763083958.697490) can0 000A0003#FF62FF4210110000
(1763083958.697774) can0 000A0004#0006FFB1FEED8E02
(1763083958.698714) can0 1A4#80033E0A000000
(1763083958.698941) can0 2A3#0E1012121211100F
(1763083958.700700) can0 281#5001000007000000
(1763083958.704568) can0 189#04031C025C010551
(1763083958.706813) can0 1A0#000000000100
(1763083958.707494) can0 000A0003#FF68FF4110120000
(1763083958.707776) can0 000A0004#0008FFB0FEEB8E02
(1763083958.708023) can0 188#0C00C43200000000
(1763083958.708505) can0 000A0000#0000000000000000
(1763083958.708807) can0 000A0001#0000000000000000
(1763083958.709102) can0 000A0002#0000000000000000
(1763083958.709344) can0 288#062A1F1E00140000
(1763083958.709585) can0 388#1E1F1D1A1E000000
(1763083958.709820) can0 4C4#04AE04A5049F04A7
(1763083958.710050) can0 4C5#049D04A6049D049E
(1763083958.710511) can0 191#9E9E9E9E9E9E
(1763083958.710846) can0 4C6#04A3049A049F049A
(1763083958.711490) can0 192#9E9E9E9E9E9E
(1763083958.711847) can0 482#5101050008360001
(1763083958.712079) can0 4C7#049E049F04A404AC
(1763083958.712513) can0 193#9E9E9E9E9E9E
(1763083958.712887) can0 4C8#0479000000000000
(1763083958.713155) can0 1A2#000EFB0D000000
(1763083958.713381) can0 2A1#1312121212121212
(1763083958.713573) can0 194#9E9E9E9E9E9E
(1763083958.714565) can0 189#0403190259010551
(1763083958.714761) can0 195#9E9E9E9E9E9F
(1763083958.715547) can0 291#0D0E0E0F0E0E
(1763083958.716529) can0 292#0D0E0F0F0F0E
(1763083958.716837) can0 701#05
(1763083958.717314) can0 682#3D43340400005F00
(1763083958.717603) can0 000A0003#FF69FF3E101C0000
(1763083958.717890) can0 000A0004#0009FFB0FEE98E02
(1763083958.718099) can0 293#0E0E0F0F0F0E
(1763083958.718338) can0 382#9E023E0097020000
(1763083958.718550) can0 294#0E0F0F0F0F0E
(1763083958.719543) can0 295#0D0E0E0E0D0D
(1763083958.724556) can0 186#A5064C1D09040000
(1763083958.725056) can0 189#05031B025B010551
(1763083958.725394) can0 181#D10300207F000009
(1763083958.727504) can0 000A0003#FF6BFF3B102B0000
(1763083958.727790) can0 000A0004#0009FFB1FEE68E02
(1763083958.734564) can0 189#05031C025C010551
(1763083958.735510) can0 1A5#C001940D000000
(1763083958.736312) can0 482#5501050008360001
(1763083958.737495) can0 000A0003#FF6CFF3810480000
(1763083958.737779) can0 000A0004#0008FFB1FEE48E02
(1763083958.738564) can0 701#05
(1763083958.739020) can0 382#A802220093020000
(1763083958.744372) can0 281#5601000007000000
(1763083958.744601) can0 189#04031C025B010551
(1763083958.744885) can0 080#
(1763083958.746037) can0 286#0000900100000000
(1763083958.747519) can0 000A0003#FF6BFF36105F0000
(1763083958.747785) can0 000A0004#000CFFB3FEE18E02
(1763083958.753804) can0 188#0C00793300000000
(1763083958.754553) can0 288#062A1F2C00140000
(1763083958.754788) can0 189#05031B025A010551
(1763083958.755563) can0 388#1E1F1D1A1E000000
(1763083958.756522) can0 191#9E9E9E9E9E9E
(1763083958.757497) can0 000A0003#FF6DFF30106E0000
(1763083958.757787) can0 000A0004#000DFFB7FEDC8E02
(1763083958.757979) can0 192#9E9E9E9E9E9E
(1763083958.758221) can0 482#5301050008360001
(1763083958.758465) can0 682#3D43340400006000
(1763083958.758660) can0 193#9E9E9E9E9E9E
(1763083958.759514) can0 194#9E9E9E9E9E9E
(1763083958.760521) can0 195#9E9E9E9E9E9F
(1763083958.760758) can0 382#6802DCFF93020000
(1763083958.760936) can0 701#05
(1763083958.761542) can0 291#0E0E0E0F0E0E
(1763083958.762551) can0 292#0D0E0F0F0F0E
(1763083958.763528) can0 293#0E0E0F0F0F0E
(1763083958.764546) can0 186#89064C1D09050000
(1763083958.764761) can0 294#0E0F0F0F0F0F
(1763083958.765068) can0 189#04031B025A010551
(1763083958.765533) can0 295#0D0E0E0E0E0D
(1763083958.766429) can0 181#D10300207F000009
(1763083958.767497) can0 000A0003#FF6FFF2A10720000
(1763083958.767783) can0 000A0004#000EFFB6FED68E02
(1763083958.773990) can0 4C4#04A204A604A004A8
(1763083958.774560) can0 189#04031B025C010551
(1763083958.775001) can0 4C5#049E04A204A3049F
(1763083958.776017) can0 4C6#04A404A4049C04A0
(1763083958.777031) can0 4C7#049F049B04A504A7
(1763083958.777499) can0 000A0003#FF70FF1B10840000
(1763083958.777781) can0 000A0004#0010FFBAFED08E02
(1763083958.778057) can0 4C8#047A000000000000
(1763083958.779834) can0 482#4E01050008360001
(1763083958.780051) can0 701#05
(1763083958.780518) can0 382#CF02180088020000
(1763083958.784562) can0 189#04031B025C010551
(1763083958.787500) can0 000A0003#FF70FF0F10930000
(1763083958.787783) can0 000A0004#000FFFBAFEC98E02
(1763083958.790755) can0 281#4F01000007000000
(1763083958.791157) can0 1A3#000C2C09000000
(1763083958.794559) can0 189#06031C025C010551
(1763083958.797507) can0 000A0003#FF70FEFC109D0000
(1763083958.797800) can0 000A0004#000DFFBDFEBD8E02
(1763083958.799089) can0 682#3D43340400006000
(1763083958.799630) can0 482#5001050008360001
(1763083958.804083) can0 701#05
(1763083958.804530) can0 382#9E02360088020000
(1763083958.804765) can0 186#A8064C1D09060000
(1763083958.805007) can0 181#D10300207F000009
(1763083958.805239) can0 189#06031B025A010551
(1763083958.805783) can0 1A4#C0003E0A000000
(1763083958.806011) can0 2A3#0F11121212111010
(1763083958.806816) can0 1A0#000000000100
(1763083958.807499) can0 000A0003#FF6CFEE910A10000
(1763083958.807788) can0 000A0004#000CFFBEFEAF8E02
(1763083958.808516) can0 000A0000#0000000000000000
(1763083958.808815) can0 000A0001#0000000000000000
(1763083958.809114) can0 000A0002#0000000000000000
(1763083958.814559) can0 189#07031B025C010551
(1763083958.817504) can0 000A0003#FF6EFEDA109B0000
(1763083958.817791) can0 000A0004#000EFFBFFE9F8E02
(1763083958.820790) can0 1A2#00070E0E000000
(1763083958.821012) can0 2A1#1312121212111112
(1763083958.823620) can0 482#5501050008360001
(1763083958.824555) can0 189#07031B025A010551
(1763083958.826146) can0 701#05
(1763083958.826581) can0 382#A502F8FF94020000
(1763083958.827503) can0 000A0003#FF71FED110930000
(1763083958.827795) can0 000A0004#000FFFBFFE948E02
(1763083958.834451) can0 281#5401000007000000
(1763083958.834682) can0 189#07031C025B010551
(1763083958.837507) can0 000A0003#FF75FEC410890000
(1763083958.837801) can0 000A0004#000FFFC0FE838E02
(1763083958.838025) can0 1A5#C001940D000000
(1763083958.839151) can0 4C4#04A204A604A004A8
(1763083958.840161) can0 4C5#049E04A204A3049F
(1763083958.841177) can0 4C6#04A404A4049C04A0
(1763083958.842192) can0 4C7#049F049B04A504A7
(1763083958.842737) can0 181#D10300207F000009
(1763083958.843097) can0 682#3D43340400005F00
(1763083958.843340) can0 4C8#047A000000000000
(1763083958.844577) can0 186#A0064C1D09070000
(1763083958.845040) can0 189#06031A025B010551
(1763083958.845791) can0 482#5301050008360001
(1763083958.845909) can0 080#
(1763083958.846965) can0 19A#00008267687B867C
(1763083958.847207) can0 286#0000900100000000
(1763083958.847520) can0 000A0003#FF7AFEB7107F0000
(1763083958.847793) can0 000A0004#0011FFBDFE718E02
(1763083958.848027) can0 29A#7D58808480880000
(1763083958.848143) can0 701#05
(1763083958.848541) can0 382#9D02ACFF91020000
(1763083958.853787) can0 188#0C00E43200000000
(1763083958.854555) can0 189#07031B025A010551
(1763083958.854793) can0 288#062A1F2300140000
(1763083958.855574) can0 388#1E1F1D1A1E000000
(1763083958.856512) can0 191#9E9E9E9E9E9E
(1763083958.857511) can0 000A0003#FF7CFEB010830000
(1763083958.857793) can0 000A0004#0010FFBBFE668E02
(1763083958.857985) can0 192#9E9E9E9E9E9E
(1763083958.858497) can0 193#9E9E9E9E9E9E
(1763083958.859522) can0 194#9E9E9E9E9E9E
(1763083958.860530) can0 195#9E9E9E9E9E9F
(1763083958.861551) can0 291#0E0E0E0F0E0E
(1763083958.862528) can0 292#0D0E0F0F0F0E
(1763083958.863537) can0 293#0E0E0F0F0F0E
(1763083958.864531) can0 294#0E0F0F0F0F0F
(1763083958.864764) can0 189#06031B0259010551
(1763083958.865524) can0 295#0D0E0E0E0E0D
(1763083958.867313) can0 482#4E01050008360001
(1763083958.867596) can0 000A0003#FF80FEA6109A0000
(1763083958.867883) can0 000A0004#000EFFB8FE548E02
(1763083958.868000) can0 701#05
(1763083958.868302) can0 382#6F02DCFF91020000
(1763083958.874554) can0 189#06031B025B010551
(1763083958.875708) can0 281#5101000007000000
(1763083958.877512) can0 000A0003#FF7FFE9E10A30000
(1763083958.877797) can0 000A0004#000DFFB6FE438E02
(1763083958.880842) can0 181#D10300207F000009
(1763083958.883794) can0 682#3D43340400006000
(1763083958.884534) can0 186#AF064C1D09080000
(1763083958.885062) can0 189#06031C0259010551
(1763083958.886665) can0 482#5501050008360001
(1763083958.887513) can0 000A0003#FF77FE9710A70000
(1763083958.887802) can0 000A0004#000DFFB2FE348E02
(1763083958.891748) can0 382#DA02410097020000
(1763083958.891865) can0 701#05
(1763083958.892159) can0 1A3#80032C09000000
(1763083958.894551) can0 189#05031D025B010551
(1763083958.897516) can0 000A0003#FF77FE9410A80000
(1763083958.897801) can0 000A0004#000DFFB2FE2B8E02
(1763083958.904306) can0 4C4#04AF04A604A0049E
(1763083958.904562) can0 189#05031D025C010551
(1763083958.905314) can0 4C5#049904A204A304A4
(1763083958.906336) can0 4C6#049F04A004A0049B
(1763083958.906817) can0 1A0#000000000100
(1763083958.907342) can0 4C7#049F04A504AB04A2
(1763083958.907628) can0 000A0003#FF80FE9010A90000
(1763083958.907914) can0 000A0004#000DFFB5FE1E8E02
(1763083958.908372) can0 4C8#047A000000000000
(1763083958.908672) can0 000A0000#0000000000000000
(1763083958.908973) can0 000A0001#0000000000000000
(1763083958.909270) can0 000A0002#0000000000000000
(1763083958.910849) can0 482#5601050008360001
(1763083958.912847) can0 1A4#C0003E0A000000
(1763083958.913072) can0 2A3#0F11131312111010
(1763083958.913479) can0 701#05
(1763083958.913917) can0 382#8E029FFF97020000
(1763083958.914547) can0 189#05031C025A010551
(1763083958.917515) can0 000A0003#FF89FE9410B00000
(1763083958.917801) can0 000A0004#000BFFB4FE118E02
(1763083958.919167) can0 181#D10300207F000009
(1763083958.919411) can0 281#5601000007000000
(1763083958.924537) can0 186#A5064C1D09090000
(1763083958.924776) can0 682#3D43340400005F00
(1763083958.925060) can0 189#06031C025C010551
(1763083958.927519) can0 000A0003#FF96FE9A10BA0000
(1763083958.927808) can0 000A0004#000AFFB9FE078E02
(1763083958.928436) can0 1A2#00060E0E000000
(1763083958.928662) can0 2A1#1011121212111112
(1763083958.932815) can0 482#4E01050008360001
(1763083958.934548) can0 189#05031D025B010551
(1763083958.935091) can0 701#05
(1763083958.935546) can0 382#8202FCFF93020000
(1763083958.937511) can0 000A0003#FF9AFE9D10BD0000
(1763083958.937799) can0 000A0004#0008FFBAFE008E02
(1763083958.939879) can0 1A5#C007940D000000
(1763083958.944568) can0 189#04031E025B010551
(1763083958.944904) can0 080#
(1763083958.946054) can0 286#0000900100000000
(1763083958.947523) can0 000A0003#FF9BFE9E10BF0000
(1763083958.947800) can0 000A0004#0007FFBCFDF68E02
(1763083958.953783) can0 188#0C003E3300000000
(1763083958.954545) can0 189#05031C025C010551
(1763083958.954788) can0 288#082A1F2C00140000
(1763083958.955030) can0 482#4F01050008360001
(1763083958.955306) can0 382#8502E1FF93020000
(1763083958.955426) can0 701#05
(1763083958.955666) can0 388#1E1F1D1A1E000000
(1763083958.956536) can0 191#9E9E9E9E9E9E
(1763083958.957516) can0 000A0003#FF99FEA210BF0000
(1763083958.957807) can0 000A0004#0007FFC0FDEC8E02
(1763083958.957999) can0 192#9E9E9E9E9E9E
(1763083958.958522) can0 193#9E9E9E9E9E9E
(1763083958.959532) can0 194#9E9E9E9E9E9E
(1763083958.960124) can0 181#D10300207F000009
(1763083958.960534) can0 195#9E9E9E9E9E9F
(1763083958.961527) can0 291#0E0E0E0F0E0E
(1763083958.962533) can0 292#0D0E0F0F0F0E
(1763083958.962962) can0 281#5001000007000000
(1763083958.963542) can0 293#0E0E0F0F0F0E
(1763083958.964530) can0 186#9E064C1D090A0000
(1763083958.964742) can0 294#0E0E0F0F0F0E
(1763083958.965078) can0 189#04031B025A010551
(1763083958.965549) can0 295#0D0E0E0E0D0D
(1763083958.965905) can0 682#3D43340400005E00
(1763083958.967524) can0 000A0003#FF95FEA610BE0000
(1763083958.967811) can0 000A0004#0007FFC0FDE68E02
(1763083958.969479) can0 4C4#04A904AC04A504A3
(1763083958.970493) can0 4C5#049904A2049F04A3
(1763083958.971509) can0 4C6#049F049B04A5049B
(1763083958.972522) can0 4C7#04A304A504AA04A7
(1763083958.973550) can0 4C8#047A000000000000
(1763083958.974544) can0 189#04031B025B010551
(1763083958.976353) can0 482#5101050008360001
(1763083958.977522) can0 000A0003#FF92FEAC10BD0000
(1763083958.977810) can0 000A0004#0009FFBEFDDC8E02
(1763083958.978858) can0 701#05
(1763083958.979340) can0 382#8502E2FF90020000
(1763083958.984543) can0 189#04031D025C010551
(1763083958.987523) can0 000A0003#FF97FEB110BC0000
(1763083958.987810) can0 000A0004#0009FFC0FDD38E02
(1763083958.993184) can0 1A3#C0012C09000000
(1763083958.994542) can0 189#04031E025C010551
(1763083958.997516) can0 000A0003#FF9BFEB610BB0000
(1763083958.997804) can0 000A0004#000AFFC1FDCA8E02
(1763083958.998223) can0 181#D10300207F000009
(1763083958.998556) can0 482#5101050008360001
(1763083959.000830) can0 701#05
(1763083959.001287) can0 382#80020C0090020000
(1763083959.004529) can0 186#8C064C1D090B0000
(1763083959.005066) can0 189#01031C025B010551
(1763083959.006620) can0 281#5201000007000000
(1763083959.006820) can0 1A0#000000000100
(1763083959.007061) can0 682#3D43340400005F00
(1763083959.007519) can0 000A0003#FF9DFEBA10BB0000
(1763083959.007804) can0 000A0004#000AFFC4FDC48E02
(1763083959.008536) can0 000A0000#0000000000000000
(1763083959.008836) can0 000A0001#0000000000000000
(1763083959.009134) can0 000A0002#0000000000000000
(1763083959.014541) can0 189#02031E025A010551
(1763083959.017526) can0 000A0003#FF9AFEC010C00000
(1763083959.017812) can0 000A0004#000AFFC7FDBD8E02
(1763083959.019902) can0 1A4#000E3E0A000000
(1763083959.020128) can0 2A3#0E11131312111010
(1763083959.020369) can0 482#5301050008360001
(1763083959.022758) can0 382#940219008A020000
(1763083959.022878) can0 701#05
(1763083959.024537) can0 189#04031C025B010551
(1763083959.027528) can0 000A0003#FF8FFEC410D00000
(1763083959.027813) can0 000A0004#0008FFC8FDB58E02
(1763083959.034539) can0 189#04031B025C010551
(1763083959.034770) can0 4C4#04A904AC04A504A8
(1763083959.035656) can0 4C5#049904A2049F04A3
(1763083959.036084) can0 1A2#C007130E000000
(1763083959.036310) can0 2A1#1011121212131112
(1763083959.036552) can0 181#D10300207F000009
(1763083959.036784) can0 4C6#049F049B04A5049B
(1763083959.037521) can0 000A0003#FF8AFEC610D70000
(1763083959.037808) can0 000A0004#0007FFCFFDAE8E02
(1763083959.038040) can0 4C7#04A304A504AA04A7
(1763083959.038715) can0 4C8#047A000000000000
(1763083959.041780) can0 482#4E01050008360001
(1763083959.042038) can0 1A5#8003940D000000
(1763083959.042155) can0 701#05
(1763083959.042547) can0 382#8A0223008A020000
(1763083959.044547) can0 186#8B064C1D090C0000
(1763083959.045059) can0 189#03031B025B010551
(1763083959.045889) can0 080#
(1763083959.047041) can0 286#0000900100000000
(1763083959.047532) can0 000A0003#FF8EFEC410D20000
(1763083959.047810) can0 000A0004#0005FFD2FDA98E02
(1763083959.048049) can0 682#3D43340400005F00
(1763083959.050182) can0 281#4B01000007000000
(1763083959.052993) can0 19A#0000827F637E877C
(1763083959.053774) can0 188#0C00473300000000
(1763083959.054009) can0 29A#7E58808680880000
(1763083959.054536) can0 189#04031B025C010551
(1763083959.054778) can0 288#082A1F2C00140000
(1763083959.055568) can0 388#1E1F1D1A1E000000
(1763083959.056514) can0 191#9E9E9E9E9E9E
(1763083959.057532) can0 000A0003#FF98FEC110C80000
(1763083959.057818) can0 000A0004#0005FFD6FDA28E02
(1763083959.058010) can0 192#9E9E9E9E9E9E
(1763083959.058530) can0 193#9E9E9E9E9E9E
(1763083959.059539) can0 194#9E9E9E9E9E9E
(1763083959.060512) can0 195#9E9E9E9E9E9F
(1763083959.061420) can0 482#4E01050008360001
(1763083959.061628) can0 291#0E0E0E0F0E0E
(1763083959.062544) can0 292#0D0E0F0F0F0E
(1763083959.063549) can0 293#0E0E0F0F0F0E
(1763083959.064535) can0 189#04031C025C010551
(1763083959.064747) can0 294#0E0E0F0F0F0E
(1763083959.065527) can0 295#0D0E0E0E0D0D
(1763083959.066197) can0 701#05
(1763083959.066651) can0 382#7602D9FF89020000
(1763083959.067527) can0 000A0003#FFA8FEC110B90000
(1763083959.067813) can0 000A0004#0004FFDAFD9C8E02
(1763083959.074536) can0 189#05031D025C010551
(1763083959.074777) can0 181#D10300207F000009
(1763083959.077528) can0 000A0003#FFB2FEC010B30000
(1763083959.077817) can0 000A0004#0001FFDDFD978E02
(1763083959.084523) can0 186#E0064C1D090D0000
(1763083959.085055) can0 189#09031F025C010551
(1763083959.085787) can0 482#5301050008360001
(1763083959.087532) can0 000A0003#FFB2FEC110BA0000
(1763083959.087816) can0 000A0004#0001FFDDFD938E02
(1763083959.088499) can0 682#3D43340400005E00
(1763083959.088619) can0 701#05
(1763083959.088865) can0 382#9E024000AA020000
(1763083959.093728) can0 281#5401000007000000
(1763083959.094193) can0 1A3#C0072C09000000
(1763083959.094537) can0 189#0A0320025A010551
(1763083959.097531) can0 000A0003#FFAFFEC210C30000
(1763083959.097815) can0 000A0004#0000FFDDFD8D8E02
(1763083959.099807) can0 4C4#04B504A6049B04A3
(1763083959.100815) can0 4C5#049904A704A3049F
(1763083959.101831) can0 4C6#049B04A004A5049B
(1763083959.102850) can0 4C7#04A304A004A004AD
(1763083959.103874) can0 4C8#047A000000000000
(1763083959.104533) can0 189#0C0321025A010551
(1763083959.106822) can0 1A0#000000000100
(1763083959.107367) can0 482#5301050008360001
(1763083959.107650) can0 000A0003#FFA6FEC410C70000
(1763083959.107936) can0 000A0004#FFFCFFDCFD898E02
(1763083959.108544) can0 000A0000#0000000000000000
(1763083959.108844) can0 000A0001#0000000000000000
(1763083959.109143) can0 000A0002#0000000000000000
(1763083959.109857) can0 701#05
(1763083959.110344) can0 382#BB022700AA020000
(1763083959.114531) can0 189#0D0321025A010651
(1763083959.115693) can0 181#D10300207F000009
(1763083959.117533) can0 000A0003#FFA1FEC610CA0000
(1763083959.117817) can0 000A0004#FFFBFFDAFD878E02
(1763083959.124520) can0 186#0E074C1D090E0000
(1763083959.125059) can0 189#0C0322025C010651
(1763083959.126731) can0 482#5301050008360001
(1763083959.126959) can0 1A4#000E3E0A000000
(1763083959.127197) can0 2A3#0E10101010111010
(1763083959.127539) can0 000A0003#FF93FECC10B40000
(1763083959.127825) can0 000A0004#FFFAFFDAFD838E02
(1763083959.129445) can0 682#3D43340400005F00
(1763083959.131613) can0 701#05
(1763083959.132064) can0 382#A102B6FFBC020000
(1763083959.134530) can0 189#0B0321025C010651
(1763083959.137413) can0 281#5101000007000000
(1763083959.137693) can0 000A0003#FF8BFECF10A30000
(1763083959.137979) can0 000A0004#FFFBFFD8FD808E02
(1763083959.143735) can0 1A2#C003E70D000000
(1763083959.143958) can0 2A1#1211121212131212
(1763083959.144204) can0 1A5#C008940D000000
(1763083959.144566) can0 189#0C0321025B010551
(1763083959.144890) can0 080#
(1763083959.146040) can0 286#0000900100000000
(1763083959.147542) can0 000A0003#FF88FECF10990000
(1763083959.147820) can0 000A0004#FFFEFFD7FD7D8E02
(1763083959.148340) can0 482#5301060008360001
(1763083959.153779) can0 382#B2024600BC020000
(1763083959.154021) can0 188#0C00803200000000
(1763083959.154137) can0 701#05
(1763083959.154445) can0 181#D10300207F000009
(1763083959.154678) can0 189#0B0322025C010551
(1763083959.154920) can0 288#082A1F2B00140000
(1763083959.155563) can0 388#1E1F1D1A1E000000
(1763083959.156504) can0 191#9E9E9E9E9E9E
(1763083959.157534) can0 000A0003#FF87FECF10920000
(1763083959.157822) can0 000A0004#0001FFD8FD7B8E02
(1763083959.158014) can0 192#9E9E9E9E9E9E
(1763083959.158536) can0 193#9E9E9E9E9E9E
(1763083959.159516) can0 194#9E9E9E9E9E9E
(1763083959.160520) can0 195#9E9E9E9E9E9F
(1763083959.161534) can0 291#0D0D0E0F0E0E
(1763083959.162552) can0 292#0E0E0F0F0F0E
(1763083959.163556) can0 293#0E0E0F0F0F0E
(1763083959.164514) can0 186#F3064C1D090F0000
(1763083959.164726) can0 294#0E0E0F0F0F0E
(1763083959.164962) can0 4C4#04B504A6049B04A3
(1763083959.165197) can0 189#0A0320025A010551
(1763083959.165533) can0 295#0D0E0E0E0E0D
(1763083959.165971) can0 4C5#049904A704A3049F
(1763083959.166988) can0 4C6#049B04A004A5049B
(1763083959.167535) can0 000A0003#FF8BFED2109D0000
(1763083959.167821) can0 000A0004#0006FFD7FD788E02
(1763083959.168058) can0 4C7#04A304A004A004AD
(1763083959.169029) can0 4C8#047A000000000000
(1763083959.170291) can0 482#5201050008360001
(1763083959.170638) can0 682#3D43330400006100
(1763083959.174523) can0 189#0A0321025B010551
(1763083959.175375) can0 701#05
(1763083959.175863) can0 382#DC02DDFFB2020000
(1763083959.177539) can0 000A0003#FF8FFED310A20000
(1763083959.177824) can0 000A0004#0008FFD7FD768E02
(1763083959.181184) can0 281#5301000007000000
(1763083959.184527) can0 189#0A0322025B010551
(1763083959.187539) can0 000A0003#FF84FECF109C0000
(1763083959.187825) can0 000A0004#0009FFD9FD748E02
(1763083959.192004) can0 181#D10300207F000009
(1763083959.192339) can0 482#5201050008360001
(1763083959.194525) can0 189#0B031F025B010551
(1763083959.195196) can0 1A3#80032C09000000
(1763083959.197114) can0 701#05
(1763083959.197538) can0 000A0003#FF7DFECD10970000
(1763083959.197824) can0 000A0004#000BFFDAFD718E02
(1763083959.198062) can0 382#A402F0FFB2020000
(1763083959.204513) can0 186#F3064C1D09000000
(1763083959.205050) can0 189#0A0320025C010551
(1763083959.206821) can0 1A0#000000000100
(1763083959.207531) can0 000A0003#FF78FECE10910000
(1763083959.207821) can0 000A0004#000FFFDBFD6F8E02
(1763083959.208550) can0 000A0000#0000000000000000
(1763083959.208849) can0 000A0001#0000000000000000
(1763083959.209147) can0 000A0002#0000000000000000
(1763083959.211319) can0 682#3D43340400006000
(1763083959.213742) can0 482#5201050008360001
(1763083959.214523) can0 189#0B0320025C010551
(1763083959.216651) can0 701#05
(1763083959.217544) can0 000A0003#FF74FED0108E0000
(1763083959.217830) can0 000A0004#0010FFDDFD6D8E02
(1763083959.219268) can0 382#96022100B2020000
(1763083959.224527) can0 189#090321025A010551
(1763083959.224986) can0 281#4D01000007000000
(1763083959.227550) can0 000A0003#FF7CFED610900000
(1763083959.227832) can0 000A0004#0010FFDCFD6B8E02
(1763083959.230106) can0 4C4#04A904A604A0049E
(1763083959.230348) can0 181#D10300207F000009
(1763083959.231119) can0 4C5#049E04A7049F049B
(1763083959.232133) can0 4C6#049F049B04A0049B
(1763083959.233062) can0 482#5001050008360001
(1763083959.233294) can0 4C7#049F049B04A504A7
(1763083959.233995) can0 1A4#C0003E0A000000
(1763083959.234230) can0 2A3#0E10101010101110
(1763083959.234475) can0 4C8#047A000000000000
(1763083959.234710) can0 189#0A031F0259010551
(1763083959.237540) can0 000A0003#FF89FEDD10920000
(1763083959.237825) can0 000A0004#000DFFDAFD6B8E02
(1763083959.238056) can0 701#05
(1763083959.238511) can0 382#C102CCFFB2020000
(1763083959.241987) can0 19A#00007F7B6A81847B
(1763083959.243000) can0 29A#7D5A828380860000
(1763083959.244531) can0 186#F3064C1D09010000
(1763083959.245046) can0 189#090320025C010551
(1763083959.245903) can0 080#
(1763083959.246381) can0 1A5#C003940D000000
(1763083959.247056) can0 286#0000900100000000
(1763083959.247554) can0 000A0003#FF86FEDC10A40000
(1763083959.247833) can0 000A0004#000BFFDFFD6B8E02
(1763083959.251389) can0 1A2#C000E70D000000
(1763083959.251611) can0 2A1#1212131313131212
(1763083959.252280) can0 682#3D43340400006000
(1763083959.253832) can0 188#0C001A3300000000
(1763083959.254518) can0 189#0A0321025A010551
(1763083959.254758) can0 288#062A1F2C00140000
(1763083959.255570) can0 388#1E1F1D1A1E000000
(1763083959.256528) can0 191#9E9E9E9E9E9E
(1763083959.257544) can0 000A0003#FF84FEDA10B00000
(1763083959.257832) can0 000A0004#000CFFDBFD6A8E02
(1763083959.258025) can0 192#9E9E9E9E9E9E
(1763083959.258265) can0 482#4E01050008360001
(1763083959.258543) can0 193#9E9E9E9E9E9E
(1763083959.259519) can0 194#9E9E9E9E9E9E
(1763083959.260250) can0 382#C7025800B2020000
(1763083959.260426) can0 701#05
(1763083959.260618) can0 195#9E9E9E9E9E9F
(1763083959.261550) can0 291#0E0E0E0F0E0E
(1763083959.262558) can0 292#0E0E0F0F0F0E
(1763083959.263533) can0 293#0E0E0F0F0F0E
(1763083959.264521) can0 189#09031F025A010551
(1763083959.264733) can0 294#0E0F0F0F0F0E
(1763083959.265538) can0 295#0D0E0E0E0D0D
(1763083959.267552) can0 000A0003#FF71FED610B10000
(1763083959.267838) can0 000A0004#000FFFDCFD6B8E02
(1763083959.271263) can0 181#D10300207F000009
(1763083959.271511) can0 281#5401000007000000
(1763083959.274521) can0 189#0A0320025C010551
(1763083959.277550) can0 000A0003#FF55FED110B10000
(1763083959.277835) can0 000A0004#0012FFDFFD6C8E02
(1763083959.279245) can0 482#5601050008360001
(1763083959.281737) can0 701#05
(1763083959.282293) can0 382#DC02DCFFB2020000
(1763083959.284507) can0 186#E8064C1D09020000
(1763083959.285071) can0 189#080320025B010551
(1763083959.287547) can0 000A0003#FF52FED510B90000
(1763083959.287829) can0 000A0004#0011FFDDFD6B8E02
(1763083959.294516) can0 189#0A0321025C010551
(1763083959.295285) can0 4C4#04A904A604A5049E
(1763083959.295812) can0 682#3D43340400006100
(1763083959.296212) can0 1A3#C0082C09000000
(1763083959.296446) can0 4C5#049E04A7049F049B
(1763083959.297312) can0 4C6#049F04A004A0049B
(1763083959.297598) can0 000A0003#FF50FED910C10000
(1763083959.297884) can0 000A0004#000DFFDCFD6B8E02
(1763083959.298320) can0 4C7#04A304A504A504AD
(1763083959.299350) can0 4C8#047A000000000000
(1763083959.301303) can0 482#5401050008360001
(1763083959.303561) can0 701#05
(1763083959.304016) can0 382#9602B7FFAD020000
(1763083959.304516) can0 189#0A0320025A010551
(1763083959.306823) can0 1A0#000000000100
(1763083959.307544) can0 000A0003#FF55FEDA10C70000
(1763083959.307832) can0 000A0004#000CFFDBFD6B8E02
(1763083959.308564) can0 000A0000#0000000000000000
(1763083959.308864) can0 000A0001#0000000000000000
(1763083959.309162) can0 000A0002#0000000000000000
(1763083959.309404) can0 181#D10300207F000009
(1763083959.314518) can0 189#0A0320025B010551
(1763083959.314820) can0 281#4E01000007000000
(1763083959.317553) can0 000A0003#FF5CFEDB10D00000
(1763083959.317839) can0 000A0004#000BFFDAFD6B8E02
