(1763088442.188262) can0 186#B4E24C1D090F0000
(1763088442.188518) can0 189#3C0298017F0100D1
(1763088442.189391) can0 080#
(1763088442.190517) can0 286#6400900100000000
(1763088442.191038) can0 000A0003#FF52FFF510520000
(1763088442.191325) can0 000A0004#FFEBFFECFFA78E02
(1763088442.192394) can0 701#05
(1763088442.192849) can0 482#0000000028340001
(1763088442.193092) can0 19A#00007F6F747E807F
(1763088442.193957) can0 29A#7F77828083830000
(1763088442.195466) can0 181#D10100207F00000D
(1763088442.195899) can0 682#4F532D0400003700
(1763088442.196430) can0 188#0C008D2D00000000
(1763088442.197155) can0 288#D729442900410000
(1763088442.198164) can0 388#2A2A2E2425000000
(1763088442.198399) can0 189#3C0297017E0100D1
(1763088442.199125) can0 191#9D9D9D9D9D9C
(1763088442.200134) can0 192#9C9D9C9C9C9C
(1763088442.201058) can0 000A0003#FF51FFF210500000
(1763088442.201316) can0 000A0004#FFEBFFECFFA68E02
(1763088442.201505) can0 193#9C9D9D9D9D9D
(1763088442.202120) can0 194#9C9D9D9D9D9D
(1763088442.203127) can0 195#9C9D9D9D9D9D
(1763088442.203652) can0 382#0F000D0000000000
(1763088442.203908) can0 281#0000000000000000
(1763088442.204135) can0 291#1B212423231F
(1763088442.205147) can0 292#1D232524251F
(1763088442.206114) can0 293#1D222423231E
(1763088442.207127) can0 294#1D222423231F
(1763088442.208134) can0 295#1B212320211C
(1763088442.208370) can0 189#3C0297017F0100D1
(1763088442.211044) can0 000A0003#FF51FFF110500000
(1763088442.211328) can0 000A0004#FFECFFEDFFA68E02
(1763088442.214468) can0 482#0000000028340001
(1763088442.214582) can0 701#05
(1763088442.218199) can0 189#3D029901800100D1
(1763088442.221057) can0 000A0003#FF53FFEF10500000
(1763088442.221331) can0 000A0004#FFEBFFEDFFA68E02
(1763088442.222999) can0 382#1F00FCFF00000000
(1763088442.225252) can0 1A3#4000BF09000000
(1763088442.228178) can0 186#B4E24C1D09000000
(1763088442.228532) can0 189#3F029A017E0100D1
(1763088442.231044) can0 000A0003#FF55FFEE10500000
(1763088442.231326) can0 000A0004#FFEBFFEDFFA58E02
(1763088442.233568) can0 181#D10100207F00000D
(1763088442.233792) can0 1A2#0000E70D000000
(1763088442.234023) can0 2A1#1A1D1C1B1917130F
(1763088442.236066) can0 701#05
(1763088442.236555) can0 482#0000000028340001
(1763088442.236884) can0 682#4F532D0400003700
(1763088442.238197) can0 189#3F029A017D0100D1
(1763088442.239812) can0 4C4#058F064F069106C6
(1763088442.240826) can0 4C5#06A1064A06630662
(1763088442.241116) can0 000A0003#FF58FFED104F0000
(1763088442.241400) can0 000A0004#FFEEFFECFFA58E02
(1763088442.241840) can0 4C6#0675066806510662
(1763088442.242856) can0 4C7#06B1062A05300505
(1763088442.243887) can0 4C8#05DC000000000000
(1763088442.244114) can0 1A4#0000600A000000
(1763088442.244341) can0 2A3#121A1A1918150F0D
(1763088442.244945) can0 281#0000000000000000
(1763088442.247255) can0 382#2D00270000000000
(1763088442.248196) can0 189#3C0298017E0100D1
(1763088442.248694) can0 1A5#0000BB0D000000
(1763088442.251046) can0 000A0003#FF59FFED104E0000
(1763088442.251328) can0 000A0004#FFEEFFECFFA58E02
(1763088442.251541) can0 1A0#000000000000
(1763088442.252054) can0 000A0000#0000000000000000
(1763088442.252354) can0 000A0001#0000000000000000
(1763088442.252652) can0 000A0002#0000000000000000
(1763088442.257823) can0 701#05
(1763088442.258192) can0 189#3E029C017E0100D1
(1763088442.258438) can0 482#0000000028340001
(1763088442.261059) can0 000A0003#FF5AFFEE104D0000
(1763088442.261334) can0 000A0004#FFEFFFEDFFA58E02
(1763088442.266476) can0 382#FEFF130000000000
(1763088442.268170) can0 186#B4E24C1D09010000
(1763088442.268543) can0 189#3E029A017D0100D1
(1763088442.271050) can0 000A0003#FF5CFFEF104C0000
(1763088442.271336) can0 000A0004#FFEFFFEDFFA58E02
(1763088442.271935) can0 181#D10100207F00000D
(1763088442.277502) can0 682#4F522D0400003700
(1763088442.278195) can0 189#3C0298017E0100D1
(1763088442.280005) can0 482#0000000028340001
(1763088442.280189) can0 701#05
(1763088442.281051) can0 000A0003#FF5EFFF0104B0000
(1763088442.281337) can0 000A0004#FFF0FFECFFA58E02
(1763088442.288208) can0 189#3D029A017F0100D1
(1763088442.288453) can0 382#E0FF180000000000
(1763088442.288555) can0 080#
(1763088442.288809) can0 281#0000000000000000
(1763088442.289518) can0 286#6400900100000000
(1763088442.291041) can0 000A0003#FF60FFF2104A0000
(1763088442.291327) can0 000A0004#FFF1FFE6FFA68E02
(1763088442.296373) can0 188#0C006F2E00000000
(1763088442.297147) can0 288#D729442900410000
(1763088442.298156) can0 388#2A2A2E2425000000
(1763088442.298392) can0 189#3E0299017D0100D1
(1763088442.299135) can0 191#9D9D9D9D9D9C
(1763088442.300144) can0 192#9C9D9C9C9C9C
(1763088442.301059) can0 000A0003#FF62FFF210490000
(1763088442.301330) can0 000A0004#FFF2FFE7FFA68E02
(1763088442.301521) can0 193#9C9D9D9D9D9D
(1763088442.301636) can0 701#05
(1763088442.302128) can0 194#9C9D9D9D9D9D
(1763088442.302375) can0 482#0000000028340001
(1763088442.303136) can0 195#9C9D9D9D9D9D
(1763088442.304145) can0 291#1B212423231F
(1763088442.304857) can0 4C4#058F064F069106C6
(1763088442.305123) can0 292#1D232524251F
(1763088442.305870) can0 4C5#06A1064A06630662
(1763088442.306123) can0 293#1D222423231E
(1763088442.306883) can0 4C6#0675066806510662
(1763088442.307135) can0 294#1D222423231F
(1763088442.307901) can0 4C7#06B1062A05300505
(1763088442.308142) can0 295#1B212320211C
(1763088442.308374) can0 186#B4E24C1D09020000
(1763088442.308608) can0 189#3B0297017B0100D1
(1763088442.308932) can0 4C8#05DC000000000000
(1763088442.310278) can0 382#04000A0000000000
(1763088442.310608) can0 181#D10100207F00000D
(1763088442.311045) can0 000A0003#FF62FFF610470000
(1763088442.311332) can0 000A0004#FFF2FFE7FFA68E02
(1763088442.318187) can0 189#3F029A017D0100D1
(1763088442.318466) can0 682#4F532D0400003700
(1763088442.321051) can0 000A0003#FF62FFF910440000
(1763088442.321338) can0 000A0004#FFF2FFE5FFA68E02
(1763088442.323352) can0 701#05
(1763088442.323808) can0 482#0000000028340001
(1763088442.326296) can0 1A3#4000BF09000000
(1763088442.328188) can0 189#3E029A017D0100D1
(1763088442.331054) can0 000A0003#FF63FFFB10470000
(1763088442.331339) can0 000A0004#FFF2FFE1FFA68E02
(1763088442.334625) can0 382#0C00020000000000
(1763088442.334950) can0 281#0000000000000000
(1763088442.338187) can0 189#3F029C017D0100D1
(1763088442.341052) can0 000A0003#FF63FFFC10490000
(1763088442.341336) can0 000A0004#FFF2FFE2FFA58E02
(1763088442.341560) can0 1A2#0000E70D000000
(1763088442.341788) can0 2A1#1A1D1C1B1917130F
(1763088442.345528) can0 482#0000000028340001
(1763088442.345646) can0 701#05
(1763088442.348164) can0 186#B4E24C1D09030000
(1763088442.348530) can0 189#3E029A017D0100D1
(1763088442.350868) can0 1A5#0000BB0D000000
(1763088442.351154) can0 000A0003#FF61FFFE104A0000
(1763088442.351446) can0 000A0004#FFF2FFE3FFA58E02
(1763088442.351689) can0 181#D10100207F00000D
(1763088442.351901) can0 1A0#000000000000
(1763088442.352201) can0 000A0000#0000000000000000
(1763088442.352503) can0 000A0001#0000000000000000
(1763088442.352799) can0 000A0002#0000000000000000
(1763088442.353035) can0 1A4#0000600A000000
(1763088442.353253) can0 2A3#121A1A1918150F0D
(1763088442.356580) can0 382#FCFFF6FF00000000
(1763088442.358188) can0 189#3D0299017D0100D1
(1763088442.359500) can0 682#4F532D0400003700
(1763088442.361059) can0 000A0003#FF5F0000104A0000
(1763088442.361343) can0 000A0004#FFF2FFE2FFA58E02
(1763088442.367132) can0 701#05
(1763088442.367618) can0 482#0000000028340001
(1763088442.368188) can0 189#3E029A017C0100D1
(1763088442.369912) can0 4C4#05940653069506C3
(1763088442.370924) can0 4C5#06A1064D06630664
(1763088442.371214) can0 000A0003#FF5C0001104E0000
(1763088442.371499) can0 000A0004#FFF1FFE2FFA48E02
(1763088442.371940) can0 4C6#066F0668064E065F
(1763088442.372953) can0 4C7#06B10627052C0500
(1763088442.373985) can0 4C8#05DC000000000000
(1763088442.378186) can0 189#3E029A017D0100D1
(1763088442.378437) can0 281#0000000000000000
(1763088442.378776) can0 382#1000EFFF00000000
(1763088442.381060) can0 000A0003#FF5A000210510000
(1763088442.381342) can0 000A0004#FFF1FFE2FFA58E02
(1763088442.381950) can0 19A#00007E6B6E7E817F
(1763088442.382952) can0 29A#7F73818082820000
(1763088442.388188) can0 186#B4E24C1D09040000
(1763088442.388524) can0 189#3C0299017E0100D1
(1763088442.389347) can0 181#D10100207F00000D
(1763088442.389447) can0 080#
(1763088442.389563) can0 701#05
(1763088442.389882) can0 482#0000000028340001
(1763088442.390502) can0 286#6400900100000000
(1763088442.391053) can0 000A0003#FF57000210550000
(1763088442.391338) can0 000A0004#FFF1FFE3FFA58E02
(1763088442.396407) can0 188#0C00E52E00000000
(1763088442.397172) can0 288#D729442900410000
(1763088442.398182) can0 388#2A2A2E2425000000
(1763088442.398418) can0 189#3D0299017F0100D1
(1763088442.399124) can0 191#9D9D9D9D9D9C
(1763088442.400106) can0 192#9C9D9C9C9C9C
(1763088442.400348) can0 382#FCFFF6FF00000000
(1763088442.400719) can0 682#4F532D0400003700
(1763088442.401060) can0 000A0003#FF55000110590000
(1763088442.401350) can0 000A0004#FFF2FFE3FFA58E02
(1763088442.401539) can0 193#9C9D9D9D9D9D
(1763088442.402135) can0 194#9C9D9D9D9D9D
(1763088442.403141) can0 195#9C9D9D9D9D9D
(1763088442.404123) can0 291#1B212423231F
(1763088442.405130) can0 292#1D232524251F
(1763088442.406130) can0 293#1D222423231E
(1763088442.407143) can0 294#1D222423231F
(1763088442.408178) can0 189#3C0296017D0100D1
(1763088442.408371) can0 295#1C212320211D
(1763088442.411065) can0 000A0003#FF56FFFF10580000
(1763088442.411353) can0 000A0004#FFF2FFE3FFA58E02
(1763088442.411601) can0 482#0000000028340001
(1763088442.411720) can0 701#05
(1763088442.418179) can0 189#3E029A017D0100D1
(1763088442.421057) can0 000A0003#FF56FFFD10570000
(1763088442.421343) can0 000A0004#FFF2FFE4FFA58E02
(1763088442.421896) can0 281#0000000000000000
(1763088442.422315) can0 382#EFFFE8FF00000000
(1763088442.427335) can0 1A3#4000BF09000000
(1763088442.427579) can0 181#D10100207F00000D
(1763088442.428158) can0 186#B4E24C1D09050000
(1763088442.428518) can0 189#3C0298017D0100D1
(1763088442.430731) can0 482#0000000028340001
(1763088442.430852) can0 701#05
(1763088442.431138) can0 000A0003#FF57FFFB10580000
(1763088442.431421) can0 000A0004#FFF1FFE4FFA58E02
(1763088442.434962) can0 4C4#05940653069506C3
(1763088442.435976) can0 4C5#06A1064D06630664
(1763088442.436990) can0 4C6#066F0668064E065F
(1763088442.438004) can0 4C7#06B10627052C0500
(1763088442.438241) can0 189#3C0298017E0100D1
(1763088442.439035) can0 4C8#05DC000000000000
(1763088442.441059) can0 000A0003#FF59FFFA10580000
(1763088442.441341) can0 000A0004#FFF1FFE4FFA58E02
(1763088442.443918) can0 682#4F532D0400003700
(1763088442.444167) can0 382#FAFF080000000000
(1763088442.448177) can0 189#3E029A017E0100D1
(1763088442.448957) can0 1A2#0000E70D000000
(1763088442.449188) can0 2A1#1A1D1C1B1917130F
(1763088442.451069) can0 000A0003#FF5AFFF910580000
(1763088442.451353) can0 000A0004#FFF1FFE5FFA58E02
(1763088442.451565) can0 1A0#000000000000
(1763088442.452069) can0 000A0000#0000000000000000
(1763088442.452371) can0 000A0001#0000000000000000
(1763088442.452667) can0 000A0002#0000000000000000
(1763088442.452914) can0 482#0000000028340001
(1763088442.453138) can0 1A5#0000BB0D000000
(1763088442.453254) can0 701#05
(1763088442.458026) can0 1A4#0000600A000000
(1763088442.458260) can0 189#3F029A017D0100D1
(1763088442.458489) can0 2A3#121A1A1918150F0D
(1763088442.461064) can0 000A0003#FF5CFFF810580000
(1763088442.461345) can0 000A0004#FFF1FFE4FFA58E02
(1763088442.465693) can0 382#0000000000000000
(1763088442.466020) can0 181#D10100207F00000D
(1763088442.466344) can0 281#0000000000000000
(1763088442.468157) can0 186#B4E24C1D09060000
(1763088442.468529) can0 189#3C0297017D0100D1
(1763088442.471065) can0 000A0003#FF5DFFF710550000
(1763088442.471349) can0 000A0004#FFF4FFE4FFA68E02
(1763088442.473629) can0 701#05
(1763088442.474110) can0 482#0000000028340001
(1763088442.478175) can0 189#3E029A017D0100D1
(1763088442.481068) can0 000A0003#FF5CFFF510520000
(1763088442.481353) can0 000A0004#FFF3FFE5FFA68E02
(1763088442.484878) can0 682#4F532D0400003700
(1763088442.487644) can0 382#0700160000000000
(1763088442.488192) can0 189#3E029A017D0100D1
(1763088442.488383) can0 080#
(1763088442.489505) can0 286#6400900100000000
(1763088442.491059) can0 000A0003#FF5DFFF610510000
(1763088442.491348) can0 000A0004#FFF2FFE5FFA68E02
(1763088442.496039) can0 482#0000000028340001
(1763088442.496158) can0 701#05
(1763088442.496419) can0 188#0C00FD2F00000000
(1763088442.497181) can0 288#D729442900410000
(1763088442.498173) can0 189#3D0297017D0100D1
(1763088442.498409) can0 388#2A2A2E2425000000
(1763088442.499119) can0 191#9D9D9D9D9D9C
(1763088442.500006) can0 4C4#0594064F069506C6
(1763088442.500197) can0 192#9C9D9C9C9C9C
(1763088442.501073) can0 000A0003#FF5EFFF7104F0000
(1763088442.501360) can0 000A0004#FFF3FFE5FFA68E02
(1763088442.501551) can0 193#9C9D9D9D9D9D
(1763088442.501784) can0 4C5#06A1064D0663065F
(1763088442.502049) can0 4C6#06720668064E0662
(1763088442.502241) can0 194#9C9D9D9D9D9D
(1763088442.503069) can0 4C7#06AE0624052C0505
(1763088442.503259) can0 195#9C9D9D9D9D9D
(1763088442.503995) can0 181#D10100207F00000D
(1763088442.504191) can0 291#1B212423231F
(1763088442.504439) can0 4C8#05DC000000000000
(1763088442.505136) can0 292#1D232524251F
(1763088442.506137) can0 293#1D222423231E
(1763088442.507150) can0 294#1D222423231F
(1763088442.508151) can0 186#B4E24C1D09070000
(1763088442.508344) can0 295#1C212320211D
(1763088442.508577) can0 189#3B0297017D0100D1
(1763088442.509609) can0 382#1B00F1FF00000000
(1763088442.509954) can0 281#0000000000000000
(1763088442.511070) can0 000A0003#FF60FFF8104D0000
(1763088442.511354) can0 000A0004#FFF3FFE4FFA78E02
(1763088442.518173) can0 189#3E0299017E0100D1
(1763088442.519950) can0 701#05
(1763088442.520405) can0 482#0000000028340001
(1763088442.521063) can0 000A0003#FF62FFF9104B0000
(1763088442.521347) can0 000A0004#FFF3FFE5FFA78E02
(1763088442.525759) can0 682#4F532D0400003700
(1763088442.528170) can0 189#3D029A017C0100D1
(1763088442.528394) can0 1A3#4000BF09000000
(1763088442.531071) can0 000A0003#FF65FFFB10490000
(1763088442.531355) can0 000A0004#FFF2FFE6FFA78E02
(1763088442.531600) can0 382#E3FF040000000000
(1763088442.538172) can0 189#3E0299017E0100D1
(1763088442.541076) can0 000A0003#FF68FFFD10480000
(1763088442.541361) can0 000A0004#FFF1FFE6FFA78E02
(1763088442.542125) can0 482#0000000028340001
(1763088442.542245) can0 701#05
(1763088442.544843) can0 181#D10100207F00000D
(1763088442.548148) can0 186#B4E24C1D09080000
(1763088442.548545) can0 189#2B029A01810100D1
(1763088442.551078) can0 000A0003#FF69000010480000
(1763088442.551361) can0 000A0004#FFF2FFE6FFA88E02
(1763088442.551575) can0 1A0#000000000000
(1763088442.552081) can0 000A0000#0000000000000000
(1763088442.552381) can0 000A0001#0000000000000000
(1763088442.552680) can0 000A0002#0000000000000000
(1763088442.553280) can0 281#0000000000000000
(1763088442.555197) can0 1A5#0000BB0D000000
(1763088442.555798) can0 382#E0FFDCFF00000000
(1763088442.556522) can0 1A2#0000E70D000000
(1763088442.556753) can0 2A1#1A1D1C1B1917130F
(1763088442.558163) can0 189#3D0299017B0100D1
(1763088442.561070) can0 000A0003#FF6A000110490000
(1763088442.561352) can0 000A0004#FFF2FFE6FFA88E02
(1763088442.561469) can0 701#05
(1763088442.561791) can0 482#0000000028340001
(1763088442.565067) can0 4C4#058F064F069106C6
(1763088442.565291) can0 1A4#0000600A000000
(1763088442.565521) can0 2A3#121A1A1918150F0D
(1763088442.566081) can0 4C5#06A1064A0660065F
(1763088442.566826) can0 682#4F532D0400003700
(1763088442.567095) can0 4C6#06720665064E065F
(1763088442.568110) can0 4C7#06B10627052C0500
(1763088442.568349) can0 189#3D0298017C0100D1
(1763088442.569141) can0 4C8#05DC000000000000
(1763088442.571074) can0 000A0003#FF6A0002104A0000
(1763088442.571365) can0 000A0004#FFF2FFE7FFA88E02
(1763088442.577752) can0 382#FAFF080000000000
(1763088442.578166) can0 189#3E029A017D0100D1
(1763088442.581077) can0 000A0003#FF690004104B0000
(1763088442.581360) can0 000A0004#FFF2FFE8FFA88E02
(1763088442.583080) can0 482#0000000028340001
(1763088442.583200) can0 701#05
(1763088442.583549) can0 181#D10100207F00000D
(1763088442.587946) can0 19A#00007E6B767E8081
(1763088442.588172) can0 186#B4E24C1D09090000
(1763088442.588504) can0 189#3D0299017A0100D1
(1763088442.588949) can0 29A#816F827F85820000
(1763088442.589370) can0 080#
(1763088442.590517) can0 286#6400900100000000
(1763088442.591073) can0 000A0003#FF670003104C0000
(1763088442.591357) can0 000A0004#FFF2FFE8FFA88E02
(1763088442.596424) can0 188#0C00EE2E00000000
(1763088442.596849) can0 281#0000000000000000
(1763088442.597190) can0 288#D729442A00410000
(1763088442.598166) can0 388#2A2A2E2425000000
(1763088442.598403) can0 189#3E0299017D0100D1
(1763088442.599107) can0 191#9D9D9D9D9D9C
(1763088442.599598) can0 382#F3FFF4FF00000000
(1763088442.600118) can0 192#9C9D9C9C9C9C
(1763088442.601078) can0 000A0003#FF640003104C0000
(1763088442.601359) can0 000A0004#FFF2FFE8FFA88E02
(1763088442.601549) can0 193#9C9D9D9D9D9D
(1763088442.602119) can0 194#9C9D9D9D9D9D
(1763088442.603128) can0 195#9C9D9D9D9D9D
(1763088442.604136) can0 291#1B212423231F
(1763088442.604703) can0 701#05
(1763088442.605145) can0 292#1D232524251F
(1763088442.605391) can0 482#0000000028340001
(1763088442.606146) can0 293#1D222423231E
(1763088442.607110) can0 294#1D222423231F
(1763088442.608114) can0 295#1C212320211D
(1763088442.608353) can0 189#3C0296017C0100D1
(1763088442.610513) can0 682#4F532D0400003700
(1763088442.611071) can0 000A0003#FF620003104D0000
(1763088442.611357) can0 000A0004#FFF1FFE8FFA88E02
(1763088442.618162) can0 189#3F029A017B0100D1
(1763088442.621080) can0 000A0003#FF600003104D0000
(1763088442.621362) can0 000A0004#FFF0FFE8FFA88E02
(1763088442.621609) can0 382#25002E0000000000
(1763088442.621896) can0 181#D10100207F00000D
(1763088442.626442) can0 701#05
(1763088442.626897) can0 482#0000000028340001
(1763088442.628137) can0 186#B4E24C1D090A0000
(1763088442.628539) can0 189#3D0298017C0100D1
(1763088442.629414) can0 1A3#4000BF09000000
(1763088442.630099) can0 4C4#058E064E069106C5
(1763088442.631079) can0 000A0003#FF5E0004104D0000
(1763088442.631369) can0 000A0004#FFEFFFE9FFA88E02
(1763088442.631601) can0 4C5#06A0064A065F0661
(1763088442.632130) can0 4C6#066F0664064E065E
(1763088442.633148) can0 4C7#06B00626052A04FE
(1763088442.634176) can0 4C8#05DB000000000000
(1763088442.638159) can0 189#3F029A017B0100D1
(1763088442.640545) can0 281#0000000000000000
(1763088442.641077) can0 000A0003#FF5D0005104C0000
(1763088442.641363) can0 000A0004#FFEFFFE8FFA88E02
(1763088442.643283) can0 382#EEFF060000000000
(1763088442.648159) can0 189#3F029A017B0100D1
(1763088442.648625) can0 482#0000000028340001
(1763088442.648811) can0 701#05
(1763088442.651082) can0 000A0003#FF5C0006104B0000
(1763088442.651367) can0 000A0004#FFEEFFE7FFA98E02
(1763088442.651580) can0 1A0#000000000000
(1763088442.651819) can0 682#4F532D0400003700
(1763088442.652118) can0 000A0000#0000000000000000
(1763088442.652418) can0 000A0001#0000000000000000
(1763088442.652717) can0 000A0002#0000000000000000
(1763088442.657370) can0 1A5#0000BB0D000000
(1763088442.658157) can0 189#3D0298017D0100D1
(1763088442.661088) can0 000A0003#FF5B000810490000
(1763088442.661369) can0 000A0004#FFEEFFE8FFA98E02
(1763088442.662378) can0 181#D10100207F00000D
(1763088442.662831) can0 382#F2FF120000000000
(1763088442.664093) can0 1A2#0000E70D000000
(1763088442.664323) can0 2A1#1A1D1C1B1917130F
(1763088442.668135) can0 186#B4E24C1D090B0000
(1763088442.668544) can0 189#3D0298017A0100D1
(1763088442.670438) can0 701#05
(1763088442.670824) can0 482#0000000028340001
(1763088442.671112) can0 000A0003#FF5B000910490000
(1763088442.671395) can0 000A0004#FFEEFFE8FFA98E02
(1763088442.672111) can0 1A4#0000600A000000
(1763088442.672339) can0 2A3#121A1A1918150F0D
(1763088442.678156) can0 189#3E029A01790100D1
(1763088442.681086) can0 000A0003#FF5D000C10490000
(1763088442.681368) can0 000A0004#FFF1FFE8FFAA8E02
(1763088442.684017) can0 281#0000000000000000
(1763088442.686864) can0 382#EEFF060000000000
(1763088442.688167) can0 189#3E029A01790100D1
(1763088442.688369) can0 080#
(1763088442.689519) can0 286#6400900100000000
(1763088442.691082) can0 000A0003#FF5E000C10490000
(1763088442.691367) can0 000A0004#FFF2FFE7FFAA8E02
(1763088442.691972) can0 701#05
(1763088442.692429) can0 482#0000000028340001
(1763088442.692757) can0 682#4F522E0400003700
(1763088442.695131) can0 4C4#0593064E069106C5
(1763088442.696144) can0 4C5#069D064A0665065E
(1763088442.696436) can0 188#0C00392E00000000
(1763088442.697166) can0 288#D729442900410000
(1763088442.697395) can0 4C6#0674066406510661
(1763088442.698150) can0 189#3D029701790100D1
(1763088442.698387) can0 388#2A2A2E2425000000
(1763088442.698620) can0 4C7#06AD0626052A0503
(1763088442.699132) can0 191#9D9D9D9D9D9C
(1763088442.699376) can0 4C8#05DB000000000000
(1763088442.700143) can0 192#9C9D9C9C9C9C
(1763088442.700517) can0 181#D10100207F00000D
(1763088442.701083) can0 000A0003#FF5E000A10490000
(1763088442.701367) can0 000A0004#FFF1FFE7FFAA8E02
(1763088442.701558) can0 193#9C9D9D9D9D9D
(1763088442.702127) can0 194#9C9D9D9D9D9D
(1763088442.703132) can0 195#9C9D9D9D9D9D
(1763088442.704144) can0 291#1B212423231F
(1763088442.705151) can0 292#1D232524251F
(1763088442.706123) can0 293#1D222423231E
(1763088442.707134) can0 294#1D222423231F
(1763088442.708130) can0 186#B4E24C1D090C0000
(1763088442.708322) can0 295#1C212320211C
(1763088442.708558) can0 189#3E029901770100D1
(1763088442.709063) can0 382#1700E7FF00000000
(1763088442.711080) can0 000A0003#FF5D0009104A0000
(1763088442.711367) can0 000A0004#FFF1FFE7FFAA8E02
(1763088442.714153) can0 482#0000000028340001
(1763088442.714342) can0 701#05
(1763088442.718152) can0 189#40029A01780100D1
(1763088442.721088) can0 000A0003#FF5B0008104C0000
(1763088442.721373) can0 000A0004#FFF1FFE8FFAB8E02
(1763088442.724986) can0 281#0000000000000000
(1763088442.728148) can0 189#3E029A01770100D1
(1763088442.730443) can0 1A3#4000BF09000000
(1763088442.730686) can0 382#EBFFDEFF00000000
(1763088442.731090) can0 000A0003#FF590008104B0000
(1763088442.731374) can0 000A0004#FFF1FFE8FFAA8E02
(1763088442.733377) can0 682#4F522D0400003700
(1763088442.735753) can0 701#05
(1763088442.736239) can0 482#0000000028340001
(1763088442.738154) can0 189#3E029801750100D1
(1763088442.738859) can0 181#D10100207F00000D
(1763088442.741098) can0 000A0003#FF58000810490000
(1763088442.741379) can0 000A0004#FFF1FFE8FFAA8E02
(1763088442.748129) can0 186#B4E24C1D090D0000
(1763088442.748525) can0 189#46029A01750100D1
(1763088442.751094) can0 000A0003#FF58000710480000
(1763088442.751380) can0 000A0004#FFF1FFE8FFA98E02
(1763088442.751593) can0 1A0#000000000000
(1763088442.752103) can0 000A0000#0000000000000000
(1763088442.752404) can0 000A0001#0000000000000000
(1763088442.752701) can0 000A0002#0000000000000000
(1763088442.752945) can0 382#FAFF080000000000
(1763088442.757502) can0 701#05
(1763088442.757965) can0 482#0000000028340001
(1763088442.758195) can0 189#4C029C01710100D1
(1763088442.759527) can0 1A5#0000BB0D000000
(1763088442.760164) can0 4C4#0593064E069106C5
(1763088442.761097) can0 000A0003#FF58000510450000
(1763088442.761382) can0 000A0004#FFF1FFE8FFA98E02
(1763088442.761615) can0 4C5#069D064A0665065E
(1763088442.762209) can0 4C6#0674066406510661
(1763088442.763235) can0 4C7#06AD0626052A0503
(1763088442.764242) can0 4C8#05DB000000000000
(1763088442.768143) can0 189#4D029C01700100D1
(1763088442.768865) can0 281#0000000000000000
(1763088442.771094) can0 000A0003#FF58000210440000
(1763088442.771380) can0 000A0004#FFF2FFE8FFA98E02
(1763088442.771675) can0 1A2#0000E70D000000
(1763088442.771905) can0 2A1#1A1D1C1B1917130F
(1763088442.774338) can0 682#4F532D0400003700
(1763088442.774582) can0 382#E7FFF1FF00000000
(1763088442.777164) can0 482#0000000028340001
(1763088442.777284) can0 701#05
(1763088442.777629) can0 181#D10100207F00000D
(1763088442.778143) can0 189#4C029C016F0100D1
(1763088442.779146) can0 1A4#0000600A000000
(1763088442.779374) can0 2A3#121A1A1918150F0D
(1763088442.781095) can0 000A0003#FF58000210440000
(1763088442.781376) can0 000A0004#FFF2FFE4FFA98E02
(1763088442.788149) can0 186#E1E24C1D090E0000
(1763088442.788517) can0 189#4D029D016D0100D1
(1763088442.789386) can0 080#
(1763088442.790504) can0 286#6400900100000000
(1763088442.791093) can0 000A0003#FF59000110430000
(1763088442.791377) can0 000A0004#FFF3FFE4FFA98E02
(1763088442.793942) can0 19A#00007D71727C7F7F
(1763088442.794944) can0 29A#826D847E81820000
(1763088442.796180) can0 382#1E00380000000000
(1763088442.798140) can0 189#4E029E01690100D1
(1763088442.798539) can0 701#05
(1763088442.798922) can0 482#0000000028340001
(1763088442.801104) can0 000A0003#FF58000210410000
(1763088442.801386) can0 000A0004#FFF4FFE5FFAA8E02
(1763088442.805459) can0 188#0C00002F00000000
(1763088442.806158) can0 288#D729441A00410000
(1763088442.807165) can0 388#2A2A2E2425000000
(1763088442.808140) can0 189#4D029D01690100D1
(1763088442.808328) can0 191#9D9D9D9D9D9C
(1763088442.809125) can0 192#9C9D9C9C9C9C
(1763088442.810127) can0 193#9C9D9D9D9D9D
(1763088442.811111) can0 000A0003#FF58000210400000
(1763088442.811396) can0 000A0004#FFF4FFE5FFAA8E02
(1763088442.811588) can0 194#9C9D9D9D9D9D
(1763088442.812144) can0 195#9C9D9D9D9D9D
(1763088442.812590) can0 281#0000000000000000
(1763088442.813155) can0 291#1B212423231F
(1763088442.814129) can0 292#1D232524251F
(1763088442.815131) can0 293#1D222423231E
(1763088442.815391) can0 682#4F532D0400003700
(1763088442.816143) can0 294#1D222423231F
(1763088442.817149) can0 295#1C212320211C
(1763088442.818007) can0 382#2900FEFF00000000
(1763088442.818240) can0 189#4C029D01640100D1
(1763088442.818483) can0 181#D10100207F00000D
(1763088442.818669) can0 701#05
(1763088442.818920) can0 482#0000000028340001
(1763088442.821096) can0 000A0003#FF57000210410000
(1763088442.821378) can0 000A0004#FFF4FFE5FFAA8E02
(1763088442.825209) can0 4C4#058F064F069106C0
(1763088442.826220) can0 4C5#069E064A0660065F
(1763088442.827233) can0 4C6#06720668064E0662
(1763088442.828117) can0 186#E1E24C1D090F0000
(1763088442.828351) can0 4C7#06B1062405300500
(1763088442.828583) can0 189#4C029C01650100D1
(1763088442.829281) can0 4C8#05DC000000000000
(1763088442.831099) can0 000A0003#FF55000110410000
(1763088442.831385) can0 000A0004#FFF3FFE7FFAA8E02
(1763088442.831609) can0 1A3#4000BF09000000
(1763088442.838140) can0 189#4D029F01640100D1
(1763088442.839749) can0 382#0800F8FF00000000
(1763088442.841099) can0 000A0003#FF55FFFE10430000
(1763088442.841381) can0 000A0004#FFF4FFE6FFAB8E02
(1763088442.842145) can0 701#05
(1763088442.842595) can0 482#0000000028340001
(1763088442.848135) can0 189#4E029E01630100D1
(1763088442.851100) can0 000A0003#FF55FFFE10450000
(1763088442.851384) can0 000A0004#FFF3FFE6FFAA8E02
(1763088442.851595) can0 1A0#000000000000
(1763088442.852109) can0 000A0000#0000000000000000
(1763088442.852409) can0 000A0001#0000000000000000
(1763088442.852709) can0 000A0002#0000000000000000
(1763088442.856148) can0 281#0000000000000000
(1763088442.856569) can0 682#4F532D0400003700
(1763088442.856924) can0 181#D10100207F00000D
(1763088442.858136) can0 189#4D029C01610100D1
(1763088442.861106) can0 000A0003#FF53FFFF10480000
(1763088442.861390) can0 000A0004#FFF2FFE7FFAA8E02
(1763088442.861507) can0 701#05
(1763088442.861730) can0 1A5#0000BB0D000000
(1763088442.861977) can0 382#0C00010000000000
(1763088442.867073) can0 482#0000000028340001
(1763088442.868117) can0 186#F0E24C1D09000000
(1763088442.868523) can0 189#4D029C01610100D1
(1763088442.871103) can0 000A0003#FF520001104B0000
(1763088442.871385) can0 000A0004#FFEEFFE8FFAB8E02
(1763088442.878133) can0 189#4D029D01610100D1
(1763088442.879247) can0 1A2#0000E70D000000
(1763088442.879475) can0 2A1#1A1D1C1B1917130F
(1763088442.881107) can0 000A0003#FF52FFFF104F0000
(1763088442.881393) can0 000A0004#FFEFFFE9FFAB8E02
(1763088442.883333) can0 701#05
(1763088442.883893) can0 382#EAFF190000000000
(1763088442.886197) can0 1A4#0000600A000000
(1763088442.886423) can0 2A3#121A1A1918150F0D
(1763088442.888152) can0 189#4D029C01600100D1
(1763088442.888385) can0 080#
(1763088442.889118) can0 482#0000000028340001
(1763088442.889535) can0 286#6400900100000000
(1763088442.890258) can0 4C4#058F064F069106C0
(1763088442.891101) can0 000A0003#FF52FFFE10520000
(1763088442.891384) can0 000A0004#FFEEFFE8FFAA8E02
(1763088442.891619) can0 4C5#069E064A0660065F
(1763088442.892282) can0 4C6#0672066806510662
(1763088442.893299) can0 4C7#06B1062705300500
(1763088442.894327) can0 4C8#05DC000000000000
(1763088442.896422) can0 188#0C00BC2E00000000
(1763088442.897179) can0 288#D729442900410000
(1763088442.897420) can0 181#D10100207F00000D
(1763088442.897660) can0 682#4F522D0400003700
(1763088442.897915) can0 281#0000000000000000
(1763088442.898150) can0 189#4D029C01600100D1
(1763088442.898385) can0 388#2A2A2E2425000000
(1763088442.899147) can0 191#9D9D9D9D9D9C
(1763088442.900127) can0 192#9C9D9D9C9C9C
(1763088442.901104) can0 000A0003#FF53FFFB10520000
(1763088442.901387) can0 000A0004#FFEEFFE9FFAA8E02
(1763088442.901577) can0 193#9C9D9D9D9D9D
(1763088442.902141) can0 194#9C9D9D9D9D9D
(1763088442.903148) can0 195#9C9D9D9D9D9D
(1763088442.904127) can0 291#1B212423231F
(1763088442.905137) can0 292#1D232524251F
(1763088442.906135) can0 293#1D222423231E
(1763088442.907151) can0 294#1D222423231F
(1763088442.907788) can0 701#05
(1763088442.908132) can0 186#DAE24C1D09010000
(1763088442.908324) can0 295#1C212320211C
(1763088442.908556) can0 189#4C029C015E0100D1
(1763088442.908803) can0 382#1700040000000000
(1763088442.910862) can0 482#0000000028340001
(1763088442.911148) can0 000A0003#FF54FFF810520000
(1763088442.911434) can0 000A0004#FFEEFFE8FFAA8E02
(1763088442.918136) can0 189#4F029F015E0100D1
(1763088442.921106) can0 000A0003#FF55FFF710510000
(1763088442.921389) can0 000A0004#FFEDFFE6FFAB8E02
(1763088442.928133) can0 189#4F029F015F0100D1
(1763088442.929863) can0 382#F3FFF4FF00000000
(1763088442.930052) can0 701#05
(1763088442.931102) can0 000A0003#FF56FFF610510000
(1763088442.931391) can0 000A0004#FFEDFFE5FFAB8E02
(1763088442.932462) can0 1A3#4000BF09000000
(1763088442.932917) can0 482#0000000028340001
(1763088442.935317) can0 181#D10100207F00000D
(1763088442.938130) can0 189#4D029D015F0100D1
(1763088442.938365) can0 682#4F532D0400003700
(1763088442.940917) can0 281#0000000000000000
(1763088442.941209) can0 000A0003#FF53FFF410500000
(1763088442.941493) can0 000A0004#FFEDFFE6FFAB8E02
(1763088442.948116) can0 186#E8E24C1D09020000
(1763088442.948544) can0 189#4E029F015D0100D1
(1763088442.951113) can0 000A0003#FF50FFF4104E0000
(1763088442.951399) can0 000A0004#FFEEFFE6FFAB8E02
(1763088442.951611) can0 1A0#000000000000
(1763088442.951726) can0 701#05
(1763088442.952121) can0 000A0000#0000000000000000
(1763088442.952422) can0 000A0001#0000000000000000
(1763088442.952718) can0 000A0002#0000000000000000
(1763088442.954432) can0 382#FAFF080000000000
(1763088442.954873) can0 482#0000000028340001
(1763088442.955284) can0 4C4#058E064A069106C2
(1763088442.956298) can0 4C5#06A0064A065F065B
(1763088442.957311) can0 4C6#067106670651065E
(1763088442.958125) can0 189#4D029C015E0100D1
(1763088442.958358) can0 4C7#06B0062A052F04FE
(1763088442.959355) can0 4C8#05DB000000000000
(1763088442.961107) can0 000A0003#FF52FFF6104A0000
(1763088442.961394) can0 000A0004#FFEFFFE5FFAB8E02
(1763088442.963881) can0 1A5#0000BB0D000000
(1763088442.968123) can0 189#4F029E015E0100D1
(1763088442.971119) can0 000A0003#FF53FFF810480000
(1763088442.971403) can0 000A0004#FFF0FFE5FFAC8E02
(1763088442.973304) can0 701#05
(1763088442.973789) can0 181#D10100207F00000D
(1763088442.974138) can0 482#0000000028340001
(1763088442.974478) can0 382#0700160000000000
(1763088442.978128) can0 189#4E029C015C0100D1
(1763088442.979013) can0 682#4F532D0400003700
(1763088442.981113) can0 000A0003#FF54FFFA10450000
(1763088442.981397) can0 000A0004#FFF1FFE5FFAC8E02
(1763088442.981966) can0 281#0000000000000000
(1763088442.982966) can0 19A#00007E6D6980827F
(1763088442.983936) can0 29A#7F6A828085810000
(1763088442.986810) can0 1A2#0000E70D000000
(1763088442.987040) can0 2A1#1A1D1C1B1917130F
(1763088442.988131) can0 186#E1E24C1D09030000
(1763088442.988535) can0 189#4D029D015D0100D1
(1763088442.989370) can0 080#
(1763088442.990521) can0 286#6400900100000000
(1763088442.991113) can0 000A0003#FF56FFFB10430000
(1763088442.991397) can0 000A0004#FFF4FFE6FFAB8E02
(1763088442.993223) can0 1A4#0000600A000000
(1763088442.993450) can0 2A3#121A1A1918150F0D
(1763088442.995140) can0 701#05
(1763088442.995512) can0 382#02001E0000000000
(1763088442.995955) can0 482#0000000028340001
(1763088442.996416) can0 188#0C003B2F00000000
(1763088442.997167) can0 288#D729442900410000
(1763088442.998121) can0 189#4E029D015C0100D1
(1763088442.998358) can0 388#2A2A2E2425000000
(1763088442.999109) can0 191#9D9D9D9D9D9C
(1763088443.000118) can0 192#9C9D9D9C9C9C
(1763088443.001119) can0 000A0003#FF56FFFC10420000
(1763088443.001402) can0 000A0004#FFF5FFE7FFAB8E02
(1763088443.001592) can0 193#9C9D9D9D9D9D
(1763088443.002147) can0 194#9C9D9D9D9D9D
(1763088443.003124) can0 195#9C9D9D9D9D9D
(1763088443.004134) can0 291#1B212423231F
(1763088443.005143) can0 292#1D232524251F
(1763088443.006121) can0 293#1D222423231E
(1763088443.007135) can0 294#1D222423231F
(1763088443.008116) can0 189#4D029D015C0100D1
(1763088443.008309) can0 295#1C212320211C
(1763088443.011115) can0 000A0003#FF56FFFC10410000
(1763088443.011402) can0 000A0004#FFF5FFE7FFAB8E02
(1763088443.011878) can0 181#D10100207F00000D
(1763088443.016983) can0 701#05
(1763088443.017454) can0 482#0000000028340001
(1763088443.017794) can0 382#04000A0000000000
(1763088443.018127) can0 189#4D029E015C0100D1
(1763088443.020322) can0 4C4#0589064A069106C5
(1763088443.021113) can0 000A0003#FF57FFFE10430000
(1763088443.021398) can0 000A0004#FFF4FFE7FFAB8E02
(1763088443.021633) can0 4C5#069D064A065F0661
(1763088443.022350) can0 4C6#06710661064E065E
(1763088443.022903) can0 682#4F532D0400003700
(1763088443.023363) can0 4C7#06B3062A052604FE
(1763088443.024392) can0 4C8#05DB000000000000
(1763088443.028111) can0 186#DAE24C1D09040000
(1763088443.028360) can0 281#0000000000000000
(1763088443.028592) can0 189#4D029E015C0100D1
(1763088443.031115) can0 000A0003#FF58FFFF10440000
(1763088443.031399) can0 000A0004#FFF4FFE6FFAB8E02
(1763088443.033489) can0 1A3#4000BF09000000
(1763088443.038119) can0 189#4D029C015C0100D1
(1763088443.039292) can0 382#EFFFE8FF00000000
(1763088443.039414) can0 701#05
(1763088443.039761) can0 482#0000000028340001
(1763088443.041121) can0 000A0003#FF59FFFF10450000
(1763088443.041403) can0 000A0004#FFF4FFE6FFAB8E02
(1763088443.048118) can0 189#4D029E015D0100D1
(1763088443.050016) can0 181#D10100207F00000D
(1763088443.051118) can0 000A0003#FF59FFFF10460000
(1763088443.051403) can0 000A0004#FFF3FFE7FFAB8E02
(1763088443.051616) can0 1A0#000000000000
(1763088443.052129) can0 000A0000#0000000000000000
(1763088443.052429) can0 000A0001#0000000000000000
(1763088443.052727) can0 000A0002#0000000000000000
(1763088443.058120) can0 189#4D029F015E0100D1
(1763088443.060585) can0 701#05
(1763088443.061043) can0 382#0C00020000000000
(1763088443.061322) can0 000A0003#FF59FFFE10470000
(1763088443.061609) can0 000A0004#FFF3FFE5FFAB8E02
(1763088443.061854) can0 482#0000000028340001
(1763088443.066069) can0 1A5#0000BB0D000000
(1763088443.066597) can0 682#4F522D0400003700
(1763088443.068101) can0 186#E1E24C1D09050000
(1763088443.068536) can0 189#4D029C015D0100D1
(1763088443.069357) can0 281#0000000000000000
(1763088443.071121) can0 000A0003#FF59FFFD10490000
(1763088443.071409) can0 000A0004#FFF3FFE5FFAB8E02
(1763088443.078117) can0 189#4D029D015D0100D1
(1763088443.080152) can0 701#05
(1763088443.080597) can0 382#0500280000000000
(1763088443.081126) can0 000A0003#FF59FFFC104B0000
(1763088443.081409) can0 000A0004#FFF2FFE4FFAB8E02
(1763088443.085363) can0 4C4#0589064A069106C5
(1763088443.085722) can0 482#0000000028340001
(1763088443.086379) can0 4C5#069D064A065F0661
(1763088443.087390) can0 4C6#06710661064E065E
(1763088443.088130) can0 189#4D029E015C0100D1
(1763088443.088406) can0 4C7#06B3062A052604FE
(1763088443.088510) can0 080#
(1763088443.088753) can0 181#D10100207F00000D
(1763088443.089437) can0 4C8#05DB000000000000
(1763088443.089679) can0 286#6400900100000000
(1763088443.091125) can0 000A0003#FF5AFFF9104F0000
(1763088443.091409) can0 000A0004#FFF1FFE4FFAB8E02
(1763088443.094385) can0 1A2#0000E70D000000
(1763088443.094614) can0 2A1#1A1D1C1B1917130F
(1763088443.096441) can0 188#0C00B82C00000000
(1763088443.097228) can0 288#D729442900410000
(1763088443.098128) can0 189#4D029E015B0100D1
(1763088443.098347) can0 388#2A2A2E2425000000
(1763088443.099131) can0 191#9D9D9D9D9D9C
(1763088443.100138) can0 192#9C9D9C9C9C9C
(1763088443.100363) can0 1A4#0000600A000000
(1763088443.100591) can0 2A3#121A1A1918150F0D
(1763088443.101123) can0 000A0003#FF58FFF9104E0000
(1763088443.101409) can0 000A0004#FFF1FFE3FFAC8E02
(1763088443.101599) can0 193#9C9D9D9D9D9D
(1763088443.101715) can0 701#05
(1763088443.102097) can0 382#0500CFFF00000000
(1763088443.102288) can0 194#9C9D9D9D9D9D
(1763088443.103128) can0 195#9C9D9D9D9D9D
(1763088443.104138) can0 291#1B212423231F
(1763088443.105149) can0 292#1D232524251F
(1763088443.106146) can0 293#1D222423231E
(1763088443.107130) can0 294#1D222423231F
(1763088443.107474) can0 482#0000000028340001
(1763088443.107800) can0 682#4F532D0400003700
(1763088443.108109) can0 186#CBE24C1D09060000
(1763088443.108301) can0 295#1B212320211D
(1763088443.108591) can0 189#4C029C015A0100D1
(1763088443.111129) can0 000A0003#FF57FFFA104E0000
(1763088443.111412) can0 000A0004#FFF1FFE3FFAB8E02
(1763088443.115543) can0 281#0000000000000000
(1763088443.118114) can0 189#4D029F015D0100D1
(1763088443.121125) can0 000A0003#FF57FFFB104C0000
(1763088443.121405) can0 000A0004#FFF2FFE2FFAB8E02
(1763088443.123472) can0 701#05
(1763088443.123977) can0 382#EFFFE8FF00000000
(1763088443.126671) can0 482#0000000028340001
(1763088443.127036) can0 181#D10100207F00000D
(1763088443.128108) can0 189#4D029E015D0100D1
(1763088443.131131) can0 000A0003#FF59FFFC10490000
(1763088443.131418) can0 000A0004#FFF3FFDDFFAB8E02
(1763088443.134485) can0 1A3#4000BF09000000
(1763088443.138110) can0 189#4E029D015C0100D1
(1763088443.141132) can0 000A0003#FF5BFFFC10470000
(1763088443.141417) can0 000A0004#FFF3FFDFFFAB8E02
(1763088443.145331) can0 701#05
(1763088443.145803) can0 382#1B00F1FF00000000
(1763088443.148093) can0 186#E8E24C1D09070000
(1763088443.148433) can0 482#0000000028340001
(1763088443.148663) can0 189#4E029E015D0100D1
(1763088443.148902) can0 682#4F532D0400003700
(1763088443.150407) can0 4C4#0584064A069406C8
(1763088443.151129) can0 000A0003#FF5CFFFC10450000
(1763088443.151414) can0 000A0004#FFF6FFDFFFAA8E02
(1763088443.151626) can0 1A0#000000000000
(1763088443.151860) can0 4C5#069D064306620661
(1763088443.152162) can0 000A0000#0000000000000000
(1763088443.152460) can0 000A0001#0000000000000000
(1763088443.152758) can0 000A0002#0000000000000000
(1763088443.152988) can0 4C6#06710661064B0661
(1763088443.153450) can0 4C7#06B3062D052104F9
(1763088443.154477) can0 4C8#05DB000000000000
(1763088443.156744) can0 281#0000000000000000
(1763088443.158105) can0 189#4C029D015C0100D1
(1763088443.161126) can0 000A0003#FF5DFFFB10440000
(1763088443.161411) can0 000A0004#FFF6FFDFFFAA8E02
(1763088443.167077) can0 701#05
(1763088443.167526) can0 382#0000000000000000
(1763088443.167872) can0 181#D10100207F00000D
(1763088443.168112) can0 189#4D029C015E0100D1
(1763088443.168334) can0 1A5#0000BB0D000000
(1763088443.168581) can0 482#0000000028340001
(1763088443.171130) can0 000A0003#FF5FFFFA10420000
(1763088443.171414) can0 000A0004#FFF6FFE0FFAA8E02
(1763088443.178112) can0 189#4D029F01600100D1
(1763088443.181137) can0 000A0003#FF5FFFF610410000
(1763088443.181424) can0 000A0004#FFF5FFE0FFAB8E02
(1763088443.186532) can0 701#05
(1763088443.187007) can0 382#E4FF040000000000
(1763088443.188117) can0 186#DAE24C1D09080000
(1763088443.188520) can0 189#4D029E015D0100D1
(1763088443.188961) can0 19A#00007E7A6D807F7D
(1763088443.189387) can0 080#
(1763088443.189965) can0 29A#8174828082830000
(1763088443.190537) can0 286#6400900100000000
(1763088443.191133) can0 000A0003#FF5FFFF410400000
(1763088443.191419) can0 000A0004#FFF5FFDFFFAA8E02
(1763088443.192195) can0 682#4F532D0400003700
(1763088443.192663) can0 482#0000000028340001
(1763088443.196416) can0 188#0C008E3000000000
(1763088443.197324) can0 288#D729442A00410000
(1763088443.198103) can0 189#4D029E015D0100D1
(1763088443.198341) can0 388#2A2A2E2425000000
(1763088443.199137) can0 191#9D9D9D9D9D9C
(1763088443.200147) can0 192#9C9D9C9C9C9C
(1763088443.200399) can0 281#0000000000000000
(1763088443.201137) can0 000A0003#FF5FFFF3103E0000
(1763088443.201420) can0 000A0004#FFF8FFDFFFAA8E02
(1763088443.201610) can0 193#9C9D9D9D9D9D
(1763088443.201960) can0 1A2#0000E70D000000
(1763088443.202154) can0 194#9C9D9D9D9D9D
(1763088443.202382) can0 2A1#1A1D1C1B1917130F
(1763088443.203120) can0 195#9C9D9D9D9D9D
(1763088443.204131) can0 291#1B212423231F
(1763088443.205160) can0 292#1D232524251F
(1763088443.206126) can0 293#1D222423231E
(1763088443.207138) can0 294#1D222423231F
(1763088443.207365) can0 1A4#0000600A000000
(1763088443.207594) can0 2A3#121A1A1918150F0D
(1763088443.208102) can0 189#4B029C01590100D1
(1763088443.208294) can0 295#1B212320211D
(1763088443.208411) can0 701#05
(1763088443.208697) can0 382#1300170000000000
(1763088443.208940) can0 181#D10100207F00000D
(1763088443.211132) can0 000A0003#FF5EFFF4103C0000
(1763088443.211415) can0 000A0004#FFF6FFDEFFAB8E02
(1763088443.213967) can0 482#0000000028340001
(1763088443.215440) can0 4C4#0584064A069406C8
(1763088443.216454) can0 4C5#069D064306620661
(1763088443.217468) can0 4C6#06710661064B0661
(1763088443.218104) can0 189#4E029E015C0100D1
(1763088443.218482) can0 4C7#06B3062D052104F9
(1763088443.219511) can0 4C8#05DB000000000000
(1763088443.221133) can0 000A0003#FF5EFFF3103C0000
(1763088443.221420) can0 000A0004#FFF6FFDFFFAB8E02
(1763088443.228089) can0 186#F0E24C1D09090000
(1763088443.228548) can0 189#4D029F015C0100D1
(1763088443.230340) can0 382#0C00010000000000
(1763088443.230525) can0 701#05
(1763088443.231129) can0 000A0003#FF5DFFF1103B0000
(1763088443.231420) can0 000A0004#FFF9FFE0FFAA8E02
(1763088443.235461) can0 1A3#4000BF09000000
(1763088443.235796) can0 482#0000000028340001
(1763088443.236125) can0 682#4F532D0400003700
(1763088443.238103) can0 189#4D029F015C0100D1
(1763088443.241131) can0 000A0003#FF5DFFF1103B0000
(1763088443.241419) can0 000A0004#FFF8FFE0FFAB8E02
(1763088443.243873) can0 281#0000000000000000
(1763088443.248103) can0 189#4F029E015D0100D1
(1763088443.249462) can0 181#D10100207F00000D
(1763088443.251134) can0 000A0003#FF5BFFF3103A0000
(1763088443.251421) can0 000A0004#FFF7FFE0FFAC8E02
(1763088443.251633) can0 1A0#000000000000
(1763088443.251826) can0 701#05
(1763088443.252147) can0 000A0000#0000000000000000
(1763088443.252445) can0 000A0001#0000000000000000
(1763088443.252743) can0 000A0002#0000000000000000
(1763088443.252990) can0 382#F9FFEBFF00000000
(1763088443.257436) can0 482#0000000028340001
(1763088443.258099) can0 189#4E029E015C0100D1
(1763088443.261145) can0 000A0003#FF5BFFF610390000
(1763088443.261431) can0 000A0004#FFF7FFE0FFAC8E02
(1763088443.268084) can0 186#E1E24C1D090A0000
(1763088443.268556) can0 189#4E029E015F0100D1
(1763088443.270411) can0 1A5#0000BB0D000000
(1763088443.271140) can0 000A0003#FF5BFFFC10390000
(1763088443.271428) can0 000A0004#FFF7FFE1FFAC8E02
(1763088443.273567) can0 701#05
(1763088443.274033) can0 382#F9FFEBFF00000000
(1763088443.278100) can0 189#4E029F015D0100D1
(1763088443.279506) can0 482#0000000028340001
(1763088443.279829) can0 682#4F532D0400003700
(1763088443.280483) can0 4C4#05840646069106C8
(1763088443.281140) can0 000A0003#FF5AFFFF10350000
(1763088443.281425) can0 000A0004#FFF5FFE2FFAD8E02
(1763088443.281655) can0 4C5#069D0643065F065E
(1763088443.282511) can0 4C6#066F0664064E065B
(1763088443.283526) can0 4C7#06B0062A051D04FE
(1763088443.284555) can0 4C8#05DB000000000000
(1763088443.287657) can0 181#D10100207F00000D
(1763088443.287913) can0 281#0000000000000000
(1763088443.288146) can0 189#4D029D015E0100D1
(1763088443.288388) can0 080#
(1763088443.289539) can0 286#6400900100000000
(1763088443.291144) can0 000A0003#FF59000110300000
(1763088443.291428) can0 000A0004#FFF5FFE6FFAD8E02
(1763088443.296415) can0 188#0C00DE2D00000000
(1763088443.297174) can0 288#D729442900410000
(1763088443.298095) can0 189#4D029F015D0100D1
(1763088443.298332) can0 388#2A2A2E2425000000
(1763088443.298449) can0 701#05
(1763088443.298694) can0 382#2D00270000000000
(1763088443.299144) can0 191#9D9D9D9D9D9C
(1763088443.300154) can0 192#9C9D9C9C9C9C
(1763088443.301148) can0 000A0003#FF580001102D0000
(1763088443.301428) can0 000A0004#FFF5FFE6FFAD8E02
(1763088443.301618) can0 193#9C9D9D9D9D9D
(1763088443.301865) can0 482#0000000028340001
(1763088443.302140) can0 194#9C9D9D9D9D9D
(1763088443.303145) can0 195#9C9D9D9D9D9D
(1763088443.304155) can0 291#1B212423231F
(1763088443.305132) can0 292#1D232524251F
(1763088443.306135) can0 293#1D222423231E
(1763088443.307147) can0 294#1D222423231F
(1763088443.308077) can0 186#E1E24C1D090B0000
(1763088443.308271) can0 295#1C212320211D
(1763088443.308567) can0 189#4D029D015D0100D1
(1763088443.309516) can0 1A2#0000E70D000000
(1763088443.309745) can0 2A1#1A1D1C1B1917130F
(1763088443.311144) can0 000A0003#FF57000110280000
(1763088443.311429) can0 000A0004#FFF9FFE7FFAD8E02
(1763088443.314273) can0 1A4#0000600A000000
(1763088443.314497) can0 2A3#121A1A1918150F0D
(1763088443.318096) can0 189#4D029D015F0100D1
(1763088443.320327) can0 382#FCFFF6FF00000000
(1763088443.320516) can0 701#05
(1763088443.320886) can0 682#4F532D0400003700
(1763088443.321177) can0 000A0003#FF55000210260000
(1763088443.321466) can0 000A0004#FFF9FFE7FFAD8E02
(1763088443.323043) can0 482#0000000028340001
(1763088443.328095) can0 189#4D029F015D0100D1
(1763088443.328621) can0 181#D10100207F00000D
(1763088443.331141) can0 000A0003#FF54000210250000
(1763088443.331427) can0 000A0004#FFF8FFE7FFAD8E02
(1763088443.331679) can0 281#0000000000000000
(1763088443.336457) can0 1A3#4000BF09000000
(1763088443.338094) can0 189#4E029E015D0100D1
(1763088443.341152) can0 000A0003#FF52000410250000
(1763088443.341438) can0 000A0004#FFFAFFE7FFAC8E02
(1763088443.341921) can0 701#05
(1763088443.342501) can0 382#EBFFFCFF00000000
(1763088443.342866) can0 482#0000000028340001
(1763088443.345517) can0 4C4#05890642069406C5
(1763088443.346531) can0 4C5#069D0644065F0661
(1763088443.347544) can0 4C6#066C066106480658
(1763088443.348075) can0 186#DAE24C1D090C0000
(1763088443.348543) can0 189#4D029E015C0100D1
(1763088443.348775) can0 4C7#06B30634052604FE
(1763088443.349593) can0 4C8#05DB000000000000
(1763088443.351151) can0 000A0003#FF52000610260000
(1763088443.351439) can0 000A0004#FFFAFFE7FFAC8E02
(1763088443.351651) can0 1A0#000000000000
(1763088443.352159) can0 000A0000#0000000000000000
(1763088443.352457) can0 000A0001#0000000000000000
(1763088443.352756) can0 000A0002#0000000000000000
(1763088443.358091) can0 189#4D029D015C0100D1
(1763088443.361147) can0 000A0003#FF52000510260000
(1763088443.361429) can0 000A0004#FFFAFFE8FFAB8E02
(1763088443.361668) can0 682#4F532D0400003700
(1763088443.364006) can0 482#0000000028340001
(1763088443.364127) can0 701#05
(1763088443.364378) can0 382#1300160000000000
(1763088443.368094) can0 189#4D029E015F0100D1
(1763088443.369583) can0 181#D10100207F00000D
(1763088443.371152) can0 000A0003#FF53000410260000
(1763088443.371437) can0 000A0004#FFFAFFE8FFAB8E02
(1763088443.372586) can0 1A5#0000BB0D000000
(1763088443.374940) can0 281#0000000000000000
(1763088443.378117) can0 189#4E029F015E0100D1
(1763088443.381189) can0 000A0003#FF52000310270000
(1763088443.381451) can0 000A0004#FFF9FFE9FFAB8E02
(1763088443.385903) can0 382#F6FFFEFF00000000
(1763088443.386063) can0 701#05
(1763088443.386330) can0 482#0000000028340001
(1763088443.388098) can0 186#E8E24C1D090D0000
(1763088443.388533) can0 189#4D029C015A0100D1
(1763088443.389403) can0 080#
(1763088443.390520) can0 286#6400900100000000
(1763088443.391150) can0 000A0003#FF510004102A0000
(1763088443.391436) can0 000A0004#FFF8FFE9FFAB8E02
(1763088443.394954) can0 19A#00007E69777F837F
(1763088443.395960) can0 29A#7F74838082840000
(1763088443.396451) can0 188#0C00272E00000000
(1763088443.397186) can0 288#D729442900410000
(1763088443.398091) can0 189#4D029E015C0100D1
(1763088443.398325) can0 388#2A2A2E2425000000
(1763088443.399153) can0 191#9D9D9D9D9D9C
(1763088443.400134) can0 192#9C9D9C9C9C9C
(1763088443.401154) can0 000A0003#FF510004102D0000
(1763088443.401439) can0 000A0004#FFF7FFE9FFAB8E02
(1763088443.401630) can0 193#9C9D9D9D9D9D
(1763088443.402148) can0 194#9C9D9D9D9D9D
(1763088443.402480) can0 682#4F532D0400003700
(1763088443.403154) can0 195#9C9D9D9D9D9D
(1763088443.404134) can0 291#1B212423231F
(1763088443.405142) can0 292#1D232524251F
(1763088443.406141) can0 293#1D222423231E
(1763088443.407154) can0 294#1D222423231F
(1763088443.407799) can0 181#D10100207F00000D
(1763088443.407919) can0 701#05
(1763088443.408149) can0 189#4D029C015D0100D1
(1763088443.408343) can0 295#1C202320211C
(1763088443.408590) can0 482#0000000028340001
(1763088443.408840) can0 382#1700220000000000
(1763088443.410561) can0 4C4#05890642069406C5
(1763088443.411155) can0 000A0003#FF510005102F0000
(1763088443.411444) can0 000A0004#FFF6FFEBFFAA8E02
(1763088443.411675) can0 4C5#069D0644065F0661
(1763088443.412589) can0 4C6#066C066106480658
(1763088443.413605) can0 4C7#06B30634052604FE
(1763088443.414633) can0 4C8#05DB000000000000
(1763088443.417070) can0 1A2#0000E70D000000
(1763088443.417300) can0 2A1#1A1D1C1B1917130F
(1763088443.418085) can0 189#4D029C015C0100D1
(1763088443.418627) can0 281#0000000000000000
(1763088443.421149) can0 000A0003#FF52000510320000
(1763088443.421435) can0 000A0004#FFF6FFEBFFAA8E02
(1763088443.421660) can0 1A4#0000600A000000
(1763088443.421889) can0 2A3#121A1A1918150F0D
(1763088443.428071) can0 186#E1E24C1D090E0000
(1763088443.428535) can0 189#4E029F015D0100D1
(1763088443.429416) can0 701#05
(1763088443.429904) can0 482#0000000028340001
(1763088443.430243) can0 382#FCFFF6FF00000000
(1763088443.431157) can0 000A0003#FF52000710350000
(1763088443.431439) can0 000A0004#FFF5FFEAFFA98E02
(1763088443.437476) can0 1A3#4000BF09000000
(1763088443.438080) can0 189#4D029E015D0100D1
(1763088443.441153) can0 000A0003#FF52000810360000
(1763088443.441440) can0 000A0004#FFF5FFEBFFAA8E02
(1763088443.443303) can0 682#4F532D0400003700
(1763088443.445935) can0 181#D10100207F00000D
(1763088443.448085) can0 189#4D029E015D0100D1
(1763088443.451161) can0 000A0003#FF52000A10360000
(1763088443.451443) can0 000A0004#FFF5FFECFFAA8E02
(1763088443.451656) can0 1A0#000000000000
(1763088443.451772) can0 701#05
(1763088443.452054) can0 482#0000000028340001
(1763088443.452354) can0 000A0000#0000000000000000
(1763088443.452654) can0 000A0001#0000000000000000
(1763088443.452952) can0 000A0002#0000000000000000
(1763088443.453202) can0 382#1000EFFF00000000
(1763088443.458089) can0 189#4E029F01600100D1
(1763088443.461167) can0 000A0003#FF52000B10380000
(1763088443.461449) can0 000A0004#FFF1FFECFFAA8E02
(1763088443.462314) can0 281#0000000000000000
(1763088443.468068) can0 186#F0E24C1D090F0000
(1763088443.468548) can0 189#4D029E015F0100D1
(1763088443.471165) can0 000A0003#FF52000B103C0000
(1763088443.471452) can0 000A0004#FFEEFFEBFFAB8E02
(1763088443.472994) can0 701#05
(1763088443.473367) can0 382#29001B0000000000
(1763088443.473803) can0 482#0000000028340001
(1763088443.474770) can0 1A5#0000BB0D000000
(1763088443.475579) can0 4C4#057F063B069406C5
(1763088443.476594) can0 4C5#06A0063D065F0661
(1763088443.477610) can0 4C6#0674066106450655
(1763088443.478082) can0 189#4E029D015C0100D1
(1763088443.478620) can0 4C7#06B80633051D04F4
(1763088443.479651) can0 4C8#05DB000000000000
(1763088443.481158) can0 000A0003#FF51000B103E0000
(1763088443.481440) can0 000A0004#FFEEFFECFFAA8E02
(1763088443.484263) can0 682#4F532D0400003700
(1763088443.484617) can0 181#D10100207F00000D
(1763088443.488098) can0 189#4D029E015E0100D1
(1763088443.488405) can0 080#
(1763088443.489526) can0 286#6400900100000000
(1763088443.491164) can0 000A0003#FF4F000B10410000
(1763088443.491447) can0 000A0004#FFEDFFECFFAB8E02
(1763088443.494740) can0 701#05
(1763088443.495217) can0 482#0000000028340001
(1763088443.495554) can0 382#DFFFF9FF00000000
(1763088443.496448) can0 188#0C00C23100000000
(1763088443.497195) can0 288#D729442A00410000
(1763088443.498078) can0 189#4E029C015D0100D1
(1763088443.498314) can0 388#2A2A2E2425000000
(1763088443.499132) can0 191#9D9D9D9D9D9C
(1763088443.500142) can0 192#9C9D9C9C9C9C
(1763088443.501167) can0 000A0003#FF4F000B10440000
(1763088443.501451) can0 000A0004#FFEEFFECFFAA8E02
(1763088443.501639) can0 193#9C9D9D9D9D9D
(1763088443.502155) can0 194#9C9D9D9D9D9D
(1763088443.503130) can0 195#9C9D9D9D9D9D
(1763088443.504143) can0 291#1B212423231F
(1763088443.505150) can0 292#1D232524251F
(1763088443.506139) can0 281#0000000000000000
(1763088443.506329) can0 293#1D222423231E
(1763088443.507163) can0 294#1D222423231F
(1763088443.508065) can0 186#E1E24C1D09000000
(1763088443.508259) can0 295#1C202320211C
(1763088443.508581) can0 189#4D029C015C0100D1
(1763088443.511163) can0 000A0003#FF4F000A10480000
(1763088443.511449) can0 000A0004#FFEEFFEBFFAB8E02
(1763088443.513950) can0 701#05
(1763088443.514323) can0 382#2200240000000000
(1763088443.514761) can0 482#0000000028340001
(1763088443.518080) can0 189#4D029D015D0100D1
(1763088443.521166) can0 000A0003#FF4F000A104A0000
(1763088443.521450) can0 000A0004#FFEEFFEBFFAA8E02
(1763088443.522512) can0 181#D10100207F00000D
(1763088443.524630) can0 1A2#0000E70D000000
(1763088443.524860) can0 2A1#1A1D1C1B1917130F
(1763088443.525239) can0 682#4F532D0400003700
(1763088443.528076) can0 189#4E029E015E0100D1
(1763088443.528307) can0 1A4#0000600A000000
(1763088443.528534) can0 2A3#121A1A1918150F0D
(1763088443.531167) can0 000A0003#FF4E000A104E0000
(1763088443.531454) can0 000A0004#FFEFFFEBFFAA8E02
(1763088443.535698) can0 701#05
(1763088443.536176) can0 482#0000000028340001
(1763088443.536517) can0 382#0F000C0000000000
(1763088443.538076) can0 189#4C029D015E0100D1
(1763088443.538489) can0 1A3#4000BF09000000
(1763088443.540582) can0 4C4#057F063B069406C5
(1763088443.541165) can0 000A0003#FF4C000A10510000
(1763088443.541451) can0 000A0004#FFEFFFECFFAA8E02
(1763088443.541685) can0 4C5#06A0063D065F0661
(1763088443.542611) can0 4C6#0674066106450655
(1763088443.543625) can0 4C7#06B80633051D04F4
(1763088443.544654) can0 4C8#05DB000000000000
(1763088443.548060) can0 186#E1E24C1D09010000
(1763088443.548562) can0 189#4D029C015F0100D1
(1763088443.551170) can0 000A0003#FF48000910520000
(1763088443.551456) can0 000A0004#FFEFFFECFFAA8E02
(1763088443.551667) can0 1A0#000000000000
(1763088443.552180) can0 000A0000#0000000000000000
(1763088443.552480) can0 000A0001#0000000000000000
(1763088443.552777) can0 000A0002#0000000000000000
(1763088443.553037) can0 281#0000000000000000
(1763088443.555383) can0 482#0000000028340001
(1763088443.555570) can0 701#05
(1763088443.555825) can0 382#0F000C0000000000
(1763088443.558074) can0 189#4D029C015E0100D1
(1763088443.560616) can0 181#D10100207F00000D
(1763088443.561185) can0 000A0003#FF43000810540000
(1763088443.561470) can0 000A0004#FFEFFFEBFFA98E02
(1763088443.566173) can0 682#4F522D0400003700
(1763088443.568076) can0 189#4E029D015D0100D1
(1763088443.571168) can0 000A0003#FF42000910570000
(1763088443.571452) can0 000A0004#FFEBFFEBFFA88E02
(1763088443.576661) can0 701#05
(1763088443.576958) can0 1A5#0000BB0D000000
(1763088443.577202) can0 482#0000000028340001
(1763088443.577556) can0 382#2200060000000000
(1763088443.578068) can0 189#4D029C015C0100D1
(1763088443.581170) can0 000A0003#FF42000A10590000
(1763088443.581456) can0 000A0004#FFEBFFEBFFA98E02
(1763088443.583956) can0 19A#00007F726E7F817E
(1763088443.584962) can0 29A#7F6E827F82810000
(1763088443.588085) can0 186#E8E24C1D09020000
(1763088443.588523) can0 189#4D029C015F0100D1
(1763088443.589393) can0 080#
(1763088443.590537) can0 286#6400900100000000
(1763088443.591171) can0 000A0003#FF43000A10590000
(1763088443.591457) can0 000A0004#FFEAFFEAFFA88E02
(1763088443.596228) can0 281#0000000000000000
(1763088443.598078) can0 189#4D029E015F0100D1
(1763088443.598591) can0 701#05
(1763088443.598962) can0 482#0000000028340001
(1763088443.599303) can0 382#2600110000000000
(1763088443.599649) can0 181#D10100207F00000D
(1763088443.601169) can0 000A0003#FF45000A105A0000
(1763088443.601451) can0 000A0004#FFEAFFEAFFA78E02
(1763088443.605617) can0 4C4#05840642069106C8
(1763088443.606634) can0 4C5#069A064006620661
(1763088443.607644) can0 4C6#0674065E064B0658
(1763088443.608068) can0 189#4D029C015D0100D1
(1763088443.608660) can0 4C7#06B80631052604F4
(1763088443.609690) can0 4C8#05DB000000000000
(1763088443.610003) can0 682#4F532D0400003700
(1763088443.611171) can0 000A0003#FF45000C105B0000
(1763088443.611459) can0 000A0004#FFEAFFE9FFA78E02
(1763088443.618074) can0 189#4F029F015E0100D1
(1763088443.620696) can0 482#0000000028340001
(1763088443.620875) can0 701#05
(1763088443.621127) can0 382#1700E7FF00000000
(1763088443.621412) can0 000A0003#FF45000D105B0000
(1763088443.621696) can0 000A0004#FFEAFFE8FFA88E02
(1763088443.628058) can0 186#F0E24C1D09030000
(1763088443.628549) can0 189#4F029E015D0100D1
(1763088443.631178) can0 000A0003#FF43000E105A0000
(1763088443.631461) can0 000A0004#FFECFFE8FFA88E02
(1763088443.632194) can0 1A2#0000E70D000000
(1763088443.632424) can0 2A1#1A1D1C1B1917130F
(1763088443.635309) can0 1A4#0000600A000000
(1763088443.635536) can0 2A3#121A1A1918150F0D
(1763088443.638072) can0 189#4D029C015F0100D1
(1763088443.639516) can0 1A3#4000BF09000000
(1763088443.639808) can0 181#D10100207F00000D
(1763088443.640125) can0 281#0000000000000000
(1763088443.641179) can0 000A0003#FF40001010580000
(1763088443.641467) can0 000A0004#FFEDFFE9FFA88E02
(1763088443.642529) can0 382#0800160000000000
(1763088443.642719) can0 701#05
(1763088443.642993) can0 482#0000000028340001
(1763088443.648074) can0 189#4D029F01600100D1
(1763088443.650463) can0 188#0C00092F00000000
(1763088443.650942) can0 682#4F532D0400003700
(1763088443.651232) can0 000A0003#FF3E001310570000
(1763088443.651516) can0 000A0004#FFEEFFE8FFA78E02
(1763088443.651728) can0 1A0#000000000000
(1763088443.651966) can0 288#D729441A00410000
(1763088443.652266) can0 000A0000#0000000000000000
(1763088443.652566) can0 000A0001#0000000000000000
(1763088443.652864) can0 000A0002#0000000000000000
(1763088443.653103) can0 388#2A2A2E2325000000
(1763088443.653289) can0 191#9D9D9D9D9D9C
(1763088443.654113) can0 192#9C9D9C9C9C9C
(1763088443.655135) can0 193#9C9D9D9D9D9D
(1763088443.656146) can0 194#9C9D9D9D9D9D
(1763088443.657155) can0 195#9C9D9D9D9D9D
(1763088443.658067) can0 189#4D029D015E0100D1
(1763088443.658263) can0 291#1B212423231F
(1763088443.659143) can0 292#1D232524251F
(1763088443.660143) can0 293#1D222423231E
(1763088443.661176) can0 000A0003#FF3C001510560000
(1763088443.661459) can0 000A0004#FFEEFFE8FFA78E02
(1763088443.661654) can0 294#1D222423231F
(1763088443.661771) can0 701#05
(1763088443.662077) can0 482#0000000028340001
(1763088443.662271) can0 295#1C202320211C
(1763088443.662515) can0 382#1300F9FF00000000
(1763088443.668053) can0 186#E1E24C1D09040000
(1763088443.668560) can0 189#4D029F015D0100D1
(1763088443.670653) can0 4C4#057F0642069106C5
(1763088443.671178) can0 000A0003#FF3A001510550000
(1763088443.671464) can0 000A0004#FFEFFFE8FFA78E02
(1763088443.671694) can0 4C5#069A063D06650661
(1763088443.672678) can0 4C6#0674065E064B0658
(1763088443.673696) can0 4C7#06B80634051D04F4
(1763088443.674725) can0 4C8#05DB000000000000
(1763088443.678068) can0 189#4E029F015D0100D1
(1763088443.678311) can0 181#D10100207F00000D
(1763088443.679129) can0 1A5#0000BB0D000000
(1763088443.681179) can0 000A0003#FF37001510540000
(1763088443.681464) can0 000A0004#FFEFFFE8FFA88E02
(1763088443.683477) can0 382#F9FFEBFF00000000
(1763088443.683597) can0 701#05
(1763088443.683853) can0 281#0000000000000000
(1763088443.684164) can0 482#0000000028340001
(1763088443.688081) can0 189#4E029E015E0100D1
(1763088443.688389) can0 080#
(1763088443.689543) can0 286#6400900100000000
(1763088443.691184) can0 000A0003#FF34001310550000
(1763088443.691467) can0 000A0004#FFF0FFE8FFA88E02
(1763088443.694509) can0 682#4F532D0400003700
(1763088443.696448) can0 188#0C00192E00000000
(1763088443.697176) can0 288#D729442900410000
(1763088443.698062) can0 189#4D029C015F0100D1
(1763088443.698300) can0 388#2A2A2E2325000000
(1763088443.699146) can0 191#9D9D9D9D9D9C
(1763088443.700155) can0 192#9C9D9C9C9C9C
(1763088443.701176) can0 000A0003#FF32001210560000
(1763088443.701461) can0 000A0004#FFF0FFE8FFA98E02
(1763088443.701651) can0 193#9C9D9D9D9D9D
(1763088443.702139) can0 194#9C9D9D9D9D9D
(1763088443.703052) can0 382#0C00010000000000
(1763088443.703244) can0 195#9C9D9D9D9D9D
(1763088443.703360) can0 701#05
(1763088443.704157) can0 291#1B212423231F
(1763088443.705164) can0 292#1D232524251F
(1763088443.706133) can0 293#1D222423231E
(1763088443.707143) can0 294#1D2224232323
(1763088443.708047) can0 186#E1E24C1D09050000
(1763088443.708243) can0 295#1B212320211C
(1763088443.708489) can0 482#0000000028340001
(1763088443.708722) can0 189#4D029E015C0100D1
(1763088443.711185) can0 000A0003#FF30001110580000
(1763088443.711472) can0 000A0004#FFEFFFE7FFA98E02
(1763088443.716270) can0 181#D10100207F00000D
(1763088443.718060) can0 189#4E029D015E0100D1
(1763088443.721182) can0 000A0003#FF2D0010105A0000
(1763088443.721469) can0 000A0004#FFEFFFE7FFA98E02
(1763088443.726931) can0 701#05
(1763088443.727391) can0 382#0400EDFF00000000
(1763088443.727647) can0 281#0000000000000000
(1763088443.728059) can0 189#4D029E015D0100D1
(1763088443.730249) can0 482#0000000028340001
(1763088443.731185) can0 000A0003#FF2E000C10580000
(1763088443.731471) can0 000A0004#FFF2FFE7FFA98E02
(1763088443.735468) can0 682#4F532D0400003700
(1763088443.735702) can0 4C4#057A0642069106C5
(1763088443.736706) can0 4C5#069D064106650661
(1763088443.737724) can0 4C6#0671065E064B0658
(1763088443.738055) can0 189#4D029F015D0100D1
(1763088443.738735) can0 4C7#06B80634051D04F4
(1763088443.739763) can0 4C8#05DB000000000000
(1763088443.739987) can0 1A2#0000E70D000000
(1763088443.740217) can0 2A1#1A1D1C1B1917130F
(1763088443.740527) can0 1A3#4000BF09000000
(1763088443.741181) can0 000A0003#FF2E000A10570000
(1763088443.741465) can0 000A0004#FFF2FFE7FFA98E02
(1763088443.742311) can0 1A4#0000600A000000
(1763088443.742539) can0 2A3#121A1A1918150F0D
(1763088443.748047) can0 186#E8E24C1D09060000
(1763088443.748549) can0 189#4E029F015D0100D1
(1763088443.748905) can0 701#05
(1763088443.749483) can0 382#1B00F1FF00000000
(1763088443.751181) can0 000A0003#FF30000910550000
(1763088443.751464) can0 000A0004#FFF1FFE8FFAA8E02
(1763088443.751676) can0 1A0#000000000000
(1763088443.751923) can0 482#0000000028340001
(1763088443.752223) can0 000A0000#0000000000000000
(1763088443.752523) can0 000A0001#0000000000000000
(1763088443.752821) can0 000A0002#0000000000000000
(1763088443.754475) can0 181#D10100207F00000D
(1763088443.758059) can0 189#4F029F015C0100D1
(1763088443.761186) can0 000A0003#FF33000810530000
(1763088443.761471) can0 000A0004#FFF2FFE8FFAA8E02
(1763088443.768062) can0 189#4D029F01600100D1
(1763088443.770528) can0 701#05
(1763088443.770873) can0 281#0000000000000000
(1763088443.771190) can0 000A0003#FF35000910530000
(1763088443.771476) can0 000A0004#FFF2FFE9FFAA8E02
(1763088443.771724) can0 382#2600110000000000
(1763088443.773731) can0 482#0000000028340001
(1763088443.776423) can0 682#4F532D0400003700
(1763088443.778057) can0 189#4D029D01600100D1
(1763088443.781190) can0 000A0003#FF38000910530000
(1763088443.781474) can0 000A0004#FFF2FFE9FFA98E02
(1763088443.781696) can0 1A5#0000BB0D000000
(1763088443.788065) can0 186#F0E24C1D09070000
(1763088443.788540) can0 189#4D029D015F0100D1
(1763088443.789406) can0 080#
(1763088443.789948) can0 19A#00007F6A6A7E807F
(1763088443.790094) can0 701#05
(1763088443.790524) can0 286#6400900100000000
(1763088443.790770) can0 382#EEFF060000000000
(1763088443.791009) can0 29A#7F6E828283830000
(1763088443.791296) can0 000A0003#FF3A0008104F0000
(1763088443.791582) can0 000A0004#FFF1FFE9FFAA8E02
(1763088443.795433) can0 181#D10100207F00000D
(1763088443.795771) can0 482#0000000028340001
(1763088443.796425) can0 188#0C00192E00000000
(1763088443.797183) can0 288#D729442900410000
(1763088443.798051) can0 189#4D029D015C0100D1
(1763088443.798289) can0 388#2A2A2E2325000000
(1763088443.799135) can0 191#9D9D9D9D9D9C
(1763088443.800145) can0 192#9C9D9C9C9C9C
(1763088443.800713) can0 4C4#057F063F069706CB
(1763088443.801192) can0 000A0003#FF3C0008104B0000
(1763088443.801477) can0 000A0004#FFF1FFE9FFAA8E02
(1763088443.801667) can0 193#9C9D9D9D9D9D
(1763088443.801898) can0 4C5#069A063D06620661
(1763088443.802146) can0 194#9C9D9D9D9D9D
(1763088443.802736) can0 4C6#0671065E06450653
(1763088443.803152) can0 195#9C9D9D9D9D9D
(1763088443.803752) can0 4C7#06BB0634052104F9
(1763088443.804164) can0 291#1B212423231F
(1763088443.804780) can0 4C8#05DB000000000000
(1763088443.805143) can0 292#1D232524251F
(1763088443.806143) can0 293#1D222423231E
(1763088443.807133) can0 294#1D2224232323
(1763088443.808051) can0 189#4D029C015D0100D1
(1763088443.808247) can0 295#1B212320211C
(1763088443.811192) can0 000A0003#FF3D000A104A0000
(1763088443.811477) can0 000A0004#FFF1FFE8FFAB8E02
(1763088443.814547) can0 382#1700E7FF00000000
(1763088443.814666) can0 701#05
(1763088443.814992) can0 281#0000000000000000
(1763088443.817529) can0 482#0000000028340001
(1763088443.817851) can0 682#4F522D0400003700
(1763088443.818081) can0 189#4D029C015E0100D1
(1763088443.821197) can0 000A0003#FF3F000D104A0000
(1763088443.821481) can0 000A0004#FFEDFFE7FFAA8E02
(1763088443.828035) can0 186#E8E24C1D09080000
(1763088443.828566) can0 189#4D029D015E0100D1
(1763088443.831195) can0 000A0003#FF3E000D104B0000
(1763088443.831479) can0 000A0004#FFEDFFE4FFAB8E02
(1763088443.833878) can0 181#D10100207F00000D
(1763088443.836283) can0 701#05
(1763088443.838051) can0 189#4D029E015E0100D1
(1763088443.839127) can0 382#1700040000000000
(1763088443.839568) can0 482#0000000028340001
(1763088443.841200) can0 000A0003#FF3E000C104B0000
(1763088443.841487) can0 000A0004#FFEDFFE4FFAA8E02
(1763088443.841710) can0 1A3#4000BF09000000
(1763088443.847306) can0 1A2#0000E70D000000
(1763088443.847534) can0 2A1#1A1D1C1B1917130F
(1763088443.848049) can0 189#4D029E015C0100D1
(1763088443.849335) can0 1A4#0000600A000000
(1763088443.849561) can0 2A3#121A1A1918150F0D
(1763088443.851199) can0 000A0003#FF3D000B104A0000
(1763088443.851485) can0 000A0004#FFEDFFE4FFAB8E02
(1763088443.851697) can0 1A0#000000000000
(1763088443.852205) can0 000A0000#0000000000000000
(1763088443.852505) can0 000A0001#0000000000000000
(1763088443.852803) can0 000A0002#0000000000000000
(1763088443.858054) can0 189#4D029F01600100D1
(1763088443.858169) can0 701#05
(1763088443.858441) can0 682#4F532D0400003700
(1763088443.858792) can0 382#EEFF060000000000
(1763088443.859049) can0 281#0000000000000000
(1763088443.859361) can0 482#0000000028340001
(1763088443.861192) can0 000A0003#FF3C000A10490000
(1763088443.861476) can0 000A0004#FFEDFFE4FFAB8E02
(1763088443.865729) can0 4C4#057F063F069706CB
(1763088443.866734) can0 4C5#069A063D06620661
(1763088443.867748) can0 4C6#0671065E06450653
(1763088443.868048) can0 186#DAE24C1D09090000
(1763088443.868556) can0 189#4D029C015D0100D1
(1763088443.868789) can0 4C7#06BB0634052104F9
(1763088443.869798) can0 4C8#05DB000000000000
(1763088443.871195) can0 000A0003#FF3D000C10480000
(1763088443.871483) can0 000A0004#FFEEFFE3FFAA8E02
(1763088443.872214) can0 181#D10100207F00000D
(1763088443.878048) can0 189#4D029D015F0100D1
(1763088443.879860) can0 701#05
(1763088443.880303) can0 482#0000000028340001
(1763088443.880646) can0 382#D9FFC7FF00000000
(1763088443.881198) can0 000A0003#FF3E000D10480000
(1763088443.881488) can0 000A0004#FFEEFFE3FFAB8E02
(1763088443.883492) can0 1A5#0000BB0D000000
(1763088443.888067) can0 189#4D029F015F0100D1
(1763088443.888407) can0 080#
(1763088443.889555) can0 286#6400900100000000
(1763088443.891199) can0 000A0003#FF3E000F10480000
(1763088443.891486) can0 000A0004#FFF2FFE3FFAB8E02
(1763088443.896426) can0 188#0C00E22F00000000
(1763088443.897189) can0 288#D729442900410000
(1763088443.898044) can0 189#4D029C015E0100D1
(1763088443.898282) can0 388#2A2A2E2325000000
(1763088443.899160) can0 191#9D9D9D9D9D9C
(1763088443.899625) can0 682#4F532D0400003700
(1763088443.899899) can0 382#FAFF080000000000
(1763088443.900137) can0 192#9C9D9C9C9C9C
(1763088443.900254) can0 701#05
(1763088443.900542) can0 482#0000000028340001
(1763088443.901202) can0 000A0003#FF3F0011104A0000
(1763088443.901482) can0 000A0004#FFF2FFE2FFAB8E02
(1763088443.901672) can0 193#9C9D9D9D9D9D
(1763088443.902150) can0 194#9C9D9D9D9D9D
(1763088443.903158) can0 195#9C9D9D9D9D9D
(1763088443.904136) can0 291#1B212423231F
(1763088443.904797) can0 281#0000000000000000
(1763088443.905147) can0 292#1D232524251F
(1763088443.906149) can0 293#1D222423231E
(1763088443.907160) can0 294#1D222423231F
(1763088443.908026) can0 186#E1E24C1D090A0000
(1763088443.908218) can0 295#1B212320211D
(1763088443.908573) can0 189#4C029C015D0100D1
(1763088443.910577) can0 181#D10100207F00000D
(1763088443.911202) can0 000A0003#FF3C000F10470000
(1763088443.911490) can0 000A0004#FFF2FFE3FFAB8E02
(1763088443.918049) can0 189#4D029F015F0100D1
(1763088443.921199) can0 000A0003#FF3A000E10450000
(1763088443.921486) can0 000A0004#FFF2FFE3FFAB8E02
(1763088443.923755) can0 701#05
(1763088443.924228) can0 482#0000000028340001
(1763088443.924568) can0 382#1E00190000000000
(1763088443.928044) can0 189#4E029F015E0100D1
(1763088443.930774) can0 4C4#05790642069606C7
(1763088443.931201) can0 000A0003#FF39000D10440000
(1763088443.931488) can0 000A0004#FFF2FFE4FFAB8E02
(1763088443.931785) can0 4C5#069A063D06610663
(1763088443.932801) can0 4C6#0670065E06470655
(1763088443.933818) can0 4C7#06BA062F052004ED
(1763088443.934845) can0 4C8#05DA000000000000
(1763088443.938045) can0 189#4D029E015F0100D1
(1763088443.941205) can0 000A0003#FF39000C10430000
(1763088443.941489) can0 000A0004#FFF3FFE7FFAB8E02
(1763088443.942533) can0 1A3#4000BF09000000
(1763088443.943122) can0 682#4F532D0400003700
(1763088443.945728) can0 701#05
(1763088443.946185) can0 482#0000000028340001
(1763088443.946522) can0 382#F3FFF4FF00000000
(1763088443.948024) can0 186#DAE24C1D090B0000
(1763088443.948562) can0 189#4D029C015E0100D1
(1763088443.948812) can0 181#D10100207F00000D
(1763088443.949130) can0 281#0000000000000000
(1763088443.951206) can0 000A0003#FF39000A10440000
(1763088443.951491) can0 000A0004#FFF2FFE7FFAB8E02
(1763088443.951703) can0 1A0#000000000000
(1763088443.952223) can0 000A0000#0000000000000000
(1763088443.952523) can0 000A0001#0000000000000000
(1763088443.952821) can0 000A0002#0000000000000000
(1763088443.954873) can0 1A2#0000E70D000000
(1763088443.955099) can0 2A1#1A1D1C1B1917130F
(1763088443.956329) can0 1A4#0000600A000000
(1763088443.956556) can0 2A3#121A1A1918150F0D
(1763088443.958039) can0 189#4D029C015E0100D1
(1763088443.961208) can0 000A0003#FF3A000810450000
(1763088443.961492) can0 000A0004#FFF1FFE7FFAC8E02
(1763088443.967377) can0 701#05
(1763088443.967796) can0 382#F3FFF4FF00000000
(1763088443.968049) can0 189#4D029D015D0100D1
(1763088443.968292) can0 482#0000000028340001
(1763088443.971205) can0 000A0003#FF3D000810440000
(1763088443.971490) can0 000A0004#FFF1FFE6FFAC8E02
(1763088443.978042) can0 189#4D029F015E0100D1
(1763088443.981212) can0 000A0003#FF41000810440000
(1763088443.981498) can0 000A0004#FFF0FFE7FFAC8E02
(1763088443.984071) can0 682#4F532D0400003700
(1763088443.985652) can0 1A5#0000BB0D000000
(1763088443.987020) can0 181#D10100207F00000D
(1763088443.987140) can0 701#05
(1763088443.987386) can0 482#0000000028340001
(1763088443.987831) can0 382#FCFFF6FF00000000
(1763088443.988061) can0 186#D2E24C1D090C0000
(1763088443.988553) can0 189#4D029C015C0100D1
(1763088443.989393) can0 080#
(1763088443.990202) can0 281#0000000000000000
(1763088443.990541) can0 286#6400900100000000
(1763088443.991211) can0 000A0003#FF43000810440000
(1763088443.991495) can0 000A0004#FFF1FFE6FFAC8E02
(1763088443.995818) can0 4C4#05790642069606C7
(1763088443.996057) can0 19A#00007E70747F807F
(1763088443.996415) can0 188#0C00002F00000000
(1763088443.996829) can0 4C5#069A063D06610663
(1763088443.997068) can0 29A#8072847F82830000
(1763088443.997301) can0 288#D729442900410000
(1763088443.997844) can0 4C6#0670065E06470655
(1763088443.998074) can0 189#4C029C015D0100D1
(1763088443.998312) can0 388#2A2A2E2325000000
(1763088443.998856) can0 4C7#06B80633051B04ED
(1763088443.999136) can0 191#9D9D9D9D9D9C
(1763088443.999888) can0 4C8#05DA000000000000
(1763088444.000146) can0 192#9C9D9C9C9C9C
(1763088444.001210) can0 000A0003#FF45000810440000
(1763088444.001495) can0 000A0004#FFF2FFE7FFAD8E02
(1763088444.001685) can0 193#9C9D9D9D9D9D
(1763088444.002160) can0 194#9C9D9D9D9D9D
(1763088444.003136) can0 195#9C9D9D9D9D9D
(1763088444.004147) can0 291#1B212423231F
(1763088444.005157) can0 292#1D232524251F
(1763088444.006155) can0 293#1D222423231E
(1763088444.007169) can0 294#1D222423231F
(1763088444.008033) can0 189#4D029C015E0100D1
(1763088444.008225) can0 295#1B212320211D
(1763088444.008527) can0 701#05
(1763088444.008970) can0 382#EFFFE8FF00000000
(1763088444.009345) can0 482#0000000028340001
(1763088444.011205) can0 000A0003#FF45000710420000
(1763088444.011491) can0 000A0004#FFF3FFE6FFAC8E02
(1763088444.018039) can0 189#4D029E015F0100D1
(1763088444.021213) can0 000A0003#FF450005103F0000
(1763088444.021497) can0 000A0004#FFF3FFE7FFAC8E02
(1763088444.025378) can0 682#4F532D0400003700
(1763088444.025805) can0 181#D10100207F00000D
(1763088444.028016) can0 186#E1E24C1D090D0000
(1763088444.028554) can0 189#4D029E01600100D1
(1763088444.030478) can0 701#05
(1763088444.030950) can0 482#0000000028340001
(1763088444.031240) can0 000A0003#FF450004103D0000
(1763088444.031524) can0 000A0004#FFF2FFE2FFAC8E02
(1763088444.031770) can0 382#EBFFDFFF00000000
(1763088444.035958) can0 281#0000000000000000
(1763088444.038036) can0 189#4D029F015F0100D1
(1763088444.041221) can0 000A0003#FF42000310390000
(1763088444.041505) can0 000A0004#FFF3FFE3FFAD8E02
(1763088444.043548) can0 1A3#4000BF09000000
(1763088444.048037) can0 189#4D029E01600100D1
(1763088444.051214) can0 000A0003#FF40000310390000
(1763088444.051498) can0 000A0004#FFF2FFE4FFAC8E02
(1763088444.051710) can0 1A0#000000000000
(1763088444.052222) can0 000A0000#0000000000000000
(1763088444.052522) can0 000A0001#0000000000000000
(1763088444.052820) can0 000A0002#0000000000000000
(1763088444.052936) can0 701#05
(1763088444.053224) can0 482#0000000028340001
(1763088444.053475) can0 382#1000EFFF00000000
(1763088444.058030) can0 189#4E029D015E0100D1
(1763088444.060856) can0 4C4#057A063F069106C5
(1763088444.061215) can0 000A0003#FF3F0003103A0000
(1763088444.061499) can0 000A0004#FFF3FFE5FFAC8E02
(1763088444.061873) can0 4C5#069D0641065F0661
(1763088444.062436) can0 1A2#0000E70D000000
(1763088444.062666) can0 2A1#1A1D1C1B1917130F
(1763088444.062896) can0 4C6#0671065E06480658
(1763088444.063326) can0 1A4#0000600A000000
(1763088444.063554) can0 2A3#121A1A1918150F0D
(1763088444.063896) can0 4C7#06B60634051D04EF
(1763088444.064926) can0 4C8#05DB000000000000
(1763088444.066102) can0 682#4F532E0400003700
(1763088444.066547) can0 181#D10100207F00000D
(1763088444.068017) can0 186#D2E24C1D090E0000
(1763088444.068559) can0 189#4C029C015D0100D1
(1763088444.071220) can0 000A0003#FF3E000210390000
(1763088444.071505) can0 000A0004#FFF3FFE6FFAC8E02
(1763088444.074617) can0 382#1F00FCFF00000000
(1763088444.074736) can0 701#05
(1763088444.077037) can0 482#0000000028340001
(1763088444.078032) can0 189#4D029E015F0100D1
(1763088444.079779) can0 281#0000000000000000
(1763088444.081216) can0 000A0003#FF3B000110370000
(1763088444.081501) can0 000A0004#FFF3FFE5FFAC8E02
(1763088444.087804) can0 1A5#0000BB0D000000
(1763088444.088053) can0 189#4E029F015D0100D1
(1763088444.088391) can0 080#
(1763088444.089543) can0 286#6400900100000000
(1763088444.091213) can0 000A0003#FF39FFFF10360000
(1763088444.091499) can0 000A0004#FFF3FFE5FFAC8E02
(1763088444.095891) can0 701#05
(1763088444.096446) can0 188#0C00322F00000000
(1763088444.096691) can0 382#EFFFE9FF00000000
(1763088444.096941) can0 482#0000000028340001
(1763088444.097208) can0 288#D729442A00410000
(1763088444.098027) can0 189#4D029D015E0100D1
(1763088444.098265) can0 388#2A2A2E2325000000
(1763088444.099128) can0 191#9D9D9D9D9D9C
(1763088444.100136) can0 192#9C9D9C9C9C9C
(1763088444.101217) can0 000A0003#FF38FFFF10360000
(1763088444.101504) can0 000A0004#FFF2FFE1FFAC8E02
(1763088444.101694) can0 193#9C9D9D9D9D9D
(1763088444.102136) can0 194#9C9D9D9D9D9D
(1763088444.103144) can0 195#9C9D9D9D9D9D
(1763088444.104150) can0 291#1B212323231F
(1763088444.104672) can0 181#D10100207F00000D
(1763088444.105164) can0 292#1D232524251F
(1763088444.106163) can0 293#1D222423231E
(1763088444.107145) can0 294#1D222423231F
(1763088444.108009) can0 186#DAE24C1D090F0000
(1763088444.108206) can0 295#1B202320211D
(1763088444.108587) can0 189#4D029C015D0100D1
(1763088444.110033) can0 682#4F532D0400003700
(1763088444.111225) can0 000A0003#FF36FFFF10370000
(1763088444.111513) can0 000A0004#FFF1FFE0FFAD8E02
(1763088444.117720) can0 701#05
(1763088444.118051) can0 189#4D029D01600100D1
(1763088444.118297) can0 482#0000000028340001
(1763088444.118545) can0 382#0400EDFF00000000
(1763088444.121223) can0 000A0003#FF36000110390000
(1763088444.121510) can0 000A0004#FFF2FFE0FFAD8E02
(1763088444.123547) can0 281#0000000000000000
(1763088444.125920) can0 4C4#05830642069306C7
(1763088444.126929) can0 4C5#069A063D06610660
(1763088444.127949) can0 4C6#066E066006470657
(1763088444.128183) can0 189#4E029F015F0100D1
(1763088444.128961) can0 4C7#06B8062F052004F8
(1763088444.129990) can0 4C8#05DA000000000000
(1763088444.131222) can0 000A0003#FF35000010390000
(1763088444.131511) can0 000A0004#FFF1FFE0FFAC8E02
(1763088444.138042) can0 189#4E029D015F0100D1
(1763088444.139575) can0 701#05
(1763088444.139947) can0 382#E7FF0F0000000000
(1763088444.140385) can0 482#0000000028340001
(1763088444.141226) can0 000A0003#FF34FFFF10390000
(1763088444.141509) can0 000A0004#FFF0FFE4FFAC8E02
(1763088444.144560) can0 1A3#4000BF09000000
(1763088444.145388) can0 181#D10100207F00000D
(1763088444.148004) can0 186#DAE24C1D09000000
(1763088444.148548) can0 189#4D029E015E0100D1
(1763088444.150951) can0 682#4F532D0400003700
(1763088444.151241) can0 000A0003#FF32FFFF10380000
(1763088444.151526) can0 000A0004#FFF1FFE5FFAC8E02
(1763088444.151738) can0 1A0#000000000000
(1763088444.152232) can0 000A0000#0000000000000000
(1763088444.152532) can0 000A0001#0000000000000000
(1763088444.152829) can0 000A0002#0000000000000000
(1763088444.158023) can0 189#4D029F015D0100D1
(1763088444.161228) can0 000A0003#FF2E000010360000
(1763088444.161512) can0 000A0004#FFEDFFE5FFAC8E02
(1763088444.161660) can0 701#05
(1763088444.162129) can0 482#0000000028340001
(1763088444.164415) can0 382#0C00010000000000
(1763088444.167025) can0 281#0000000000000000
(1763088444.168019) can0 189#4F029E015D0100D1
(1763088444.169999) can0 1A2#0000E70D000000
(1763088444.170227) can0 2A1#1A1D1C1B1917130F
(1763088444.170454) can0 1A4#0000600A000000
(1763088444.170682) can0 2A3#121A1A1918150F0D
(1763088444.171226) can0 000A0003#FF2C000210380000
(1763088444.171509) can0 000A0004#FFE9FFE4FFAC8E02
(1763088444.178024) can0 189#4D029D01600100D1
(1763088444.181234) can0 000A0003#FF2C0004103B0000
(1763088444.181518) can0 000A0004#FFE9FFE5FFAC8E02
(1763088444.183179) can0 701#05
(1763088444.183619) can0 482#0000000028340001
(1763088444.183987) can0 181#D10100207F00000D
(1763088444.184975) can0 19A#00007D707C7F807F
(1763088444.185978) can0 29A#806F817F83850000
(1763088444.186490) can0 382#E7FF0F0000000000
(1763088444.188029) can0 186#DAE24C1D09010000
(1763088444.188538) can0 189#4D029E015D0100D1
(1763088444.189408) can0 080#
(1763088444.189956) can0 1A5#0000BB0D000000
(1763088444.190556) can0 286#6400900100000000
(1763088444.190967) can0 4C4#05830642069306C7
(1763088444.191257) can0 000A0003#FF2C0005103E0000
(1763088444.191542) can0 000A0004#FFEAFFE5FFAB8E02
(1763088444.191947) can0 682#4F532D0400003700
(1763088444.192179) can0 4C5#069A063D06610660
(1763088444.192997) can0 4C6#066E066006470657
(1763088444.194011) can0 4C7#06B8062F052004F8
(1763088444.195038) can0 4C8#05DA000000000000
(1763088444.196454) can0 188#0C00542E00000000
(1763088444.197181) can0 288#D729442900410000
(1763088444.198016) can0 189#4D029C015C0100D1
(1763088444.198254) can0 388#2A2A2E2325000000
(1763088444.199150) can0 191#9D9D9D9D9D9C
(1763088444.200160) can0 192#9C9D9C9C9C9C
(1763088444.201230) can0 000A0003#FF2C000410400000
(1763088444.201514) can0 000A0004#FFEFFFE6FFAB8E02
(1763088444.201704) can0 193#9C9D9D9D9D9D
(1763088444.202144) can0 194#9C9D9D9D9D9D
(1763088444.202821) can0 701#05
(1763088444.203190) can0 482#0000000028340001
(1763088444.203382) can0 195#9C9D9D9D9D9D
(1763088444.204156) can0 291#1B212323231F
(1763088444.205169) can0 292#1D232524251F
(1763088444.206139) can0 293#1D222423231E
(1763088444.207152) can0 294#1D222423231F
(1763088444.208017) can0 189#4C029C015D0100D1
(1763088444.208211) can0 295#1C212320211D
(1763088444.208460) can0 382#1E00190000000000
(1763088444.211071) can0 281#0000000000000000
(1763088444.211359) can0 000A0003#FF2E000410410000
(1763088444.211645) can0 000A0004#FFEFFFE6FFAB8E02
(1763088444.218021) can0 189#4F029F015F0100D1
(1763088444.221232) can0 000A0003#FF31000310420000
(1763088444.221522) can0 000A0004#FFEFFFE1FFAB8E02
(1763088444.221849) can0 181#D10100207F00000D
(1763088444.226958) can0 701#05
(1763088444.227428) can0 482#0000000028340001
(1763088444.228000) can0 186#F0E24C1D09020000
(1763088444.228566) can0 189#4D029E015D0100D1
(1763088444.230395) can0 382#0F000C0000000000
(1763088444.231233) can0 000A0003#FF35000410430000
(1763088444.231525) can0 000A0004#FFEFFFE1FFAB8E02
(1763088444.232759) can0 682#4F532D0400003700
(1763088444.238019) can0 189#4D029E01600100D1
(1763088444.241233) can0 000A0003#FF3A000510430000
(1763088444.241513) can0 000A0004#FFEBFFE1FFAB8E02
(1763088444.245564) can0 1A3#4000BF09000000
(1763088444.248017) can0 189#4D029F015E0100D1
(1763088444.248788) can0 701#05
(1763088444.249163) can0 482#0000000028340001
(1763088444.251229) can0 000A0003#FF39000610440000
(1763088444.251515) can0 000A0004#FFECFFE1FFAB8E02
(1763088444.251727) can0 1A0#000000000000
(1763088444.252013) can0 382#FAFF080000000000
(1763088444.252313) can0 000A0000#0000000000000000
(1763088444.252613) can0 000A0001#0000000000000000
(1763088444.252911) can0 000A0002#0000000000000000
(1763088444.256022) can0 4C4#057E063E069006C7
(1763088444.257035) can0 4C5#069D064306610660
(1763088444.257283) can0 281#0000000000000000
(1763088444.258011) can0 189#4D029C015C0100D1
(1763088444.258243) can0 4C6#0670065B06470655
(1763088444.259059) can0 4C7#06B5062F051B04ED
(1763088444.260091) can0 4C8#05DA000000000000
(1763088444.260336) can0 181#D10100207F00000D
(1763088444.261234) can0 000A0003#FF3D000910440000
(1763088444.261520) can0 000A0004#FFEDFFE1FFAB8E02
(1763088444.267999) can0 186#F0E24C1D09030000
(1763088444.268113) can0 701#05
(1763088444.268586) can0 189#4D029D015D0100D1
(1763088444.268832) can0 482#0000000028340001
(1763088444.271238) can0 000A0003#FF40000B10440000
(1763088444.271524) can0 000A0004#FFEDFFE1FFAB8E02
(1763088444.273718) can0 682#4F532D0400003700
(1763088444.273964) can0 382#EEFF060000000000
(1763088444.277298) can0 1A4#0000600A000000
(1763088444.277524) can0 2A3#121A1A1918150F0D
(1763088444.277748) can0 1A2#0000E70D000000
(1763088444.277978) can0 2A1#1A1D1C1B1917130F
(1763088444.278208) can0 189#4E029E015C0100D1
(1763088444.281232) can0 000A0003#FF41000B10450000
(1763088444.281517) can0 000A0004#FFEDFFE2FFAA8E02
(1763088444.288032) can0 189#4E029E015F0100D1
(1763088444.288408) can0 080#
(1763088444.289559) can0 286#6400900100000000
(1763088444.289869) can0 701#05
(1763088444.290330) can0 482#0000000028340001
(1763088444.291230) can0 000A0003#FF42000B10450000
(1763088444.291514) can0 000A0004#FFEDFFE2FFAB8E02
(1763088444.292139) can0 1A5#0000BB0D000000
(1763088444.295478) can0 382#F3FFF4FF00000000
(1763088444.296434) can0 188#0C00973000000000
(1763088444.297192) can0 288#D729442A00410000
(1763088444.298013) can0 189#4D029E015C0100D1
(1763088444.298250) can0 388#2A2A2E2325000000
(1763088444.299141) can0 191#9D9D9D9D9D9C
(1763088444.300151) can0 192#9C9D9C9C9C9C
(1763088444.301050) can0 181#D10100207F00000D
(1763088444.301322) can0 000A0003#FF45000B10450000
(1763088444.301608) can0 000A0004#FFEDFFE4FFAB8E02
(1763088444.301798) can0 193#9C9D9D9D9D9D
(1763088444.302051) can0 281#0000000000000000
(1763088444.302243) can0 194#9C9D9D9D9D9D
(1763088444.303157) can0 195#9C9D9D9D9D9D
(1763088444.304165) can0 291#1B212323231F
(1763088444.305147) can0 292#1D232524251F
(1763088444.306144) can0 293#1D222423231E
(1763088444.307138) can0 294#1D222423231F
(1763088444.307997) can0 186#DAE24C1D09040000
(1763088444.308191) can0 295#1C212320211D
(1763088444.308571) can0 189#4B029C015C0100D1
(1763088444.309480) can0 482#0000000028340001
(1763088444.309648) can0 701#05
(1763088444.311239) can0 000A0003#FF48000B10450000
(1763088444.311529) can0 000A0004#FFEDFFE0FFAA8E02
(1763088444.314676) can0 682#4F532D0400003700
(1763088444.318008) can0 189#4E029E015C0100D1
(1763088444.320133) can0 382#1300160000000000
(1763088444.321067) can0 4C4#057E063E069006C7
(1763088444.321351) can0 000A0003#FF49000910450000
(1763088444.321637) can0 000A0004#FFEEFFDFFFAA8E02
(1763088444.322073) can0 4C5#069D064306610660
(1763088444.323090) can0 4C6#0670065B06470655
(1763088444.324104) can0 4C7#06B5062F051B04ED
(1763088444.325135) can0 4C8#05DA000000000000
(1763088444.328006) can0 189#4D029D015D0100D1
(1763088444.331238) can0 000A0003#FF4A000910430000
(1763088444.331524) can0 000A0004#FFEEFFE0FFAA8E02
(1763088444.333446) can0 701#05
(1763088444.333918) can0 482#0000000028340001
(1763088444.338012) can0 189#4D029E015F0100D1
(1763088444.339365) can0 181#D10100207F00000D
(1763088444.341238) can0 000A0003#FF4B000B10400000
(1763088444.341525) can0 000A0004#FFEDFFE2FFAA8E02
(1763088444.342118) can0 382#EEFF060000000000
(1763088444.344719) can0 281#0000000000000000
(1763088444.346590) can0 1A3#4000BF09000000
(1763088444.347993) can0 186#E8E24C1D09050000
(1763088444.348565) can0 189#4D029D015E0100D1
(1763088444.351243) can0 000A0003#FF4C000C103E0000
(1763088444.351525) can0 000A0004#FFECFFE2FFAA8E02
(1763088444.351737) can0 1A0#000000000000
(1763088444.352253) can0 000A0000#0000000000000000
(1763088444.352553) can0 000A0001#0000000000000000
(1763088444.352851) can0 000A0002#0000000000000000
(1763088444.355419) can0 701#05
(1763088444.355876) can0 482#0000000028340001
(1763088444.356116) can0 682#4F532D0400003700
(1763088444.358003) can0 189#4C029E015D0100D1
(1763088444.361254) can0 000A0003#FF4C000A10400000
(1763088444.361536) can0 000A0004#FFECFFE2FFAA8E02
(1763088444.363834) can0 382#D9FFE4FF00000000
(1763088444.368007) can0 189#4E029F015D0100D1
(1763088444.371240) can0 000A0003#FF4B000710430000
(1763088444.371524) can0 000A0004#FFEDFFE3FFAB8E02
(1763088444.377059) can0 701#05
(1763088444.377514) can0 181#D10100207F00000D
(1763088444.377856) can0 482#0000000028340001
(1763088444.378090) can0 189#50029C015C0100D1
(1763088444.381243) can0 000A0003#FF4A000410460000
(1763088444.381528) can0 000A0004#FFEDFFE2FFAC8E02
(1763088444.383069) can0 382#DFFFF9FF00000000
(1763088444.384299) can0 1A4#0000600A000000
(1763088444.384527) can0 2A3#121A1A1918150F0D
(1763088444.385144) can0 1A2#0000E70D000000
(1763088444.385373) can0 2A1#1A1D1C1B1917130F
(1763088444.386130) can0 4C4#0579063E069306C7
(1763088444.387146) can0 4C5#069A0640065E0660
(1763088444.388023) can0 186#E1E24C1D09060000
(1763088444.388269) can0 281#0000000000000000
(1763088444.388503) can0 4C6#0670065E06470655
(1763088444.388729) can0 189#4D029C015C0100D1
(1763088444.389179) can0 4C7#06B80633051B04F8
(1763088444.389364) can0 080#
(1763088444.390254) can0 4C8#05DA000000000000
(1763088444.390549) can0 286#6400900100000000
(1763088444.390973) can0 19A#00007D76677C7E7E
(1763088444.391251) can0 000A0003#FF49000310470000
(1763088444.391541) can0 000A0004#FFEFFFE2FFAC8E02
(1763088444.391968) can0 29A#8170868284800000
(1763088444.394341) can0 1A5#0000BB0D000000
(1763088444.396439) can0 188#0C00482F00000000
(1763088444.397195) can0 288#D729442900410000
(1763088444.398000) can0 189#4C029C015D0100D1
(1763088444.398237) can0 388#2A2A2E2325000000
(1763088444.399076) can0 701#05
(1763088444.399267) can0 191#9D9D9D9D9D9C
(1763088444.399559) can0 482#0000000028340001
(1763088444.399888) can0 682#4F532D0400003700
(1763088444.400143) can0 192#9C9D9C9C9C9C
(1763088444.401245) can0 000A0003#FF49000410460000
(1763088444.401533) can0 000A0004#FFF0FFE3FFAC8E02
(1763088444.401722) can0 193#9C9D9D9D9D9D
(1763088444.402158) can0 194#9C9D9D9D9D9D
(1763088444.403166) can0 195#9C9D9D9D9D9D
(1763088444.404146) can0 291#1B212423231F
(1763088444.404811) can0 382#FCFFF6FF00000000
(1763088444.405156) can0 292#1D232524251F
(1763088444.406151) can0 293#1D222423231E
(1763088444.407164) can0 294#1D222423231F
(1763088444.407998) can0 189#4D029C015B0100D1
(1763088444.408191) can0 295#1B212320211D
(1763088444.411251) can0 000A0003#FF49000610460000
(1763088444.411538) can0 000A0004#FFEFFFE3FFAC8E02
(1763088444.415624) can0 181#D10100207F00000D
(1763088444.418004) can0 189#4F029F015E0100D1
(1763088444.420773) can0 701#05
(1763088444.421192) can0 482#0000000028340001
(1763088444.421464) can0 000A0003#FF470008104A0000
(1763088444.421754) can0 000A0004#FFEEFFE3FFAC8E02
(1763088444.424028) can0 382#E7FF0F0000000000
(1763088444.427986) can0 186#E8E24C1D09070000
(1763088444.428552) can0 189#4D029C015D0100D1
(1763088444.431251) can0 000A0003#FF460009104B0000
(1763088444.431529) can0 000A0004#FFEEFFE4FFAB8E02
(1763088444.432004) can0 281#0000000000000000
(1763088444.438000) can0 189#4E029F015E0100D1
(1763088444.440402) can0 682#4F532D0400003700
(1763088444.441248) can0 000A0003#FF45000910490000
(1763088444.441535) can0 000A0004#FFEDFFE5FFAB8E02
(1763088444.443128) can0 482#0000000028340001
(1763088444.443249) can0 701#05
(1763088444.445758) can0 382#0F000C0000000000
(1763088444.447621) can0 1A3#4000BF09000000
(1763088444.447996) can0 189#4D029C015F0100D1
(1763088444.451112) can0 4C4#057E063E068C06C4
(1763088444.451399) can0 000A0003#FF43000910460000
(1763088444.451688) can0 000A0004#FFEAFFE7FFAA8E02
(1763088444.451900) can0 1A0#000000000000
(1763088444.452131) can0 4C5#069D063D06610660
(1763088444.452431) can0 000A0000#0000000000000000
(1763088444.452731) can0 000A0001#0000000000000000
(1763088444.453035) can0 000A0002#0000000000000000
(1763088444.453260) can0 4C6#0670065E06440652
(1763088444.454067) can0 181#D10100207F00000D
(1763088444.454303) can0 4C7#06B80633051B04FD
(1763088444.455179) can0 4C8#05DA000000000000
(1763088444.457998) can0 189#4D029E015C0100D1
(1763088444.461254) can0 000A0003#FF41000810440000
(1763088444.461538) can0 000A0004#FFEBFFE7FFAB8E02
(1763088444.464507) can0 701#05
(1763088444.464984) can0 482#0000000028340001
(1763088444.467503) can0 382#02001E0000000000
(1763088444.467978) can0 186#E1E24C1D09080000
(1763088444.468558) can0 189#4C029C015C0100D1
(1763088444.471255) can0 000A0003#FF3F000710430000
(1763088444.471538) can0 000A0004#FFEBFFE8FFAA8E02
(1763088444.475783) can0 281#0000000000000000
(1763088444.477998) can0 189#4D029E015E0100D1
(1763088444.481257) can0 000A0003#FF41000910440000
(1763088444.481539) can0 000A0004#FFEBFFE8FFAA8E02
(1763088444.481777) can0 682#4F532D0400003700
(1763088444.486264) can0 701#05
(1763088444.486705) can0 482#0000000028340001
(1763088444.488009) can0 189#4D029E015E0100D1
(1763088444.488423) can0 080#
(1763088444.489544) can0 286#6400900100000000
(1763088444.489787) can0 382#0400EDFF00000000
(1763088444.491255) can0 000A0003#FF43000A10450000
(1763088444.491541) can0 000A0004#FFECFFE9FFAA8E02
(1763088444.491768) can0 1A4#0000600A000000
(1763088444.491995) can0 2A3#121A1A1918150F0D
(1763088444.492298) can0 181#D10100207F00000D
(1763088444.492716) can0 1A2#0000E70D000000
(1763088444.492946) can0 2A1#1A1D1C1B1917130F
(1763088444.496526) can0 1A5#0000BB0D000000
(1763088444.497995) can0 189#4E029E015D0100D1
(1763088444.501253) can0 000A0003#FF45000D10430000
(1763088444.501534) can0 000A0004#FFEBFFE8FFAA8E02
(1763088444.505393) can0 188#0C00FA2D00000000
(1763088444.506190) can0 288#D729441A00410000
(1763088444.507198) can0 388#2A2A2E2325000000
(1763088444.507974) can0 186#E1E24C1D09090000
(1763088444.508164) can0 191#9D9D9D9D9D9C
(1763088444.508321) can0 701#05
(1763088444.508601) can0 189#4D029E015D0100D1
(1763088444.508913) can0 482#0000000028340001
(1763088444.509154) can0 192#9C9D9C9C9C9C
(1763088444.510159) can0 193#9C9D9D9D9D9D
(1763088444.511259) can0 000A0003#FF47000E10420000
(1763088444.511545) can0 000A0004#FFEAFFE8FFAB8E02
(1763088444.511738) can0 194#9C9D9D9D9D9D
(1763088444.511982) can0 382#F6FFFEFF00000000
(1763088444.512174) can0 195#9C9D9D9D9D9D
(1763088444.513157) can0 291#1B212423231F
(1763088444.514162) can0 292#1D232524251F
(1763088444.515165) can0 293#1D222423231E
(1763088444.516105) can0 4C4#057E063E068C06C4
(1763088444.516300) can0 294#1D222423231F
(1763088444.517114) can0 4C5#069D063D06610660
(1763088444.517304) can0 295#1B212320211D
(1763088444.517989) can0 189#4C029C015C0100D1
(1763088444.518219) can0 4C6#0670065E06440652
(1763088444.519147) can0 4C7#06B80633051B04FD
(1763088444.519400) can0 281#0000000000000000
(1763088444.520174) can0 4C8#05DA000000000000
(1763088444.521263) can0 000A0003#FF49001010450000
(1763088444.521546) can0 000A0004#FFEBFFE8FFAA8E02
(1763088444.522323) can0 682#4F532D0400003700
(1763088444.527995) can0 189#4E029F015D0100D1
(1763088444.530175) can0 701#05
(1763088444.530642) can0 181#D10100207F00000D
(1763088444.530982) can0 482#0000000028340001
(1763088444.531267) can0 000A0003#FF4C001210480000
(1763088444.531556) can0 000A0004#FFEFFFE7FFAA8E02
(1763088444.533113) can0 382#FAFF080000000000
(1763088444.537993) can0 189#4E029F015D0100D1
(1763088444.541281) can0 000A0003#FF50001010480000
(1763088444.541554) can0 000A0004#FFEFFFE7FFAB8E02
(1763088444.547973) can0 186#E8E24C1D090A0000
(1763088444.548578) can0 189#4D029E015D0100D1
(1763088444.548802) can0 1A3#4000BF09000000
(1763088444.551262) can0 000A0003#FF52000F10480000
(1763088444.551546) can0 000A0004#FFEFFFE6FFAB8E02
(1763088444.551758) can0 1A0#000000000000
(1763088444.551875) can0 701#05
(1763088444.552268) can0 000A0000#0000000000000000
(1763088444.552568) can0 000A0001#0000000000000000
(1763088444.552866) can0 000A0002#0000000000000000
(1763088444.553115) can0 482#0000000028340001
(1763088444.555105) can0 382#FAFF080000000000
(1763088444.557991) can0 189#4D029E015E0100D1
(1763088444.561265) can0 000A0003#FF54000D10480000
(1763088444.561550) can0 000A0004#FFEEFFE7FFAB8E02
(1763088444.565788) can0 682#4F532D0400003700
(1763088444.566134) can0 281#0000000000000000
(1763088444.567983) can0 189#4D029D015E0100D1
(1763088444.571260) can0 000A0003#FF57000B10490000
(1763088444.571544) can0 000A0004#FFEEFFE8FFAB8E02
(1763088444.571790) can0 181#D10100207F00000D
(1763088444.571909) can0 701#05
(1763088444.572159) can0 482#0000000028340001
(1763088444.576824) can0 382#2200060000000000
(1763088444.577987) can0 189#4D029D015D0100D1
(1763088444.579962) can0 19A#00007C77687C8080
(1763088444.580970) can0 29A#8079848183830000
(1763088444.581202) can0 4C4#0579063E069006C4
(1763088444.581490) can0 000A0003#FF57000A10460000
(1763088444.581773) can0 000A0004#FFEDFFE8FFAC8E02
(1763088444.582165) can0 4C5#0697063D065B0660
(1763088444.583182) can0 4C6#0670066006470655
(1763088444.584195) can0 4C7#06B80630052004ED
(1763088444.585229) can0 4C8#05DA000000000000
(1763088444.587991) can0 186#DAE24C1D090B0000
(1763088444.588542) can0 189#4D029D015C0100D1
(1763088444.589408) can0 080#
(1763088444.590557) can0 286#6400900100000000
(1763088444.591271) can0 000A0003#FF58000810420000
(1763088444.591557) can0 000A0004#FFEDFFE7FFAC8E02
(1763088444.595577) can0 701#05
(1763088444.596048) can0 482#0000000028340001
(1763088444.596464) can0 188#0C008A2E00000000
(1763088444.597210) can0 288#D729442900410000
(1763088444.597984) can0 189#4D029D015C0100D1
(1763088444.598222) can0 388#2A2A2E2325000000
(1763088444.598449) can0 1A4#0000600A000000
(1763088444.598676) can0 2A3#121A1A1918150F0D
(1763088444.598898) can0 1A5#0000BB0D000000
(1763088444.599147) can0 382#0800F8FF00000000
(1763088444.599337) can0 191#9D9D9D9D9D9C
(1763088444.600159) can0 192#9C9D9C9C9C9C
(1763088444.600383) can0 1A2#0000E70D000000
(1763088444.600613) can0 2A1#1A1D1C1B1917130F
(1763088444.601165) can0 193#9C9D9D9D9D9D
(1763088444.601457) can0 000A0003#FF58000810400000
(1763088444.601744) can0 000A0004#FFECFFE7FFAD8E02
(1763088444.602143) can0 194#9C9D9D9D9D9D
(1763088444.603149) can0 195#9C9D9D9D9D9D
(1763088444.604155) can0 291#1B212323231F
(1763088444.605168) can0 292#1D232524251F
(1763088444.606167) can0 293#1D222423231E
(1763088444.606830) can0 682#4F532D0400003700
(1763088444.607150) can0 294#1D222423231F
(1763088444.607980) can0 189#4E029D015B0100D1
(1763088444.608172) can0 295#1B212320211D
(1763088444.609382) can0 281#0000000000000000
(1763088444.609829) can0 181#D10100207F00000D
(1763088444.611269) can0 000A0003#FF590009103D0000
(1763088444.611553) can0 000A0004#FFECFFE6FFAD8E02
(1763088444.617324) can0 701#05
(1763088444.617777) can0 482#0000000028340001
(1763088444.618000) can0 189#4D029E015D0100D1
(1763088444.620631) can0 382#0F000C0000000000
(1763088444.621264) can0 000A0003#FF5B0009103E0000
(1763088444.621547) can0 000A0004#FFEBFFE6FFAD8E02
(1763088444.627965) can0 186#E8E24C1D090C0000
(1763088444.628570) can0 189#4D029D015E0100D1
(1763088444.631272) can0 000A0003#FF5F000A103F0000
(1763088444.631560) can0 000A0004#FFECFFE7FFAD8E02
(1763088444.637983) can0 189#4E029F015D0100D1
(1763088444.639251) can0 701#05
(1763088444.639832) can0 482#0000000028340001
(1763088444.640183) can0 382#F9FFEBFF00000000
(1763088444.641292) can0 000A0003#FF62000C10420000
(1763088444.641553) can0 000A0004#FFEBFFE7FFAC8E02
(1763088444.646220) can0 4C4#0579063E069006C4
(1763088444.647233) can0 4C5#0697063D065B0660
(1763088444.647976) can0 189#4E029C015D0100D1
(1763088444.648214) can0 682#4F532D0400003700
(1763088444.648446) can0 4C6#0670066006470655
(1763088444.648692) can0 181#D10100207F00000D
(1763088444.649260) can0 4C7#06B80630052004ED
(1763088444.649693) can0 1A3#4000BF09000000
(1763088444.650289) can0 4C8#05DA000000000000
(1763088444.651269) can0 000A0003#FF65000F10450000
(1763088444.651555) can0 000A0004#FFEBFFE7FFAD8E02
(1763088444.651768) can0 1A0#000000000000
(1763088444.652283) can0 000A0000#0000000000000000
(1763088444.652585) can0 000A0001#0000000000000000
(1763088444.652881) can0 000A0002#0000000000000000
(1763088444.653186) can0 281#0000000000000000
(1763088444.657976) can0 189#4E029F015C0100D1
(1763088444.658715) can0 701#05
(1763088444.661271) can0 000A0003#FF66000F10470000
(1763088444.661556) can0 000A0004#FFECFFE7FFAC8E02
(1763088444.661803) can0 482#0000000028340001
(1763088444.664101) can0 382#04000A0000000000
(1763088444.667959) can0 186#E1E24C1D090D0000
(1763088444.668573) can0 189#4E029E015C0100D1
(1763088444.671279) can0 000A0003#FF660010104A0000
(1763088444.671559) can0 000A0004#FFEDFFE6FFAD8E02
(1763088444.677974) can0 189#4F029F015D0100D1
(1763088444.681273) can0 000A0003#FF68001210490000
(1763088444.681558) can0 000A0004#FFF1FFE5FFAD8E02
(1763088444.682858) can0 701#05
(1763088444.683301) can0 482#0000000028340001
(1763088444.686164) can0 382#1E00190000000000
(1763088444.686496) can0 181#D10100207F00000D
(1763088444.687991) can0 189#4D029D015D0100D1
(1763088444.688407) can0 080#
(1763088444.688743) can0 682#4F532D0400003700
(1763088444.689561) can0 286#6400900100000000
(1763088444.691277) can0 000A0003#FF69001310490000
(1763088444.691563) can0 000A0004#FFF0FFE5FFAD8E02
(1763088444.696441) can0 188#0C00402D00000000
(1763088444.696964) can0 281#0000000000000000
(1763088444.697196) can0 288#D729442900410000
