(1763086930.660868) can0 701#05
(1763086930.661282) can0 1A5#000FD10C000000
(1763086930.664098) can0 186#4D1B4C1D09080000
(1763086930.664385) can0 000A0003#FC1DFF5D0F8B0000
(1763086930.664673) can0 000A0004#00000029006F8E02
(1763086930.666840) can0 382#BC0AC000830A0000
(1763086930.669383) can0 482#0003150008360001
(1763086930.672188) can0 281#FE0200001B000000
(1763086930.673736) can0 1A0#000000000000
(1763086930.674332) can0 000A0003#FC0CFF510F9B0000
(1763086930.674621) can0 000A0004#0002002600708E02
(1763086930.675355) can0 000A0000#0000000000000000
(1763086930.675653) can0 000A0001#0000000000000000
(1763086930.675951) can0 000A0002#0000000000000000
(1763086930.682753) can0 701#05
(1763086930.683246) can0 181#D10300207F000009
(1763086930.684340) can0 000A0003#FC00FF4A0FA50000
(1763086930.684641) can0 000A0004#00000024006F8E02
(1763086930.688476) can0 382#7E0AF6FF950A0000
(1763086930.688933) can0 482#0303150008360001
(1763086930.694346) can0 000A0003#FC03FF400F9D0000
(1763086930.694629) can0 000A0004#FFFD001B006F8E02
(1763086930.696903) can0 682#414803040000BC01
(1763086930.703644) can0 19A#0000806D707D8080
(1763086930.704135) can0 186#351B4C1D09090000
(1763086930.704424) can0 000A0003#FC0FFF360F8A0000
(1763086930.704713) can0 000A0004#FFF80014006E8E02
(1763086930.704943) can0 189#750435034E011751
(1763086930.705174) can0 29A#8271848186840000
(1763086930.705290) can0 701#05
(1763086930.705393) can0 080#
(1763086930.705756) can0 4C4#059605AA05590587
(1763086930.706489) can0 286#0000580200000000
(1763086930.706769) can0 4C5#05A8059605880563
(1763086930.707786) can0 4C6#0575057D0588058E
(1763086930.708803) can0 4C7#05A405A505A505B2
(1763086930.709828) can0 4C8#04F5000000000000
(1763086930.710416) can0 482#0E03150008360001
(1763086930.710753) can0 382#8F0AAE008B0A0000
(1763086930.711532) can0 188#0C00FF3200000000
(1763086930.712297) can0 288#3C28245000140000
(1763086930.713267) can0 388#2424262324000000
(1763086930.714219) can0 191#8F8F8F8F8F8E
(1763086930.714503) can0 000A0003#FC2AFF330F5D0000
(1763086930.714787) can0 000A0004#FFFD0013006F8E02
(1763086930.715227) can0 192#8F8F8F8F8F8F
(1763086930.715664) can0 281#0B0300001B000000
(1763086930.716235) can0 193#8F8F8F8F8F8F
(1763086930.717232) can0 194#8F8F8F8F8F8F
(1763086930.718236) can0 195#8F8F8F8F8F8F
(1763086930.719232) can0 291#121313131213
(1763086930.720243) can0 292#121313131313
(1763086930.721249) can0 293#121313131313
(1763086930.721490) can0 181#D10300207F000009
(1763086930.721714) can0 1A3#C008BF09000000
(1763086930.722212) can0 294#131413141313
(1763086930.723221) can0 295#131414141413
(1763086930.724338) can0 000A0003#FC3DFF300F410000
(1763086930.724628) can0 000A0004#00010013006F8E02
(1763086930.726338) can0 701#05
(1763086930.732143) can0 482#1003150008360001
(1763086930.732474) can0 382#8C0A76FF8B0A0000
(1763086930.734339) can0 000A0003#FC60FF450F370000
(1763086930.734631) can0 000A0004#0008001800708E02
(1763086930.737603) can0 682#414804040000C201
(1763086930.744100) can0 186#FD1A4C1D090A0000
(1763086930.744381) can0 000A0003#FC86FF640F3D0000
(1763086930.744667) can0 000A0004#0009001B00708E02
(1763086930.747728) can0 1A2#C007300E000000
(1763086930.747962) can0 2A1#1F1F1F21201F1E21
(1763086930.748273) can0 701#05
(1763086930.753988) can0 382#730A7500750A0000
(1763086930.754337) can0 000A0003#FC97FF730F4F0000
(1763086930.754623) can0 000A0004#0006001D00708E02
(1763086930.754865) can0 482#1303150008360001
(1763086930.757426) can0 1A4#000EC809000000
(1763086930.757648) can0 2A3#1D1E1D1B1A1B1C1C
(1763086930.759432) can0 281#190300001B000000
(1763086930.762285) can0 181#D10300207F000009
(1763086930.763382) can0 1A5#C011D10C000000
(1763086930.764340) can0 000A0003#FCA3FF890F6A0000
(1763086930.764631) can0 000A0004#0000002000718E02
(1763086930.770109) can0 701#05
(1763086930.770860) can0 4C4#059605AA05590587
(1763086930.771873) can0 4C5#05A8059605880563
(1763086930.772890) can0 4C6#0575057D0588058E
(1763086930.773732) can0 1A0#000000000000
(1763086930.773965) can0 4C7#05A405A505A505B2
(1763086930.774350) can0 000A0003#FCA1FF940F780000
(1763086930.774640) can0 000A0004#FFF8002600738E02
(1763086930.774930) can0 4C8#04F5000000000000
(1763086930.775374) can0 000A0000#0000000000000000
(1763086930.775672) can0 000A0001#0000000000000000
(1763086930.775970) can0 000A0002#0000000000000000
(1763086930.776211) can0 482#1D03150008360001
(1763086930.776469) can0 382#850AD6FF750A0000
(1763086930.781375) can0 682#414803040000C801
(1763086930.784091) can0 186#101B4C1D090B0000
(1763086930.784377) can0 000A0003#FC98FF980F7F0000
(1763086930.784665) can0 000A0004#FFF4002700758E02
(1763086930.791852) can0 701#05
(1763086930.794345) can0 000A0003#FC92FF8B0F720000
(1763086930.794631) can0 000A0004#FFF5002800768E02
(1763086930.797650) can0 482#2203150008360001
(1763086930.798231) can0 382#8F0A87FF7D0A0000
(1763086930.800378) can0 181#D10300207F000009
(1763086930.800626) can0 281#230300001B000000
(1763086930.804137) can0 189#750432034E011751
(1763086930.804422) can0 000A0003#FC89FF780F5F0000
(1763086930.804711) can0 000A0004#FFF5002600778E02
(1763086930.804811) can0 080#
(1763086930.805492) can0 286#0000580200000000
(1763086930.811047) can0 701#05
(1763086930.811521) can0 188#0C00DB3200000000
(1763086930.812264) can0 288#2E28434700140000
(1763086930.813275) can0 388#2424262324000000
(1763086930.814235) can0 191#8E8E8F8E8E8E
(1763086930.814521) can0 000A0003#FC8CFF7A0F4E0000
(1763086930.814809) can0 000A0004#FFF4002000778E02
(1763086930.815251) can0 192#8E8E8E8E8E8E
(1763086930.816250) can0 193#8E8E8E8F8E8F
(1763086930.816876) can0 482#2D03150008360001
(1763086930.817234) can0 194#8E8F8F8F8F8F
(1763086930.818242) can0 195#8E8F8F8F8F8F
(1763086930.819241) can0 291#121313131213
(1763086930.819595) can0 382#6C0AA2FF7D0A0000
(1763086930.820249) can0 292#121313131313
(1763086930.821227) can0 293#131313131313
(1763086930.822236) can0 294#131313141313
(1763086930.822473) can0 682#414803040000D201
(1763086930.822696) can0 1A3#C00FB509000000
(1763086930.823247) can0 295#131414141413
(1763086930.824088) can0 186#1F1B4C1D090C0000
(1763086930.824376) can0 000A0003#FC96FF850F3F0000
(1763086930.824665) can0 000A0004#FFF1001A00758E02
(1763086930.833124) can0 701#05
(1763086930.834350) can0 000A0003#FC98FF820F2B0000
(1763086930.834636) can0 000A0004#FFEF001500758E02
(1763086930.835984) can0 4C4#057205810535055B
(1763086930.837000) can0 4C5#057705780564054D
(1763086930.838013) can0 4C6#05580560056B056A
(1763086930.838617) can0 482#3303150008360001
(1763086930.839026) can0 4C7#057D058705840597
(1763086930.839270) can0 181#D10300207F000009
(1763086930.839519) can0 382#960A6000820A0000
(1763086930.840053) can0 4C8#04F5000000000000
(1763086930.844157) can0 281#350300001B000000
(1763086930.844451) can0 000A0003#FC97FF7E0F0F0000
(1763086930.844734) can0 000A0004#FFED001100728E02
(1763086930.854356) can0 000A0003#FC90FF820F0B0000
(1763086930.854640) can0 000A0004#FFF0000D00728E02
(1763086930.854758) can0 701#05
(1763086930.855092) can0 1A2#C013300E000000
(1763086930.855324) can0 2A1#1F1F1F2122222221
(1763086930.860452) can0 382#9D0A5300820A0000
(1763086930.860900) can0 482#3603150008360001
(1763086930.863268) can0 682#414802040000D401
(1763086930.864084) can0 186#201B4C1D090D0000
(1763086930.864371) can0 000A0003#FC8AFF870F100000
(1763086930.864662) can0 000A0004#FFF0000A00718E02
(1763086930.864886) can0 1A4#C007C809000000
(1763086930.865115) can0 2A3#1C1F1D1B1A1B1C1C
(1763086930.865491) can0 1A5#C009240D000000
(1763086930.873745) can0 1A0#000000000000
(1763086930.874359) can0 000A0003#FC8BFF770F1E0000
(1763086930.874645) can0 000A0004#FFEE000D00708E02
(1763086930.875368) can0 000A0000#0000000000000000
(1763086930.875669) can0 000A0001#0000000000000000
(1763086930.875965) can0 000A0002#0000000000000000
(1763086930.876584) can0 701#05
(1763086930.877036) can0 181#D10300207F000009
(1763086930.882294) can0 482#4103150008360001
(1763086930.882714) can0 382#CE0A0200830A0000
(1763086930.884350) can0 000A0003#FC9FFF5D0F2F0000
(1763086930.884640) can0 000A0004#FFEC000C006F8E02
(1763086930.887619) can0 281#440300001B000000
(1763086930.894355) can0 000A0003#FCAEFF5C0F4F0000
(1763086930.894639) can0 000A0004#FFF0000D006E8E02
(1763086930.898310) can0 701#05
(1763086930.901124) can0 4C4#058705A10555057F
(1763086930.902137) can0 4C5#05A005920581055F
(1763086930.903149) can0 4C6#0575057505810583
(1763086930.904115) can0 186#641B4C1D090E0000
(1763086930.904400) can0 000A0003#FCB6FF640F690000
(1763086930.904692) can0 000A0004#FFF3000A006F8E02
(1763086930.904919) can0 189#770437034E011751
(1763086930.905159) can0 482#4A03150008360001
(1763086930.905405) can0 4C8#04F5000000000000
(1763086930.905506) can0 080#
(1763086930.905738) can0 4C7#059D05A5059D05A5
(1763086930.905976) can0 682#414802040000DE01
(1763086930.906250) can0 382#760AC8FF830A0000
(1763086930.906493) can0 286#0000580200000000
(1763086930.909641) can0 19A#00007D70737F817C
(1763086930.910639) can0 29A#7F71827F84840000
(1763086930.914362) can0 000A0003#FCB4FF740F8F0000
(1763086930.914643) can0 000A0004#FFF4000B006D8E02
(1763086930.915130) can0 181#D10300207F000009
(1763086930.920157) can0 701#05
(1763086930.920511) can0 188#0C00233300000000
(1763086930.921257) can0 288#2E284A3500140000
(1763086930.922264) can0 388#2424262324000000
(1763086930.923246) can0 191#8E8E8F8E8E8E
(1763086930.923471) can0 1A3#000CA109000000
(1763086930.924228) can0 192#8E8E8E8E8E8E
(1763086930.924518) can0 000A0003#FC99FF8A0FB40000
(1763086930.924803) can0 000A0004#FFF3000B006C8E02
(1763086930.925232) can0 193#8E8E8E8F8E8F
(1763086930.926051) can0 482#5703150008360001
(1763086930.926251) can0 194#8E8F8F8F8F8F
(1763086930.926492) can0 382#B20A5FFF9D0A0000
(1763086930.927253) can0 195#8E8F8F8F8F8F
(1763086930.928250) can0 291#121313131213
(1763086930.929228) can0 292#121313131313
(1763086930.930234) can0 293#131313131313
(1763086930.931248) can0 294#131313141313
(1763086930.931490) can0 281#540300001B000000
(1763086930.932256) can0 295#131414141413
(1763086930.934360) can0 000A0003#FC85FF9B0FAF0000
(1763086930.934648) can0 000A0004#FFED0004006B8E02
(1763086930.942080) can0 701#05
(1763086930.944073) can0 186#5E1B4C1D090F0000
(1763086930.944364) can0 000A0003#FC7BFFA50F9E0000
(1763086930.944653) can0 000A0004#FFE70001006B8E02
(1763086930.947787) can0 682#414801040000E401
(1763086930.948021) can0 382#780ADB009D0A0000
(1763086930.948605) can0 482#5603150008360001
(1763086930.954369) can0 000A0003#FC5CFFAF0F8B0000
(1763086930.954651) can0 000A0004#FFE0FFF7006C8E02
(1763086930.956087) can0 181#D10300207F000009
(1763086930.962469) can0 1A2#C0071D0E000000
(1763086930.962701) can0 2A1#201F1F2122222221
(1763086930.963917) can0 701#05
(1763086930.964362) can0 000A0003#FC21FFB00F7B0000
(1763086930.964648) can0 000A0004#FFDCFFED006D8E02
(1763086930.966282) can0 4C4#058705A10555057F
(1763086930.967002) can0 482#6303150008360001
(1763086930.967300) can0 4C5#05A005920581055F
(1763086930.967539) can0 382#BC0ADBFF9B0A0000
(1763086930.967764) can0 1A5#C00F1A0D000000
(1763086930.968311) can0 4C6#0575057505810583
(1763086930.969325) can0 4C7#059D05A5059D05A5
(1763086930.970352) can0 4C8#04F5000000000000
(1763086930.971145) can0 1A4#C009B509000000
(1763086930.971379) can0 2A3#1C1F201D1A1B1C1C
(1763086930.973743) can0 1A0#000000000000
(1763086930.974366) can0 000A0003#FC15FFA30F7F0000
(1763086930.974656) can0 000A0004#FFDFFFEB006F8E02
(1763086930.975084) can0 281#660300001B000000
(1763086930.975384) can0 000A0000#0000000000000000
(1763086930.975685) can0 000A0001#0000000000000000
(1763086930.975984) can0 000A0002#0000000000000000
(1763086930.984075) can0 186#DE1A4C1D09000000
(1763086930.984364) can0 000A0003#FC2BFF7F0F9A0000
(1763086930.984655) can0 000A0004#FFE5FFE9006F8E02
(1763086930.985873) can0 701#05
(1763086930.988715) can0 482#6A03150008360001
(1763086930.988983) can0 682#414801040000ED01
(1763086930.989306) can0 382#810A5C006A0A0000
(1763086930.994216) can0 181#D10300207F000009
(1763086930.994498) can0 000A0003#FC37FF670FB30000
(1763086930.994784) can0 000A0004#FFF0FFE900728E02
(1763086931.004123) can0 189#67042C0350011651
(1763086931.004405) can0 000A0003#FC34FF650FCB0000
(1763086931.004691) can0 000A0004#FFF0FFEA00738E02
(1763086931.004792) can0 080#
(1763086931.005506) can0 286#0000580200000000
(1763086931.008049) can0 482#6303150008360001
(1763086931.008168) can0 701#05
(1763086931.008404) can0 382#860A73006A0A0000
(1763086931.011527) can0 188#0C00DB3200000000
(1763086931.012285) can0 288#1C28365400140000
(1763086931.013287) can0 388#2424262324000000
(1763086931.014248) can0 191#8E8D8E8D8E8D
(1763086931.014538) can0 000A0003#FC3FFF5F0FD70000
(1763086931.014825) can0 000A0004#FFEDFFEC00738E02
(1763086931.015228) can0 192#8E8E8E8E8D8E
(1763086931.016232) can0 193#8E8E8E8E8E8E
(1763086931.017245) can0 194#8E8E8E8E8E8E
(1763086931.018248) can0 195#8E8E8E8E8E8E
(1763086931.018779) can0 281#650300001B000000
(1763086931.019225) can0 291#121313131213
(1763086931.020233) can0 292#121313131313
(1763086931.021242) can0 293#131313131313
(1763086931.022245) can0 294#131313131313
(1763086931.023259) can0 295#131314141413
(1763086931.024071) can0 186#781A4C1D09010000
(1763086931.024297) can0 1A3#800FC409000000
(1763086931.024596) can0 000A0003#FC64FF4F0FE50000
(1763086931.024868) can0 000A0004#FFECFFF000708E02
(1763086931.029663) can0 482#7003150008360001
(1763086931.029783) can0 701#05
(1763086931.030030) can0 682#414801040000F001
(1763086931.030364) can0 382#470A41FF420A0000
(1763086931.031427) can0 4C4#05870598054C0577
(1763086931.032440) can0 4C5#058E058B056F0551
(1763086931.033456) can0 4C6#0563056E05790578
(1763086931.034371) can0 000A0003#FC70FF4610000000
(1763086931.034656) can0 000A0004#FFEEFFED006D8E02
(1763086931.034890) can0 4C7#0593059A059505A9
(1763086931.035255) can0 181#D10300207F000009
(1763086931.035499) can0 4C8#04F5000000000000
(1763086931.044374) can0 000A0003#FC51FF4A10330000
(1763086931.044660) can0 000A0004#FFFBFFED006C8E02
(1763086931.051184) can0 701#05
(1763086931.051624) can0 382#0A0A0F00420A0000
(1763086931.051987) can0 482#7603150008360001
(1763086931.054375) can0 000A0003#FC42FF4E10560000
(1763086931.054659) can0 000A0004#0001FFEA006B8E02
(1763086931.062323) can0 281#7D0300001A000000
(1763086931.064067) can0 186#E91A4C1D09020000
(1763086931.064375) can0 000A0003#FC34FF56108B0000
(1763086931.064665) can0 000A0004#0003FFE000698E02
(1763086931.069697) can0 1A5#C013240D000000
(1763086931.069923) can0 1A2#C0081D0E000000
(1763086931.070157) can0 2A1#201F1E2022242221
(1763086931.070750) can0 682#414801040000F201
(1763086931.071054) can0 701#05
(1763086931.071421) can0 382#730AD0006E0A0000
(1763086931.073473) can0 482#7703150008360001
(1763086931.073744) can0 1A0#000000000000
(1763086931.074368) can0 000A0003#FC26FF5E10A50000
(1763086931.074654) can0 000A0004#FFFFFFD700688E02
(1763086931.075387) can0 000A0000#0000000000000000
(1763086931.075686) can0 000A0001#0000000000000000
(1763086931.075984) can0 000A0002#0000000000000000
(1763086931.076226) can0 181#D10300207F000009
(1763086931.078008) can0 1A4#800FB509000000
(1763086931.078241) can0 2A3#1C1F201D1A1B1C1C
(1763086931.084375) can0 000A0003#FC1CFF6410930000
(1763086931.084662) can0 000A0004#FFFAFFD200678E02
(1763086931.092128) can0 701#05
(1763086931.092559) can0 382#6D0AA5FF6E0A0000
(1763086931.092930) can0 482#8903150008360001
(1763086931.094375) can0 000A0003#FC11FF6A10810000
(1763086931.094659) can0 000A0004#FFF5FFC900678E02
(1763086931.096577) can0 4C4#05870598054C0577
(1763086931.097576) can0 4C5#058E058B056F0551
(1763086931.098592) can0 4C6#0563056E05790578
(1763086931.098833) can0 19A#00007F747581807F
(1763086931.099608) can0 4C7#0593059A059505A9
(1763086931.099846) can0 29A#7F6B848082820000
(1763086931.100638) can0 4C8#04F5000000000000
(1763086931.104099) can0 186#751A4C1D09030000
(1763086931.104390) can0 000A0003#FC0FFF6B107F0000
(1763086931.104682) can0 000A0004#FFF1FFC400698E02
(1763086931.104908) can0 189#64042D034D011651
(1763086931.105340) can0 080#
(1763086931.106340) can0 281#8B0300001B000000
(1763086931.106584) can0 286#0000580200000000
(1763086931.111509) can0 188#0C00E43200000000
(1763086931.111752) can0 682#414801040000F601
(1763086931.112272) can0 288#1C28365400140000
(1763086931.113278) can0 388#2424262324000000
(1763086931.114208) can0 191#8E8D8E8D8E8D
(1763086931.114495) can0 000A0003#FC12FF6510770000
(1763086931.114780) can0 000A0004#FFF4FFC3006A8E02
(1763086931.115020) can0 482#8F03150008360001
(1763086931.115218) can0 192#8E8E8E8E8D8E
(1763086931.115336) can0 701#05
(1763086931.115637) can0 382#5D0A2DFF410A0000
(1763086931.115883) can0 181#D10300207F000009
(1763086931.116240) can0 193#8E8E8E8E8E8E
(1763086931.117255) can0 194#8E8E8E8E8E8E
(1763086931.118223) can0 195#8E8E8E8E8E8E
(1763086931.119231) can0 291#121313131213
(1763086931.120242) can0 292#121313131313
(1763086931.121231) can0 293#131313131313
(1763086931.122235) can0 294#131313131313
(1763086931.123217) can0 295#131314141413
(1763086931.124380) can0 000A0003#FC1CFF57106A0000
(1763086931.124670) can0 000A0004#FFF7FFC2006A8E02
(1763086931.125098) can0 1A3#C00FC409000000
(1763086931.134384) can0 000A0003#FC23FF4B10500000
(1763086931.134670) can0 000A0004#FFFBFFC5006A8E02
(1763086931.135799) can0 701#05
(1763086931.136160) can0 482#8F03150008360001
(1763086931.136596) can0 382#460A63FF410A0000
(1763086931.144060) can0 186#651A4C1D09040000
(1763086931.144384) can0 000A0003#FC1BFF50102A0000
(1763086931.144669) can0 000A0004#FFFAFFC600698E02
(1763086931.149816) can0 281#900300001A000000
(1763086931.152614) can0 682#414801040000FA01
(1763086931.154386) can0 000A0003#FC1BFF50101E0000
(1763086931.154670) can0 000A0004#FFF6FFCA00688E02
(1763086931.155253) can0 181#D10300207F000009
(1763086931.155371) can0 701#05
(1763086931.156040) can0 482#9803150008360001
(1763086931.160809) can0 382#220A74003A0A0000
(1763086931.161692) can0 4C4#057D059C054C0573
(1763086931.162701) can0 4C5#0592058705760558
(1763086931.163720) can0 4C6#0566056E057D0578
(1763086931.164384) can0 000A0003#FC26FF4C10360000
(1763086931.164671) can0 000A0004#FFF4FFCC00678E02
(1763086931.164903) can0 4C7#0593059605910597
(1763086931.165756) can0 4C8#04F5000000000000
(1763086931.171790) can0 1A5#000FF80C000000
(1763086931.173747) can0 1A0#000000000000
(1763086931.174392) can0 000A0003#FC35FF4010580000
(1763086931.174677) can0 000A0004#FFF2FFCF00648E02
(1763086931.175398) can0 000A0000#0000000000000000
(1763086931.175697) can0 000A0001#0000000000000000
(1763086931.175996) can0 000A0002#0000000000000000
(1763086931.177203) can0 1A2#C009130E000000
(1763086931.177430) can0 2A1#211F1E2022242322
(1763086931.179566) can0 701#05
(1763086931.180033) can0 482#A403150008360001
(1763086931.182784) can0 382#3A0AD8003A0A0000
(1763086931.184056) can0 186#A01A4C1D09050000
(1763086931.184384) can0 000A0003#FC3DFF2A10780000
(1763086931.184674) can0 000A0004#FFF2FFD200638E02
(1763086931.184898) can0 1A4#C008A109000000
(1763086931.185132) can0 2A3#1C1F201D1A1B1C1C
(1763086931.193340) can0 281#AA0300001B000000
(1763086931.193692) can0 682#4148010400000202
(1763086931.194051) can0 181#D10300207F000009
(1763086931.194389) can0 000A0003#FC41FF1C108D0000
(1763086931.194674) can0 000A0004#FFF2FFD100618E02
(1763086931.201538) can0 701#05
(1763086931.201986) can0 482#A503150008360001
(1763086931.204100) can0 189#68042F034F011651
(1763086931.204388) can0 000A0003#FC6AFF2F109B0000
(1763086931.204677) can0 000A0004#FFECFFD200608E02
(1763086931.204780) can0 080#
(1763086931.205017) can0 382#130A3C00510A0000
(1763086931.205490) can0 286#0000580200000000
(1763086931.211511) can0 188#0C00ED3200000000
(1763086931.212298) can0 288#1528045200140000
(1763086931.213272) can0 388#2424262324000000
(1763086931.214233) can0 191#8D8D8E8D8E8D
(1763086931.214517) can0 000A0003#FC91FF4210B00000
(1763086931.214810) can0 000A0004#FFEBFFD0005F8E02
(1763086931.215241) can0 192#8D8D8E8D8D8D
(1763086931.216247) can0 193#8D8E8E8E8E8E
(1763086931.217229) can0 194#8E8E8E8E8E8E
(1763086931.218232) can0 195#8E8E8E8E8E8E
(1763086931.219239) can0 291#121213131213
(1763086931.220249) can0 292#121313131313
(1763086931.221255) can0 293#121313131313
(1763086931.222235) can0 294#131413141313
(1763086931.223158) can0 701#05
(1763086931.223356) can0 295#131414141414
(1763086931.223739) can0 482#B003150008360001
(1763086931.224068) can0 186#6B1A4C1D09060000
(1763086931.224303) can0 382#780AA8FF510A0000
(1763086931.224596) can0 000A0003#FC99FF5610D50000
(1763086931.224872) can0 000A0004#FFECFFD3005F8E02
(1763086931.225977) can0 1A3#C013C809000000
(1763086931.226814) can0 4C4#0582059C054C0577
(1763086931.227853) can0 4C5#0592058705790558
(1763086931.228845) can0 4C6#05660572057D0583
(1763086931.229853) can0 4C7#059A059E059D05AD
(1763086931.230878) can0 4C8#04F5000000000000
(1763086931.232034) can0 181#D10300207F000009
(1763086931.234385) can0 000A0003#FC9EFF6310ED0000
(1763086931.234670) can0 000A0004#FFEBFFCF005E8E02
(1763086931.234916) can0 682#4148010400000302
(1763086931.237145) can0 281#B20300001A000000
(1763086931.244395) can0 000A0003#FCA0FF6011060000
(1763086931.244680) can0 000A0004#FFE7FFCB005E8E02
(1763086931.245080) can0 701#05
(1763086931.245544) can0 482#B503150008360001
(1763086931.245887) can0 382#0C0A53FF3D0A0000
(1763086931.254392) can0 000A0003#FCA3FF5C111A0000
(1763086931.254679) can0 000A0004#FFE7FFC8005F8E02
(1763086931.264055) can0 186#631A4C1D09070000
(1763086931.264395) can0 000A0003#FC72FF5811260000
(1763086931.264685) can0 000A0004#FFE8FFC1005F8E02
(1763086931.266829) can0 701#05
(1763086931.267261) can0 482#B603150008360001
(1763086931.267600) can0 382#510AAA003D0A0000
(1763086931.270147) can0 181#D10300207F000009
(1763086931.273749) can0 1A0#000000000000
(1763086931.273974) can0 1A5#C011F80C000000
(1763086931.274388) can0 000A0003#FC53FF56112E0000
(1763086931.274678) can0 000A0004#FFEFFFBE00608E02
(1763086931.275408) can0 000A0000#0000000000000000
(1763086931.275708) can0 000A0001#0000000000000000
(1763086931.276006) can0 000A0002#0000000000000000
(1763086931.276250) can0 682#4148000400000D02
(1763086931.280831) can0 281#BA0300001A000000
(1763086931.284388) can0 000A0003#FC39FF3F10ED0000
(1763086931.284679) can0 000A0004#FFF5FFBD00608E02
(1763086931.284903) can0 1A2#0016FB0D000000
(1763086931.285134) can0 2A1#21201F2023242322
(1763086931.288670) can0 701#05
(1763086931.289111) can0 382#130A3FFF3A0A0000
(1763086931.289478) can0 482#C003150008360001
(1763086931.291722) can0 1A4#C00FA109000000
(1763086931.291958) can0 2A3#1C1F201D1A1B1C1C
(1763086931.292190) can0 4C4#058705A10550057B
(1763086931.292954) can0 4C5#0592058B0579055B
(1763086931.293974) can0 4C6#05660572057D0583
(1763086931.294401) can0 000A0003#FC20FF2A10C00000
(1763086931.294689) can0 000A0004#0001FFBF005E8E02
(1763086931.294983) can0 4C7#059A059E059D05AD
(1763086931.296011) can0 4C8#04F5000000000000
(1763086931.304088) can0 186#E9194C1D09080000
(1763086931.304406) can0 000A0003#FC4AFF0710B60000
(1763086931.304699) can0 000A0004#0005FFC4005F8E02
(1763086931.304928) can0 189#5C0425034F011651
(1763086931.305165) can0 19A#00008172727E7E80
(1763086931.305359) can0 080#
(1763086931.305665) can0 29A#816F848183840000
(1763086931.306509) can0 286#0000580200000000
(1763086931.307973) can0 701#05
(1763086931.308334) can0 482#C203140008360001
(1763086931.308673) can0 382#EF096FFF3A0A0000
(1763086931.309015) can0 181#D10300207F000009
(1763086931.311519) can0 188#0C00353300000000
(1763086931.312431) can0 288#1528045500140000
(1763086931.313282) can0 388#2424262324000000
(1763086931.314243) can0 191#8D8D8E8D8E8D
(1763086931.314527) can0 000A0003#FC65FEF110B00000
(1763086931.314815) can0 000A0004#0005FFCC005C8E02
(1763086931.315251) can0 192#8D8D8E8D8D8D
(1763086931.316257) can0 193#8D8E8E8E8E8E
(1763086931.317221) can0 194#8E8E8E8E8E8E
(1763086931.318223) can0 195#8E8E8E8E8E8E
(1763086931.319150) can0 682#4148000400001002
(1763086931.319342) can0 291#121213131213
(1763086931.320258) can0 292#121313131313
(1763086931.321234) can0 293#121313131313
(1763086931.322242) can0 294#131413141313
(1763086931.323252) can0 295#131414141414
(1763086931.324399) can0 000A0003#FC98FEF310650000
(1763086931.324688) can0 000A0004#0004FFD6005A8E02
(1763086931.324931) can0 281#CB0300001A000000
(1763086931.326852) can0 1A3#C00F120A000000
(1763086931.329615) can0 701#05
(1763086931.330065) can0 482#C603140008360001
(1763086931.330415) can0 382#EC091E000A0A0000
(1763086931.334397) can0 000A0003#FCC9FEF510260000
(1763086931.334682) can0 000A0004#0000FFE300598E02
(1763086931.344043) can0 186#7A184C1D09090000
(1763086931.344399) can0 000A0003#FCE4FF1410080000
(1763086931.344688) can0 000A0004#0001FFED00598E02
(1763086931.349068) can0 181#D10300207F000009
(1763086931.349255) can0 701#05
(1763086931.349513) can0 482#CF03130008360001
(1763086931.354406) can0 000A0003#FD0AFF420FDE0000
(1763086931.354693) can0 000A0004#0004FFF800568E02
(1763086931.354929) can0 382#8F098DFF7C090000
(1763086931.357025) can0 4C4#05820593054C056F
(1763086931.358034) can0 4C5#0586058305720558
(1763086931.359048) can0 4C6#0566056E05760578
(1763086931.360064) can0 4C7#058B05960591059C
(1763086931.360306) can0 682#4148010400000A02
(1763086931.361095) can0 4C8#04F5000000000000
(1763086931.364403) can0 000A0003#FD2EFF670FD00000
(1763086931.364690) can0 000A0004#0008FFFB00538E02
(1763086931.368288) can0 281#D303000018000000
(1763086931.373290) can0 701#05
(1763086931.373748) can0 1A0#000000000000
(1763086931.373988) can0 482#D703130008360001
(1763086931.374404) can0 000A0003#FD51FF890FBD0000
(1763086931.374690) can0 000A0004#0008FFFD00548E02
(1763086931.375416) can0 000A0000#0000000000000000
(1763086931.375716) can0 000A0001#0000000000000000
(1763086931.376014) can0 000A0002#0000000000000000
(1763086931.376235) can0 1A5#8013D10C000000
(1763086931.376713) can0 382#35094E007C090000
(1763086931.384041) can0 186#1A194C1D090A0000
(1763086931.384401) can0 000A0003#FD66FFA50FA80000
(1763086931.384692) can0 000A0004#0006FFFC00548E02
(1763086931.387265) can0 181#D10300207F000009
(1763086931.391946) can0 1A2#000C720D000000
(1763086931.392177) can0 2A1#21201F2023232223
(1763086931.394407) can0 000A0003#FD85FFCD0F890000
(1763086931.394691) can0 000A0004#FFFDFFF600528E02
(1763086931.395125) can0 701#05
(1763086931.395580) can0 482#E703140008360001
(1763086931.398175) can0 382#B7095F00BA090000
(1763086931.398571) can0 1A4#0016CD09000000
(1763086931.398803) can0 2A3#1D201F1C1A1B1C1C
(1763086931.403775) can0 682#4148000400000A02
(1763086931.404095) can0 189#5B04270350011651
(1763086931.404405) can0 000A0003#FD9AFFF60F720000
(1763086931.404697) can0 000A0004#FFF6FFF2004E8E02
(1763086931.404801) can0 080#
(1763086931.405510) can0 286#0000580200000000
(1763086931.411497) can0 188#0C00083300000000
(1763086931.411830) can0 281#EF03000019000000
(1763086931.412284) can0 288#0C28225600140000
(1763086931.413290) can0 388#2424262324000000
(1763086931.414250) can0 191#8D8D8D8D8D8D
(1763086931.414538) can0 000A0003#FDA700100F640000
(1763086931.414824) can0 000A0004#FFF6FFF0004B8E02
(1763086931.415258) can0 192#8D8D8D8D8D8D
(1763086931.416234) can0 193#8D8D8D8D8D8E
(1763086931.417243) can0 194#8D8D8E8E8D8E
(1763086931.417480) can0 482#EC03140008360001
(1763086931.417611) can0 701#05
(1763086931.417851) can0 382#B70972FFBA090000
(1763086931.418247) can0 195#8D8D8E8E8E8E
(1763086931.419254) can0 291#121213131213
(1763086931.420235) can0 292#121313131313
(1763086931.421240) can0 293#131313131313
(1763086931.422097) can0 4C4#05820593054C056F
(1763086931.422293) can0 294#131413141313
(1763086931.423110) can0 4C5#0586058305720558
(1763086931.423308) can0 295#131414141414
(1763086931.424040) can0 186#141A4C1D090B0000
(1763086931.424270) can0 4C6#0566056E05760578
(1763086931.424558) can0 000A0003#FDC800300F640000
(1763086931.424845) can0 000A0004#FFFAFFEA004A8E02
(1763086931.425138) can0 4C7#058B05960591059C
(1763086931.425845) can0 181#D10300207F000009
(1763086931.426167) can0 4C8#04F5000000000000
(1763086931.427737) can0 1A3#000C120A000000
(1763086931.434411) can0 000A0003#FDEE004B0F650000
(1763086931.434698) can0 000A0004#0000FFEC004B8E02
(1763086931.436414) can0 701#05
(1763086931.436848) can0 482#E903140008360001
(1763086931.441972) can0 382#000AE5FF1B0A0000
(1763086931.444418) can0 000A0003#FE2A00990F830000
(1763086931.444711) can0 000A0004#0003FFEC004C8E02
(1763086931.444951) can0 682#4148000400000E02
(1763086931.454411) can0 000A0003#FE5100CC0F960000
(1763086931.454698) can0 000A0004#0005FFEE004E8E02
(1763086931.455510) can0 281#F20300001A000000
(1763086931.458251) can0 482#F303140008360001
(1763086931.458371) can0 701#05
(1763086931.463691) can0 382#200AD4FF1B0A0000
(1763086931.464039) can0 186#7D194C1D090C0000
(1763086931.464417) can0 000A0003#FE8D01220FCC0000
(1763086931.464709) can0 000A0004#FFFFFFEF004F8E02
(1763086931.469075) can0 181#D10300207F000009
(1763086931.473755) can0 1A0#000000000000
(1763086931.474415) can0 000A0003#FEC9017C100C0000
(1763086931.474701) can0 000A0004#FFFAFFEF004E8E02
(1763086931.475423) can0 000A0000#0000000000000000
(1763086931.475723) can0 000A0001#0000000000000000
(1763086931.476021) can0 000A0002#0000000000000000
(1763086931.478105) can0 1A5#800F350C000000
(1763086931.479756) can0 701#05
(1763086931.480304) can0 482#F403140008360001
(1763086931.484417) can0 000A0003#FEF601B110130000
(1763086931.484703) can0 000A0004#FFFAFFEC004A8E02
(1763086931.485661) can0 682#4148FF0300001202
(1763086931.485992) can0 382#C7099E00E1090000
(1763086931.487206) can0 4C4#05820598054C0577
(1763086931.488216) can0 4C5#0592058B05760558
(1763086931.489236) can0 4C6#055F057205760580
(1763086931.490247) can0 4C7#0593059A059905AD
(1763086931.491275) can0 4C8#04F5000000000000
(1763086931.494414) can0 000A0003#FF1301D210180000
(1763086931.494703) can0 000A0004#0000FFEE004A8E02
(1763086931.499318) can0 281#F903000019000000
(1763086931.499541) can0 1A2#000E720D000000
(1763086931.499769) can0 2A1#2120212323232223
(1763086931.501586) can0 701#05
(1763086931.502046) can0 482#FB03140008360001
(1763086931.504064) can0 186#4F194C1D090D0000
(1763086931.504416) can0 000A0003#FF4601CC10500000
(1763086931.504703) can0 000A0004#0003FFED00488E02
(1763086931.504932) can0 189#54041B034F011551
(1763086931.505174) can0 181#D10300207F000009
(1763086931.505426) can0 1A4#8013CD09000000
(1763086931.505529) can0 080#
(1763086931.505761) can0 2A3#1D201F1C1B1B1C1C
(1763086931.506495) can0 286#0000580200000000
(1763086931.510238) can0 382#B609D0FFCE090000
(1763086931.510655) can0 19A#00007E7173807F7E
(1763086931.511555) can0 188#0C00893200000000
(1763086931.511793) can0 29A#7F6A837F83820000
(1763086931.512295) can0 288#0428F05100140000
(1763086931.513297) can0 388#2424262324000000
(1763086931.514259) can0 191#8D8D8D8D8D8C
(1763086931.514543) can0 000A0003#FF7B01AC109C0000
(1763086931.514831) can0 000A0004#0007FFED00468E02
(1763086931.515235) can0 192#8D8D8D8D8D8D
(1763086931.516240) can0 193#8D8D8D8D8D8D
(1763086931.517251) can0 194#8D8D8D8D8D8D
(1763086931.518258) can0 195#8D8D8D8E8D8D
(1763086931.519232) can0 291#121313131213
(1763086931.520242) can0 292#121313131313
(1763086931.520782) can0 701#05
(1763086931.521265) can0 482#0404140008360001
(1763086931.521457) can0 293#121313131313
(1763086931.522257) can0 294#131313141313
(1763086931.523269) can0 295#131414141413
(1763086931.524417) can0 000A0003#FF6E01C2109C0000
(1763086931.524710) can0 000A0004#0006FFEE00448E02
(1763086931.526608) can0 682#4148000400001702
(1763086931.528623) can0 1A3#800F120A000000
(1763086931.532057) can0 382#000A62FFCE090000
(1763086931.534418) can0 000A0003#FF5D01E1109E0000
(1763086931.534708) can0 000A0004#0003FFEC00468E02
(1763086931.542537) can0 701#05
(1763086931.542876) can0 281#0C04000019000000
(1763086931.543125) can0 482#0C04140008360001
(1763086931.544025) can0 186#6F194C1D090E0000
(1763086931.544421) can0 000A0003#FF3901C010B90000
(1763086931.544708) can0 000A0004#0003FFED00458E02
(1763086931.545814) can0 181#D10300207F000009
(1763086931.552305) can0 4C4#05820598054C0577
(1763086931.553313) can0 4C5#0592058B0579055B
(1763086931.554333) can0 4C6#056605750576057C
(1763086931.554617) can0 000A0003#FF0D018210E10000
(1763086931.554905) can0 000A0004#0009FFF200468E02
(1763086931.555341) can0 4C7#05930596059905A9
(1763086931.556371) can0 4C8#04F5000000000000
(1763086931.556639) can0 382#CB099EFFDB090000
(1763086931.564418) can0 000A0003#FED0014710F50000
(1763086931.564703) can0 000A0004#0011FFEE00448E02
(1763086931.564942) can0 482#0E04140008360001
(1763086931.565128) can0 701#05
(1763086931.570373) can0 682#4148FF0300001B02
(1763086931.573665) can0 1A0#000000000000
(1763086931.574423) can0 000A0003#FE7700F311130000
(1763086931.574712) can0 000A0004#001BFFE800408E02
(1763086931.575437) can0 000A0000#0000000000000000
(1763086931.575737) can0 000A0001#0000000000000000
(1763086931.576035) can0 000A0002#0000000000000000
(1763086931.578338) can0 382#D5098CFFDB090000
(1763086931.580223) can0 1A5#0016C20C000000
(1763086931.583802) can0 181#D10300207F000009
(1763086931.584032) can0 186#C3194C1D090F0000
(1763086931.584425) can0 000A0003#FE3B00EC10FC0000
(1763086931.584717) can0 000A0004#0023FFE000408E02
(1763086931.586313) can0 701#05
(1763086931.586685) can0 281#1F04000019000000
(1763086931.587001) can0 482#1F04140008360001
(1763086931.594426) can0 000A0003#FE0C010810CE0000
(1763086931.594712) can0 000A0004#0022FFD6003E8E02
(1763086931.600326) can0 382#E609A5FFFC090000
(1763086931.604073) can0 189#5504290350011651
(1763086931.604426) can0 000A0003#FE20010D10CA0000
(1763086931.604714) can0 000A0004#001DFFD1003D8E02
(1763086931.604815) can0 080#
(1763086931.605496) can0 286#0000580200000000
(1763086931.606700) can0 1A2#000EBB0D000000
(1763086931.606932) can0 2A1#2120212322202023
(1763086931.608140) can0 701#05
(1763086931.608522) can0 482#2404140008360001
(1763086931.611375) can0 682#4148FE0300002402
(1763086931.611577) can0 188#0C00233300000000
(1763086931.612302) can0 288#0428F05B00140000
(1763086931.612520) can0 1A4#000CC409000000
(1763086931.612752) can0 2A3#1D1F1D1C1B1B1C1C
(1763086931.613302) can0 388#2424262324000000
(1763086931.614236) can0 191#8D8D8D8D8D8C
(1763086931.614519) can0 000A0003#FE3D011410C40000
(1763086931.614805) can0 000A0004#0016FFCC003D8E02
(1763086931.615243) can0 192#8D8D8D8D8D8D
(1763086931.616247) can0 193#8D8D8D8D8D8D
(1763086931.617255) can0 194#8D8D8D8D8D8D
(1763086931.617489) can0 4C4#05820593054C0577
(1763086931.618231) can0 195#8D8D8D8E8D8D
(1763086931.618464) can0 4C5#059205870579055F
(1763086931.619237) can0 291#121313131213
(1763086931.619472) can0 4C6#056A05720579057C
(1763086931.620246) can0 292#121313131313
(1763086931.620478) can0 4C7#05930596059505A0
(1763086931.621254) can0 293#121313131313
(1763086931.621497) can0 4C8#04F5000000000000
(1763086931.622264) can0 294#131313141313
(1763086931.622505) can0 382#E709CC00FC090000
(1763086931.623244) can0 295#131414141413
(1763086931.624020) can0 186#CB194C1D09000000
(1763086931.624422) can0 000A0003#FE2A010A10B50000
(1763086931.624709) can0 000A0004#0016FFC6003A8E02
(1763086931.624951) can0 181#D10300207F000009
(1763086931.629514) can0 1A3#000FEB09000000
(1763086931.630465) can0 482#2204140008360001
(1763086931.630644) can0 701#05
(1763086931.632866) can0 281#1F0400001A000000
(1763086931.634432) can0 000A0003#FE0F00FD10A90000
(1763086931.634720) can0 000A0004#0019FFCB003C8E02
(1763086931.643858) can0 382#600A53FFFF090000
(1763086931.644432) can0 000A0003#FDE400E7109E0000
(1763086931.644726) can0 000A0004#0018FFCF003F8E02
(1763086931.654427) can0 000A0003#FDB200CF10980000
(1763086931.654712) can0 000A0004#0014FFD600468E02
(1763086931.654954) can0 482#2204140008360001
(1763086931.655099) can0 701#05
(1763086931.655341) can0 682#4148FE0300002D02
(1763086931.660593) can0 181#D10300207F000009
(1763086931.664017) can0 186#D1194C1D09010000
(1763086931.664433) can0 000A0003#FDC200BD10800000
(1763086931.664723) can0 000A0004#000EFFDE004A8E02
(1763086931.666033) can0 382#160A8A00FF090000
(1763086931.673666) can0 1A0#000000000000
(1763086931.674425) can0 000A0003#FDE100B3106C0000
(1763086931.674715) can0 000A0004#000BFFE0004B8E02
(1763086931.675449) can0 000A0000#0000000000000000
(1763086931.675749) can0 000A0001#0000000000000000
(1763086931.676047) can0 000A0002#0000000000000000
(1763086931.676288) can0 701#05
(1763086931.676734) can0 281#2B0400001A000000
(1763086931.676981) can0 482#2B04140008360001
(1763086931.682349) can0 1A5#000ED10C000000
(1763086931.682579) can0 4C4#0578058F0543056B
(1763086931.683525) can0 4C5#0586058305720554
(1763086931.684437) can0 000A0003#FDFA009A107F0000
(1763086931.684729) can0 000A0004#000FFFE5004D8E02
(1763086931.684959) can0 4C6#055F056B05760578
(1763086931.685555) can0 4C7#0588059A059105A0
(1763086931.686584) can0 4C8#04F5000000000000
(1763086931.687901) can0 382#130A8FFF010A0000
(1763086931.694435) can0 000A0003#FDEE007D10AA0000
(1763086931.694721) can0 000A0004#0012FFEA004F8E02
(1763086931.695731) can0 482#3104140008360001
(1763086931.695851) can0 701#05
(1763086931.696094) can0 682#4148FF0300002A02
(1763086931.699651) can0 19A#0000806B6F7E7E81
(1763086931.700657) can0 29A#7F6C857F83830000
(1763086931.701298) can0 181#D10300207F000009
(1763086931.704054) can0 186#0C1A4C1D09020000
(1763086931.704432) can0 000A0003#FDCD004C10AA0000
(1763086931.704720) can0 000A0004#000FFFE9004A8E02
(1763086931.704948) can0 189#610424034F011651
(1763086931.705362) can0 080#
(1763086931.706510) can0 286#0000580200000000
(1763086931.709288) can0 382#EC09F6FF010A0000
(1763086931.714060) can0 1A2#C0110E0E000000
(1763086931.714288) can0 2A1#2324242322202023
(1763086931.714577) can0 000A0003#FDB10027109C0000
(1763086931.714863) can0 000A0004#000EFFE500488E02
(1763086931.717227) can0 701#05
(1763086931.717785) can0 482#3804140008360001
(1763086931.719150) can0 1A4#000E8909000000
(1763086931.719380) can0 2A3#1D1F1D1B1B1C1C1C
(1763086931.720517) can0 281#3B0400001A000000
(1763086931.724442) can0 000A0003#FD9CFFFA108B0000
(1763086931.724733) can0 000A0004#0005FFE400448E02
(1763086931.730384) can0 1A3#000EEB09000000
(1763086931.731343) can0 382#280A87FF180A0000
(1763086931.734437) can0 000A0003#FDADFFD6107D0000
(1763086931.734726) can0 000A0004#0001FFE600408E02
(1763086931.736579) can0 701#05
(1763086931.737017) can0 482#4604140008360001
(1763086931.737261) can0 682#4148FD0300003402
(1763086931.739394) can0 181#D10300207F000009
(1763086931.744011) can0 186#96194C1D09030000
(1763086931.744438) can0 000A0003#FDB9FFB2106B0000
(1763086931.744731) can0 000A0004#0005FFE4003F8E02
(1763086931.747602) can0 4C4#0578058F0543056B
(1763086931.748617) can0 4C5#0586058305720554
(1763086931.749633) can0 4C6#055F056B05760578
(1763086931.750322) can0 382#ED099E00EA090000
(1763086931.750647) can0 4C7#0588059A059105A0
(1763086931.751675) can0 4C8#04F5000000000000
(1763086931.754440) can0 000A0003#FDCCFF6D10440000
(1763086931.754730) can0 000A0004#000EFFE6003E8E02
(1763086931.761245) can0 482#4904140008360001
(1763086931.761364) can0 701#05
(1763086931.763885) can0 281#450400001A000000
(1763086931.764441) can0 000A0003#FDD9FF3D10180000
(1763086931.764731) can0 000A0004#0016FFEF003D8E02
(1763086931.765569) can0 188#0C00F63200000000
(1763086931.766276) can0 288#0428F73F00140000
(1763086931.767278) can0 388#2425262324000000
(1763086931.768242) can0 191#8D8D8D8D8D8C
(1763086931.769221) can0 192#8D8D8D8D8D8D
(1763086931.770242) can0 193#8D8D8D8D8D8D
(1763086931.771249) can0 194#8D8D8D8D8D8D
(1763086931.772258) can0 195#8D8D8D8E8D8D
(1763086931.772492) can0 382#B1095100EA090000
(1763086931.773266) can0 291#121313131213
(1763086931.773666) can0 1A0#000000000000
(1763086931.774242) can0 292#121313131313
(1763086931.774532) can0 000A0003#FDDBFF320FEA0000
(1763086931.774820) can0 000A0004#0019FFF8003A8E02
(1763086931.775248) can0 293#121313131313
(1763086931.775548) can0 000A0000#0000000000000000
(1763086931.775848) can0 000A0001#0000000000000000
(1763086931.776146) can0 000A0002#0000000000000000
(1763086931.776342) can0 294#131313141313
(1763086931.777272) can0 295#131414141413
(1763086931.777740) can0 682#4148FD0300003702
(1763086931.778096) can0 181#D10300207F000009
(1763086931.782744) can0 701#05
(1763086931.783297) can0 482#4F04140008360001
(1763086931.784007) can0 186#6A194C1D09040000
(1763086931.784444) can0 000A0003#FDDEFF370FE80000
(1763086931.784734) can0 000A0004#0016FFFE00398E02
(1763086931.784960) can0 1A5#000EF80C000000
(1763086931.794101) can0 382#B109A700D9090000
(1763086931.794440) can0 000A0003#FDE8FF53100C0000
(1763086931.794729) can0 000A0004#0003000300368E02
(1763086931.804052) can0 189#580420034F011551
(1763086931.804447) can0 000A0003#FDF4FF5F10430000
(1763086931.804736) can0 000A0004#FFFC000D00358E02
(1763086931.804841) can0 080#
(1763086931.804953) can0 701#05
(1763086931.805243) can0 482#5A04140008360001
(1763086931.805512) can0 286#0000580200000000
(1763086931.807761) can0 281#5A04000019000000
(1763086931.811534) can0 188#0C00313300000000
(1763086931.812282) can0 288#FB27155000140000
(1763086931.812731) can0 4C4#058705A10555057F
(1763086931.813287) can0 388#2425262324000000
(1763086931.813740) can0 4C5#059D0592057D0566
(1763086931.814251) can0 191#8D8C8D8D8D8C
(1763086931.814537) can0 000A0003#FE04FF4F10800000
(1763086931.814823) can0 000A0004#FFFB001200338E02
(1763086931.815055) can0 4C6#056D057905840583
(1763086931.815257) can0 192#8D8C8D8D8C8D
(1763086931.815769) can0 4C7#05A105A1059D05A9
(1763086931.816189) can0 181#D10300207F000009
(1763086931.816381) can0 193#8C8D8D8D8D8D
(1763086931.816801) can0 4C8#04F5000000000000
(1763086931.817240) can0 194#8D8D8D8D8D8D
(1763086931.818246) can0 195#8D8D8D8D8D8D
(1763086931.818689) can0 382#D80979FFD9090000
(1763086931.819254) can0 291#121313131213
(1763086931.820263) can0 292#121313131313
(1763086931.821240) can0 293#131313131313
(1763086931.821469) can0 1A2#C00F0E0E000000
(1763086931.821698) can0 2A1#232424211F1E1F23
(1763086931.821937) can0 682#4148FD0300003902
(1763086931.822247) can0 294#131413131313
(1763086931.823257) can0 295#131414141414
(1763086931.824001) can0 186#99194C1D09050000
(1763086931.824244) can0 482#5504140008360001
(1763086931.824526) can0 000A0003#FE21FF5210A50000
(1763086931.824814) can0 000A0004#0003002400338E02
(1763086931.824930) can0 701#05
(1763086931.826025) can0 1A4#C0118909000000
(1763086931.826252) can0 2A3#1D1D1D1B1B1C1C1D
(1763086931.831268) can0 1A3#000E120A000000
(1763086931.834442) can0 000A0003#FE65FF6A10D70000
(1763086931.834731) can0 000A0004#0008002800348E02
(1763086931.840399) can0 382#EC0947FFEC090000
(1763086931.844445) can0 000A0003#FE88FF7B10CF0000
(1763086931.844733) can0 000A0004#0006003000338E02
(1763086931.845533) can0 701#05
(1763086931.845984) can0 482#5604140008360001
(1763086931.851456) can0 281#5C0400001A000000
(1763086931.854452) can0 000A0003#FE78FF7E10B80000
(1763086931.854736) can0 000A0004#FFFD003400328E02
(1763086931.856802) can0 181#D10300207F000009
(1763086931.862365) can0 682#4148FD0300004002
(1763086931.862600) can0 382#070AA500EC090000
(1763086931.864000) can0 186#64194C1D09060000
(1763086931.864455) can0 000A0003#FE6FFF7C10A40000
(1763086931.864744) can0 000A0004#FFFD003F00338E02
(1763086931.865103) can0 701#05
(1763086931.867696) can0 482#6504140008360001
(1763086931.873760) can0 1A0#000000000000
(1763086931.874458) can0 000A0003#FE82FF6910AC0000
(1763086931.874750) can0 000A0004#FFFF003D002E8E02
(1763086931.875466) can0 000A0000#0000000000000000
(1763086931.875766) can0 000A0001#0000000000000000
(1763086931.876064) can0 000A0002#0000000000000000
(1763086931.877855) can0 4C4#058705A10555057F
(1763086931.878866) can0 4C5#059D0592057D0566
(1763086931.879883) can0 4C6#056D057905840583
(1763086931.880896) can0 4C7#05A105960595059C
(1763086931.881925) can0 4C8#04F5000000000000
(1763086931.884186) can0 382#170A1700D7090000
(1763086931.884474) can0 000A0003#FE8DFF6010BC0000
(1763086931.884769) can0 000A0004#000F0041002C8E02
(1763086931.886598) can0 1A5#C013F80C000000
(1763086931.889210) can0 701#05
(1763086931.889758) can0 482#6B04140008360001
(1763086931.894450) can0 000A0003#FE8CFF6310CB0000
(1763086931.894736) can0 000A0004#0015004700288E02
(1763086931.894996) can0 181#D10300207F000009
(1763086931.895247) can0 281#6C04000019000000
(1763086931.903310) can0 682#4148FD0300003E02
(1763086931.903635) can0 382#8F09AB00D7090000
(1763086931.904031) can0 186#4A194C1D09070000
(1763086931.904456) can0 000A0003#FE8AFF6E10DE0000
(1763086931.904745) can0 000A0004#001C004400258E02
(1763086931.904975) can0 189#53041A034E011551
(1763086931.905378) can0 080#
(1763086931.905653) can0 19A#00007E706F817E7E
(1763086931.906495) can0 286#0000580200000000
(1763086931.906734) can0 29A#806D838283830000
(1763086931.911283) can0 701#05
(1763086931.911526) can0 188#0C00FF3200000000
(1763086931.911766) can0 482#7104140008360001
(1763086931.912288) can0 288#FB27155700140000
(1763086931.913296) can0 388#2425262324000000
(1763086931.914240) can0 191#8D8C8D8D8D8C
(1763086931.914522) can0 000A0003#FE86FF8610EA0000
(1763086931.914808) can0 000A0004#00150048001F8E02
(1763086931.915246) can0 192#8D8C8D8D8C8D
(1763086931.916224) can0 193#8C8D8D8D8D8D
(1763086931.917250) can0 194#8D8D8D8D8D8D
(1763086931.918254) can0 195#8D8D8D8D8D8D
(1763086931.919262) can0 291#121313131213
(1763086931.920241) can0 292#121313131313
(1763086931.921248) can0 293#131313131313
(1763086931.922237) can0 294#131413131313
(1763086931.923249) can0 295#131414141414
(1763086931.924454) can0 000A0003#FE7AFFA010EF0000
(1763086931.924744) can0 000A0004#000E004F001D8E02
(1763086931.927886) can0 382#D0091401CD090000
(1763086931.928775) can0 1A2#000E1D0E000000
(1763086931.929000) can0 2A1#262424211F1E1F23
(1763086931.932145) can0 1A3#800F120A000000
(1763086931.932887) can0 1A4#C011A109000000
(1763086931.933119) can0 2A3#1D1D1C1C1D1F1C1D
(1763086931.933360) can0 482#7404140008360001
(1763086931.933530) can0 701#05
(1763086931.933774) can0 181#D10300207F000009
(1763086931.934458) can0 000A0003#FE69FFB510EA0000
(1763086931.934746) can0 000A0004#000B0054001A8E02
(1763086931.938688) can0 281#7B04000019000000
(1763086931.942964) can0 4C4#0572058A05430563
(1763086931.943975) can0 4C5#05860578056B0551
(1763086931.944210) can0 186#61194C1D09080000
(1763086931.944495) can0 000A0003#FE42FFB810D10000
(1763086931.944789) can0 000A0004#000F005F00178E02
(1763086931.945022) can0 4C6#055F056705720571
(1763086931.945262) can0 682#4148FD0300004402
(1763086931.946004) can0 4C7#0588058B058C0593
(1763086931.947034) can0 4C8#04F5000000000000
(1763086931.949710) can0 382#D209C0FFD6090000
(1763086931.954462) can0 000A0003#FDFFFF86109A0000
(1763086931.954746) can0 000A0004#0017006800158E02
(1763086931.954863) can0 701#05
(1763086931.955275) can0 482#8204140008360001
(1763086931.964456) can0 000A0003#FDD5FF6610760000
(1763086931.964743) can0 000A0004#001C006F00128E02
(1763086931.971421) can0 382#FD09DFFFD6090000
(1763086931.971687) can0 181#D10300207F000009
(1763086931.973761) can0 1A0#000000000000
(1763086931.974466) can0 000A0003#FDBFFF7C102F0000
(1763086931.974753) can0 000A0004#001C007400108E02
(1763086931.975484) can0 000A0000#0000000000000000
(1763086931.975784) can0 000A0001#0000000000000000
(1763086931.976081) can0 000A0002#0000000000000000
(1763086931.976577) can0 701#05
(1763086931.977017) can0 482#8604140008360001
(1763086931.982481) can0 281#8904000019000000
(1763086931.983985) can0 186#75194C1D09090000
(1763086931.984467) can0 000A0003#FDA9FF920FE90000
(1763086931.984759) can0 000A0004#000D007B000B8E02
(1763086931.985330) can0 682#4148FD0300004D02
(1763086931.988718) can0 1A5#000E350C000000
(1763086931.994468) can0 000A0003#FD95FFA70FA30000
(1763086931.994754) can0 000A0004#000B007F000C8E02
(1763086931.995986) can0 382#DE099EFFDE090000
(1763086931.998738) can0 482#8E04140008360001
(1763086931.998930) can0 701#05
(1763086932.004037) can0 189#56041E0350011551
(1763086932.004462) can0 000A0003#FD88FFB40F760000
(1763086932.004752) can0 000A0004#000C007F000A8E02
(1763086932.004855) can0 080#
(1763086932.005529) can0 286#0000580200000000
(1763086932.008074) can0 4C4#0591059C054C057F
(1763086932.009084) can0 4C5#059205920581055B
(1763086932.009656) can0 181#D10300207F000009
(1763086932.010102) can0 4C6#056D057D05880587
(1763086932.011112) can0 4C7#059D05A105A505AD
(1763086932.011538) can0 188#0C00F63200000000
(1763086932.012140) can0 4C8#04F5000000000000
(1763086932.012376) can0 288#F227E35C00140000
(1763086932.013302) can0 388#2425262324000000
(1763086932.014262) can0 191#8C8C8C8C8C8C
(1763086932.014546) can0 000A0003#FD69FF950F640000
(1763086932.014836) can0 000A0004#0012007E00078E02
(1763086932.015240) can0 192#8C8C8C8C8C8C
(1763086932.016246) can0 193#8C8C8D8D8C8D
(1763086932.017258) can0 194#8D8D8D8D8D8D
(1763086932.017979) can0 382#000ABDFFDE090000
(1763086932.018261) can0 195#8C8C8D8D8D8D
(1763086932.019237) can0 291#121313131213
(1763086932.020248) can0 292#121313131313
(1763086932.020364) can0 701#05
(1763086932.020808) can0 482#9404140008360001
(1763086932.021252) can0 293#131313131313
(1763086932.022260) can0 294#131313131313
(1763086932.023274) can0 295#131414141413
(1763086932.023982) can0 186#73194C1D090A0000
(1763086932.024468) can0 000A0003#FD4CFF860F4E0000
(1763086932.024756) can0 000A0004#0019007A00068E02
(1763086932.026053) can0 281#9004000019000000
(1763086932.026470) can0 682#4148FC0300005102
(1763086932.033023) can0 1A3#40183E0A000000
(1763086932.034466) can0 000A0003#FD30FF950F300000
(1763086932.034755) can0 000A0004#0021007900018E02
(1763086932.036147) can0 1A2#C011720D000000
(1763086932.036377) can0 2A1#2624221F1E201F23
(1763086932.039722) can0 1A4#0018120A000000
(1763086932.039956) can0 2A3#1D1D1C1C1D1F1C1D
(1763086932.040192) can0 382#BA09C000DD090000
(1763086932.040332) can0 701#05
(1763086932.040592) can0 482#9504140008360001
(1763086932.044473) can0 000A0003#FD1EFF9F0F1E0000
(1763086932.044760) can0 000A0004#0027007200018E02
(1763086932.050593) can0 181#D10300207F000009
(1763086932.054463) can0 000A0003#FD4AFF8D0F4D0000
(1763086932.054752) can0 000A0004#0030007300008E02
(1763086932.061418) can0 382#E2091101DD090000
(1763086932.063978) can0 186#51194C1D090B0000
(1763086932.064274) can0 482#A004140008360001
(1763086932.064560) can0 000A0003#FD74FF8C0F740000
(1763086932.064847) can0 000A0004#0035006AFFFC8E02
(1763086932.064963) can0 701#05
(1763086932.067336) can0 682#4148FC0300005902
(1763086932.069711) can0 281#A404000019000000
(1763086932.073187) can0 4C4#0591059C054C057F
(1763086932.073671) can0 1A0#000000000000
(1763086932.074195) can0 4C5#059205920581055B
(1763086932.074485) can0 000A0003#FD61FFA00F830000
(1763086932.074770) can0 000A0004#003D0062FFFA8E02
(1763086932.075214) can0 4C6#056D057D05880587
(1763086932.075513) can0 000A0000#0000000000000000
(1763086932.075814) can0 000A0001#0000000000000000
(1763086932.076112) can0 000A0002#0000000000000000
(1763086932.076342) can0 4C7#059D05A105A505AD
(1763086932.077256) can0 4C8#04F5000000000000
(1763086932.080731) can0 382#E3092500D0090000
(1763086932.084475) can0 000A0003#FD46FFBC0F990000
(1763086932.084764) can0 000A0004#003F005FFFF68E02
(1763086932.085743) can0 701#05
(1763086932.086299) can0 482#A104140008360001
(1763086932.090833) can0 1A5#C00F350C000000
(1763086932.091548) can0 181#D10300207F000009
(1763086932.094478) can0 000A0003#FD30FFA60F7D0000
(1763086932.094760) can0 000A0004#003B005BFFF08E02
(1763086932.102457) can0 382#BE093C00D0090000
(1763086932.104013) can0 186#51194C1D090C0000
(1763086932.104480) can0 000A0003#FD1BFF810F6C0000
(1763086932.104772) can0 000A0004#003F0058FFEF8E02
(1763086932.105000) can0 189#53041C034F011551
(1763086932.105329) can0 482#AB04140008360001
(1763086932.105432) can0 080#
(1763086932.105547) can0 701#05
(1763086932.106514) can0 286#0000580200000000
(1763086932.108166) can0 682#4148FC0300005C02
(1763086932.111507) can0 188#0C00C83200000000
(1763086932.111747) can0 19A#00007E72737F817E
(1763086932.112286) can0 288#F227E35D00140000
(1763086932.112651) can0 29A#7E6C817F82820000
(1763086932.113291) can0 388#2425262324000000
(1763086932.113618) can0 281#B204000019000000
(1763086932.114240) can0 191#8C8C8C8C8C8C
(1763086932.114524) can0 000A0003#FD00FF530F6E0000
(1763086932.114812) can0 000A0004#00430058FFED8E02
(1763086932.115259) can0 192#8C8C8C8C8C8C
(1763086932.116268) can0 193#8C8C8D8D8C8D
(1763086932.117262) can0 194#8D8D8D8D8D8D
(1763086932.118242) can0 195#8C8C8D8D8D8D
(1763086932.119246) can0 291#121313131213
(1763086932.120254) can0 292#121313131313
(1763086932.121260) can0 293#131313131313
(1763086932.122264) can0 294#131313131313
(1763086932.123249) can0 295#131414141413
(1763086932.124468) can0 000A0003#FCD9FF110F700000
(1763086932.124755) can0 000A0004#004B0056FFE98E02
(1763086932.124995) can0 382#F70938FFD0090000
(1763086932.126698) can0 701#05
(1763086932.127253) can0 482#B704140008360001
(1763086932.132528) can0 181#D10300207F000009
(1763086932.133947) can0 1A3#800F510A000000
(1763086932.134479) can0 000A0003#FCB4FF040F510000
(1763086932.134789) can0 000A0004#0054004BFFE88E02
(1763086932.138314) can0 4C4#057D05930547057B
(1763086932.139327) can0 4C5#058E0580056F0554
(1763086932.140337) can0 4C6#0563056B05720571
(1763086932.141354) can0 4C7#0588059205880593
(1763086932.142385) can0 4C8#04F5000000000000
(1763086932.143526) can0 1A2#C0114B0D000000
(1763086932.143755) can0 2A1#2624221F1E202325
(1763086932.143991) can0 186#6C0E4C1D090D0000
(1763086932.144479) can0 000A0003#FC90FF010F4D0000
(1763086932.144765) can0 000A0004#004F0047FFE58E02
(1763086932.146348) can0 382#FF095EFFD0090000
(1763086932.146574) can0 1A4#C00F600A000000
(1763086932.146802) can0 2A3#1D1D1E1D1D1F1C1D
(1763086932.146918) can0 701#05
(1763086932.147162) can0 482#B804140008360001
(1763086932.151815) can0 682#4148FC0300006102
(1763086932.154481) can0 000A0003#FC87FF0D0F6B0000
(1763086932.154772) can0 000A0004#0044003FFFE48E02
(1763086932.156966) can0 281#B40400000E000000
(1763086932.164479) can0 000A0003#FC7AFF1E0F960000
(1763086932.164770) can0 000A0004#003F0038FFE38E02
(1763086932.167960) can0 382#F7053BFF97050000
(1763086932.168079) can0 701#05
(1763086932.168428) can0 482#A2040B0008360001
(1763086932.173428) can0 181#D10300207F000009
(1763086932.173668) can0 1A0#000000000000
(1763086932.174476) can0 000A0003#FCC4FED40FD70000
(1763086932.174767) can0 000A0004#0037002EFFE08E02
(1763086932.175501) can0 000A0000#0000000000000000
(1763086932.175800) can0 000A0001#0000000000000000
(1763086932.176098) can0 000A0002#0000000000000000
(1763086932.183969) can0 186#4C1A4C1D090E0000
(1763086932.184484) can0 000A0003#FCF3FEA510000000
(1763086932.184775) can0 000A0004#003B0023FFDF8E02
(1763086932.189485) can0 701#05
(1763086932.189938) can0 482#A004110008360001
(1763086932.190270) can0 382#5906A0FF4B080000
(1763086932.192949) can0 1A5#0016120C000000
(1763086932.194483) can0 000A0003#FD00FEBD100C0000
(1763086932.194771) can0 000A0004#00430015FFDE8E02
(1763086932.195371) can0 682#4148030400001A02
(1763086932.200738) can0 281#D40400001A000000
(1763086932.203441) can0 4C4#057D05930547057B
(1763086932.204014) can0 189#6C042B0350011651
(1763086932.204478) can0 000A0003#FCF1FED410160000
(1763086932.204766) can0 000A0004#0047000BFFD98E02
(1763086932.204866) can0 080#
(1763086932.205102) can0 4C5#058E0580056F0554
(1763086932.205472) can0 4C6#0563056B05720571
(1763086932.205716) can0 286#0000580200000000
(1763086932.206484) can0 4C7#0588059205880593
(1763086932.207515) can0 4C8#04F5000000000000
(1763086932.211541) can0 188#0C006B3300000000
(1763086932.211782) can0 482#0E05150008360001
(1763086932.211964) can0 701#05
(1763086932.212208) can0 382#080AA3FF310A0000
(1763086932.212442) can0 288#E327526500140000
(1763086932.212686) can0 181#D10300207F000009
(1763086932.213287) can0 388#2425262324000000
(1763086932.214231) can0 191#8C8B8C8C8C8B
(1763086932.214515) can0 000A0003#FCEDFEE90FE60000
(1763086932.214805) can0 000A0004#004FFFFEFFD78E02
(1763086932.215239) can0 192#8C8C8C8C8B8C
(1763086932.216263) can0 193#8C8C8C8C8C8C
(1763086932.217241) can0 194#8C8C8C8C8C8C
(1763086932.218247) can0 195#8C8C8C8C8C8C
(1763086932.219253) can0 291#121313131213
(1763086932.220263) can0 292#121313131313
(1763086932.221268) can0 293#121313131313
(1763086932.222245) can0 294#131413131313
(1763086932.223257) can0 295#131314141413
(1763086932.223967) can0 186#14114C1D090F0000
(1763086932.224483) can0 000A0003#FCEBFEF70FC80000
(1763086932.224771) can0 000A0004#0058FFF8FFD68E02
(1763086932.233150) can0 701#05
(1763086932.233593) can0 382#3808ECFF7C070000
(1763086932.233969) can0 482#E2040D0008360001
(1763086932.234491) can0 000A0003#FCBFFEF60F8D0000
(1763086932.234780) can0 000A0004#005CFFEEFFD38E02
(1763086932.235001) can0 1A3#C00F5B0A000000
(1763086932.239160) can0 682#4148FD0300003C02
(1763086932.244307) can0 281#8F04000011000000
(1763086932.244599) can0 000A0003#FC81FEEA0F560000
(1763086932.244885) can0 000A0004#0066FFE4FFD28E02
(1763086932.249975) can0 181#D10300207F000009
(1763086932.250907) can0 1A2#C011720D000000
(1763086932.251133) can0 2A1#2622212221202325
(1763086932.253402) can0 1A4#000E600A000000
(1763086932.253625) can0 2A3#1D1D1E1D1D1E1C1D
(1763086932.254493) can0 000A0003#FC56FEFC0F6D0000
(1763086932.254782) can0 000A0004#0067FFDFFFCE8E02
(1763086932.255080) can0 701#05
(1763086932.255546) can0 482#63040D0008360001
(1763086932.255903) can0 382#230679FF9E060000
(1763086932.263965) can0 186#46184C1D09000000
(1763086932.264489) can0 000A0003#FC3AFF070F7C0000
(1763086932.264780) can0 000A0004#0069FFE0FFCE8E02
(1763086932.268523) can0 4C4#05870593053E056F
(1763086932.269536) can0 4C5#05830580056F0554
(1763086932.270551) can0 4C6#055F056B05720575
(1763086932.271562) can0 4C7#0588058B05910597
(1763086932.272607) can0 4C8#04F5000000000000
(1763086932.273762) can0 1A0#000000000000
(1763086932.274491) can0 000A0003#FC16FF220F700000
(1763086932.274777) can0 000A0004#0065FFDBFFCA8E02
(1763086932.275499) can0 000A0000#0000000000000000
(1763086932.275799) can0 000A0001#0000000000000000
(1763086932.276097) can0 000A0002#0000000000000000
(1763086932.276917) can0 701#05
(1763086932.277284) can0 482#D204130008360001
(1763086932.277620) can0 382#AC08E80068090000
(1763086932.282621) can0 682#4148000400001502
(1763086932.284495) can0 000A0003#FBF5FF400F650000
(1763086932.284784) can0 000A0004#0072FFDFFFCA8E02
(1763086932.288095) can0 181#D10300207F000009
(1763086932.288411) can0 281#3005000018000000
(1763086932.294497) can0 000A0003#FC12FF6A0F660000
(1763086932.294783) can0 000A0004#0070FFE6FFC88E02
(1763086932.295065) can0 1A5#0018120C000000
(1763086932.298665) can0 701#05
(1763086932.299105) can0 382#F209A70068090000
(1763086932.299469) can0 482#5305130008360001
(1763086932.300671) can0 19A#00007D6E71807D7D
(1763086932.301670) can0 29A#8062827F86840000
(1763086932.303996) can0 186#39114C1D09010000
(1763086932.304488) can0 000A0003#FC3CFFA60F680000
(1763086932.304777) can0 000A0004#0073FFE1FFC68E02
(1763086932.305005) can0 189#66042D034E011651
(1763086932.305377) can0 080#
(1763086932.306530) can0 286#0000580200000000
(1763086932.311541) can0 188#0C00273300000000
(1763086932.312283) can0 288#C5275D4600140000
(1763086932.313294) can0 388#2425262324000000
(1763086932.314255) can0 191#8B8A8B8B8B8A
(1763086932.314539) can0 000A0003#FC57FFC70F4A0000
(1763086932.314825) can0 000A0004#0072FFDDFFC38E02
(1763086932.315263) can0 192#8B8B8B8B8A8B
(1763086932.316269) can0 193#8B8B8B8B8B8B
(1763086932.317253) can0 194#8B8B8B8B8B8B
(1763086932.317884) can0 701#05
(1763086932.318248) can0 482#CF040D0008360001
(1763086932.318438) can0 195#8B8B8B8B8B8B
(1763086932.318675) can0 382#950750FFAD060000
(1763086932.319261) can0 291#121313131213
(1763086932.320269) can0 292#121313131313
(1763086932.321246) can0 293#131313131313
(1763086932.322255) can0 294#131413141313
(1763086932.323267) can0 295#131414141413
(1763086932.323577) can0 682#4148FF0300002502
(1763086932.324509) can0 000A0003#FC6BFFDA0F300000
(1763086932.324800) can0 000A0004#0066FFD7FFC08E02
(1763086932.329038) can0 181#D10300207F000009
(1763086932.331768) can0 281#6104000011000000
(1763086932.333637) can0 4C4#059605A5054C0587
(1763086932.334495) can0 000A0003#FC84FFE30F340000
(1763086932.334784) can0 000A0004#005DFFD5FFBD8E02
(1763086932.335012) can0 4C5#059D059205790563
(1763086932.335671) can0 4C6#0575057D05810587
(1763086932.335897) can0 1A3#C013EB09000000
(1763086932.336685) can0 4C7#05A405A105A105AD
(1763086932.337711) can0 4C8#04F5000000000000
(1763086932.339948) can0 701#05
(1763086932.342700) can0 482#76040D0008360001
(1763086932.343038) can0 382#E705C5FFAD060000
(1763086932.343956) can0 186#A51A4C1D09020000
(1763086932.344498) can0 000A0003#FCA9FFF10F3A0000
(1763086932.344786) can0 000A0004#005BFFD7FFBC8E02
(1763086932.354496) can0 000A0003#FCCCFFF30F330000
(1763086932.354782) can0 000A0004#005CFFD7FFBF8E02
(1763086932.358290) can0 1A2#0016810D000000
(1763086932.358514) can0 2A1#2622212221212425
(1763086932.360231) can0 1A4#4018510A000000
(1763086932.360457) can0 2A3#1D1D1E1D1D1E1C1D
(1763086932.361541) can0 701#05
(1763086932.364500) can0 000A0003#FCEDFFEF0F270000
(1763086932.364793) can0 000A0004#0060FFDAFFC18E02
(1763086932.365032) can0 682#4148FE0300001502
(1763086932.365287) can0 382#090A90FF530A0000
(1763086932.365533) can0 482#2905150008360001
(1763086932.369974) can0 181#D10300207F000009
(1763086932.373766) can0 1A0#000000000000
(1763086932.374500) can0 000A0003#FD1BFFEB0F700000
(1763086932.374789) can0 000A0004#005CFFE0FFBE8E02
(1763086932.375422) can0 281#7D0500001B000000
(1763086932.375722) can0 000A0000#0000000000000000
(1763086932.376022) can0 000A0001#0000000000000000
(1763086932.376321) can0 000A0002#0000000000000000
(1763086932.383383) can0 701#05
(1763086932.383957) can0 186#8C114C1D09030000
(1763086932.384504) can0 000A0003#FD5EFFE60FD90000
(1763086932.384791) can0 000A0004#0053FFE3FFBC8E02
(1763086932.386568) can0 482#6905150008360001
(1763086932.386904) can0 382#630BBE00530A0000
(1763086932.394501) can0 000A0003#FD64FFE310050000
(1763086932.394786) can0 000A0004#0055FFE1FFBC8E02
(1763086932.397172) can0 1A5#000F260C000000
(1763086932.398754) can0 4C4#059605A5054C0587
(1763086932.399769) can0 4C5#059D059205790563
(1763086932.400789) can0 4C6#0575057D05810587
(1763086932.401801) can0 4C7#05A405A105A105AD
(1763086932.402829) can0 4C8#04F5000000000000
(1763086932.403997) can0 189#780431034D011751
(1763086932.404503) can0 000A0003#FD56FFE2100E0000
(1763086932.404787) can0 000A0004#0057FFDEFFBA8E02
(1763086932.404892) can0 080#
(1763086932.405470) can0 682#4148FD0300003A02
(1763086932.405714) can0 286#0000580200000000
(1763086932.405831) can0 701#05
(1763086932.408518) can0 181#D10300207F000009
(1763086932.408780) can0 482#76040E0008360001
(1763086932.409117) can0 382#FA062AFFCD060000
(1763086932.411537) can0 188#0C00F63200000000
(1763086932.412291) can0 288#C5275D4800140000
(1763086932.413301) can0 388#2425262324000000
(1763086932.414245) can0 191#8B8A8B8B8B8A
(1763086932.414529) can0 000A0003#FD48FFB110170000
(1763086932.414816) can0 000A0004#0054FFDDFFBA8E02
(1763086932.415252) can0 192#8B8B8B8B8A8B
(1763086932.416227) can0 193#8B8B8B8B8B8B
(1763086932.417260) can0 194#8B8B8B8B8B8B
(1763086932.418259) can0 195#8B8B8B8B8B8B
(1763086932.419115) can0 281#5A04000012000000
(1763086932.419308) can0 291#121313131213
(1763086932.420246) can0 292#121313131313
(1763086932.421253) can0 293#131313131313
(1763086932.422244) can0 294#131413141313
(1763086932.423256) can0 295#131414141413
(1763086932.423956) can0 186#7C1A4C1D09040000
(1763086932.424506) can0 000A0003#FD3DFF6B101F0000
(1763086932.424793) can0 000A0004#0059FFD6FFB68E02
(1763086932.427310) can0 701#05
(1763086932.430054) can0 382#2B07C10081090000
(1763086932.430481) can0 482#8E04130008360001
(1763086932.434516) can0 000A0003#FD3FFF3C0FC40000
(1763086932.434803) can0 000A0004#0060FFD9FFB08E02
(1763086932.436531) can0 1A3#C0193E0A000000
(1763086932.444501) can0 000A0003#FD45FF230F690000
(1763086932.444788) can0 000A0004#0066FFDBFFB48E02
(1763086932.446404) can0 682#4148FD0300002902
(1763086932.448889) can0 701#05
(1763086932.449387) can0 181#D10300207F000009
(1763086932.449810) can0 482#5305150008360001
(1763086932.450141) can0 382#A009B300430A0000
(1763086932.454501) can0 000A0003#FD4BFF270F160000
(1763086932.454785) can0 000A0004#0074FFE8FFB88E02
(1763086932.462802) can0 281#C20500001A000000
(1763086932.463848) can0 4C4#0582058A05470573
(1763086932.464087) can0 186#381C4C1D09050000
(1763086932.464501) can0 000A0003#FD50FF3C0EDE0000
(1763086932.464790) can0 000A0004#006DFFF0FFB88E02
(1763086932.465020) can0 4C5#05860578056F054D
(1763086932.465667) can0 1A2#C00FFB0D000000
(1763086932.465892) can0 2A1#2725222321212425
(1763086932.466127) can0 4C6#055F056705720571
(1763086932.466892) can0 4C7#0584058B05840593
(1763086932.467115) can0 1A4#0016510A000000
(1763086932.467342) can0 2A3#1D1D1E1D1B1E1C1C
(1763086932.467924) can0 4C8#04F5000000000000
(1763086932.470638) can0 701#05
(1763086932.471071) can0 382#150CD900F00A0000
(1763086932.471437) can0 482#9E05160008360001
(1763086932.473769) can0 1A0#000000000000
(1763086932.474507) can0 000A0003#FD16FF860EA10000
(1763086932.474793) can0 000A0004#0059FFECFFB68E02
(1763086932.475527) can0 000A0000#0000000000000000
(1763086932.475829) can0 000A0001#0000000000000000
(1763086932.476125) can0 000A0002#0000000000000000
(1763086932.484507) can0 000A0003#FCDCFFC70E770000
(1763086932.484790) can0 000A0004#004CFFE8FFB68E02
(1763086932.487344) can0 682#4148F60300007402
(1763086932.487703) can0 181#D10300207F000009
(1763086932.492478) can0 701#05
(1763086932.492944) can0 482#9604160008360001
(1763086932.493276) can0 382#BB0AEF00F00A0000
(1763086932.494506) can0 000A0003#FC72FFF30E4A0000
(1763086932.494793) can0 000A0004#003FFFE8FFB68E02
(1763086932.499288) can0 1A5#C00F350C000000
(1763086932.503982) can0 186#751A4C1D09060000
(1763086932.504508) can0 000A0003#FC0400030E250000
(1763086932.504797) can0 000A0004#0040FFEBFFB58E02
(1763086932.505023) can0 189#680429034F011651
(1763086932.505331) can0 080#
(1763086932.506487) can0 281#960400001C000000
(1763086932.506727) can0 19A#00007E74727C837F
(1763086932.506971) can0 286#0000580200000000
(1763086932.507671) can0 29A#8178818382820000
(1763086932.511543) can0 188#0C00083300000000
(1763086932.512299) can0 288#14280B5B00140000
(1763086932.513308) can0 388#2425262324000000
(1763086932.514269) can0 191#8D8D8E8D8E8D
(1763086932.514555) can0 000A0003#FBE2000C0E130000
(1763086932.514842) can0 000A0004#0044FFEEFFB88E02
(1763086932.514956) can0 701#05
(1763086932.515203) can0 482#D804150008360001
(1763086932.515394) can0 192#8D8D8D8D8D8D
(1763086932.515630) can0 382#50093D00410A0000
(1763086932.516250) can0 193#8D8E8E8E8E8E
(1763086932.517262) can0 194#8D8E8E8E8E8E
(1763086932.518264) can0 195#8D8E8E8E8E8E
(1763086932.519241) can0 291#121313131313
(1763086932.520252) can0 292#121313131313
(1763086932.521258) can0 293#131313131313
(1763086932.522266) can0 294#131413141313
(1763086932.523276) can0 295#131414141413
(1763086932.524513) can0 000A0003#FBE300160DFE0000
(1763086932.524809) can0 000A0004#003EFFFCFFBF8E02
(1763086932.525574) can0 181#D10300207F000009
(1763086932.528955) can0 4C4#0582058A05470573
(1763086932.529965) can0 4C5#05860578056F054D
(1763086932.530985) can0 4C6#055F056705720571
(1763086932.531226) can0 682#4148F80300008202
(1763086932.531993) can0 4C7#0584058B05840593
(1763086932.533026) can0 4C8#04F5000000000000
(1763086932.534521) can0 000A0003#FBDB001F0DFC0000
(1763086932.534804) can0 000A0004#0031000AFFC78E02
(1763086932.536151) can0 701#05
(1763086932.536598) can0 382#D80A45FF410A0000
(1763086932.536959) can0 482#8005150008360001
(1763086932.537384) can0 1A3#C00F120A000000
(1763086932.543941) can0 186#230F4C1D09070000
(1763086932.544517) can0 000A0003#FBC100280E020000
(1763086932.544807) can0 000A0004#0022000BFFCA8E02
(1763086932.550130) can0 281#4B05000013000000
(1763086932.554524) can0 000A0003#FBAA001A0E0A0000
(1763086932.554808) can0 000A0004#001A0017FFCC8E02
(1763086932.557996) can0 701#05
(1763086932.558457) can0 482#F7040C0008360001
(1763086932.558798) can0 382#83060F00DE050000
(1763086932.564009) can0 181#D10300207F000009
(1763086932.564521) can0 000A0003#FB80FFE70E1B0000
(1763086932.564810) can0 000A0004#001A002FFFD28E02
(1763086932.572095) can0 682#4148FF0300006702
(1763086932.573052) can0 1A2#0016AA0E000000
(1763086932.573278) can0 2A1#2725222322202426
(1763086932.573767) can0 1A0#000000000000
(1763086932.573993) can0 1A4#0016120A000000
(1763086932.574219) can0 2A3#1D1D1D1D1B1E1C1C
(1763086932.574517) can0 000A0003#FB6AFFED0E250000
(1763086932.574801) can0 000A0004#0026002DFFD48E02
(1763086932.575528) can0 000A0000#0000000000000000
(1763086932.575828) can0 000A0001#0000000000000000
(1763086932.576127) can0 000A0002#0000000000000000
(1763086932.579916) can0 701#05
(1763086932.580277) can0 482#95040C0008360001
(1763086932.580617) can0 382#53054DFFDE050000
(1763086932.583935) can0 186#85174C1D09080000
(1763086932.584515) can0 000A0003#FB7A000C0E2B0000
(1763086932.584803) can0 000A0004#002B0040FFD18E02
(1763086932.593824) can0 281#DA04000018000000
(1763086932.594070) can0 4C4#05870593053E056F
(1763086932.594524) can0 000A0003#FB8500140E110000
(1763086932.594813) can0 000A0004#002C0049FFCF8E02
(1763086932.595079) can0 4C5#05860580056F0554
(1763086932.596096) can0 4C6#0566056E05720575
(1763086932.597109) can0 4C7#058F0592058D059C
(1763086932.598138) can0 4C8#04F5000000000000
(1763086932.601401) can0 1A5#C00FD10C000000
(1763086932.601980) can0 701#05
(1763086932.602341) can0 382#AC086EFF1E090000
(1763086932.602681) can0 181#D10300207F000009
(1763086932.603985) can0 189#37040C0350011451
(1763086932.604519) can0 000A0003#FB95000E0DBD0000
(1763086932.604807) can0 000A0004#002C0052FFCF8E02
(1763086932.604908) can0 080#
(1763086932.605152) can0 482#3E05120008360001
(1763086932.605515) can0 286#0000580200000000
(1763086932.613044) can0 682#4148FD0300004602
(1763086932.614519) can0 000A0003#FBB6FFF80DA10000
(1763086932.614804) can0 000A0004#0027005FFFC68E02
(1763086932.620497) can0 188#0C00E43200000000
(1763086932.621296) can0 288#1428184C00140000
(1763086932.622299) can0 388#2425262324000000
(1763086932.623248) can0 191#8D8D8E8D8E8D
(1763086932.623596) can0 701#05
(1763086932.623934) can0 186#7F194C1D09090000
(1763086932.624174) can0 382#F60936001E090000
(1763086932.624364) can0 192#8D8D8D8D8D8D
(1763086932.624655) can0 000A0003#FBE1FFE50D9F0000
(1763086932.624942) can0 000A0004#0028006AFFC38E02
(1763086932.625262) can0 193#8D8E8E8E8E8E
(1763086932.626270) can0 194#8D8E8E8E8E8E
(1763086932.626787) can0 482#D305140008360001
(1763086932.627245) can0 195#8D8E8E8E8E8E
(1763086932.628253) can0 291#121313131313
(1763086932.629263) can0 292#121313131313
(1763086932.630268) can0 293#131313131313
(1763086932.631247) can0 294#131413141313
(1763086932.632261) can0 295#131414141413
(1763086932.634527) can0 000A0003#FBFEFFDC0D9B0000
(1763086932.634813) can0 000A0004#002E0066FFBE8E02
(1763086932.637392) can0 281#8A05000019000000
(1763086932.638225) can0 1A3#C00FB509000000
(1763086932.640459) can0 181#D10300207F000009
(1763086932.644525) can0 000A0003#FBD6FFF70D930000
(1763086932.644812) can0 000A0004#00340065FFB98E02
(1763086932.645432) can0 701#05
(1763086932.645895) can0 382#B40AD3FEE1090000
(1763086932.648426) can0 482#0305140008360001
(1763086932.654535) can0 000A0003#FBAEFFF60D9F0000
(1763086932.654819) can0 000A0004#0035005DFFB58E02
(1763086932.656726) can0 682#4148F90300007202
(1763086932.659187) can0 4C4#0596059C0550057F
(1763086932.660195) can0 4C5#0599058E0579055B
(1763086932.661216) can0 4C6#056D057D05840587
(1763086932.662226) can0 4C7#05A105A1059D05A5
(1763086932.663253) can0 4C8#04F5000000000000
(1763086932.663923) can0 186#92174C1D090A0000
(1763086932.664525) can0 000A0003#FB90FFD20DAE0000
(1763086932.664806) can0 000A0004#00310058FFB38E02
(1763086932.667174) can0 701#05
(1763086932.667611) can0 382#350995FFE1090000
(1763086932.667979) can0 482#C304120008360001
(1763086932.673770) can0 1A0#000000000000
(1763086932.674524) can0 000A0003#FB76FFB80DB80000
(1763086932.674805) can0 000A0004#002B0056FFBB8E02
(1763086932.675539) can0 000A0000#0000000000000000
(1763086932.675837) can0 000A0001#0000000000000000
(1763086932.676136) can0 000A0002#0000000000000000
(1763086932.680445) can0 1A2#C00FAA0E000000
(1763086932.680674) can0 2A1#2826222322202426
(1763086932.680898) can0 1A4#0018120A000000
(1763086932.681130) can0 2A3#1D1D1D1E1C1E1C1C
(1763086932.681373) can0 181#D10300207F000009
(1763086932.681623) can0 281#2D05000018000000
(1763086932.684529) can0 000A0003#FB7FFFD40DAE0000
(1763086932.684818) can0 000A0004#001A0061FFBB8E02
(1763086932.689560) can0 382#2B09B0FF22090000
(1763086932.689681) can0 701#05
(1763086932.690027) can0 482#7805120008360001
(1763086932.694531) can0 000A0003#FB9BFFF00DB10000
(1763086932.694816) can0 000A0004#0013005EFFC48E02
(1763086932.695665) can0 19A#00007F767C80837D
(1763086932.696668) can0 29A#826A828185860000
(1763086932.697767) can0 682#4148F90300007302
(1763086932.703519) can0 1A5#C019AF0C000000
(1763086932.703957) can0 186#6D0B4C1D090B0000
(1763086932.704528) can0 000A0003#FBC600030DB80000
(1763086932.704814) can0 000A0004#00130063FFCB8E02
(1763086932.705048) can0 189#310401034D011351
(1763086932.705378) can0 080#
(1763086932.706528) can0 286#0000580200000000
(1763086932.710941) can0 701#05
(1763086932.711304) can0 482#78050D0008360001
(1763086932.711551) can0 188#0C00F63200000000
(1763086932.711786) can0 382#8708BAFFC8070000
(1763086932.712315) can0 288#A027E45200140000
(1763086932.713299) can0 388#2425262324000000
(1763086932.714253) can0 191#8A898A898A89
(1763086932.714539) can0 000A0003#FBFE00230DC80000
(1763086932.714826) can0 000A0004#00140064FFCE8E02
(1763086932.715263) can0 192#8A898A8A898A
(1763086932.716267) can0 193#898A8A8A8A8A
(1763086932.717243) can0 194#8A8A8A8A8A8A
(1763086932.718250) can0 195#8A8A8A8A8A8A
(1763086932.719257) can0 291#121313131213
(1763086932.719619) can0 181#D10300207F000009
(1763086932.720265) can0 292#121313131313
(1763086932.721275) can0 293#131313131313
(1763086932.722247) can0 294#131313131313
(1763086932.723264) can0 295#131414141413
(1763086932.724320) can0 4C4#0596059C0550057F
(1763086932.724607) can0 000A0003#FC2500470DE40000
(1763086932.724894) can0 000A0004#00120063FFD08E02
(1763086932.725140) can0 281#FF0400000B000000
(1763086932.725372) can0 4C5#0599058E0579055B
(1763086932.726345) can0 4C6#056D057D05840587
(1763086932.727356) can0 4C7#05A105A1059D05A5
(1763086932.728385) can0 4C8#04F5000000000000
(1763086932.732689) can0 701#05
(1763086932.733126) can0 382#6A0452FF6E040000
(1763086932.733491) can0 482#CB04090008360001
(1763086932.734531) can0 000A0003#FC4F005C0DE60000
(1763086932.734821) can0 000A0004#0002005EFFCE8E02
(1763086932.738623) can0 682#4148030400003602
(1763086932.739084) can0 1A3#C011D709000000
(1763086932.743928) can0 186#16074C1D090C0000
(1763086932.744530) can0 000A0003#FC6F00570DE00000
(1763086932.744819) can0 000A0004#FFF8005FFFCC8E02
(1763086932.754538) can0 000A0003#FC9F003F0DD50000
(1763086932.754824) can0 000A0004#FFF6005DFFD28E02
(1763086932.754940) can0 701#05
(1763086932.755187) can0 482#EE04060008360001
(1763086932.755431) can0 382#15022A01BF020000
(1763086932.757699) can0 181#D10300207F000009
(1763086932.764536) can0 000A0003#FCD200050DC30000
(1763086932.764824) can0 000A0004#FFFD005CFFCC8E02
(1763086932.768416) can0 281#1705000007000000
(1763086932.773680) can0 1A0#000000000000
(1763086932.774542) can0 000A0003#FCF2FFE10DB80000
(1763086932.774832) can0 000A0004#00040062FFC98E02
(1763086932.775556) can0 000A0000#0000000000000000
(1763086932.775857) can0 000A0001#0000000000000000
(1763086932.776154) can0 000A0002#0000000000000000
(1763086932.776603) can0 701#05
(1763086932.777053) can0 482#3605060008360001
(1763086932.777388) can0 382#A702A400BF020000
(1763086932.779641) can0 682#41480A040000C201
(1763086932.783918) can0 186#99074C1D090D0000
(1763086932.784541) can0 000A0003#FD23FFCD0DCD0000
(1763086932.784827) can0 000A0004#000D0062FFC78E02
(1763086932.787605) can0 1A4#0018600A000000
(1763086932.787833) can0 1A2#0018AA0E000000
(1763086932.788057) can0 2A1#2826222322212426
(1763086932.788289) can0 2A3#1D1D1D1E1C1E1C1C
(1763086932.789393) can0 4C4#0582058A05470573
(1763086932.790409) can0 4C5#058A057C056F054D
(1763086932.791420) can0 4C6#055F056B056F0575
(1763086932.792434) can0 4C7#058B058E0588058E
(1763086932.793463) can0 4C8#04F5000000000000
(1763086932.794543) can0 000A0003#FD57FFB70DD40000
(1763086932.794832) can0 000A0004#000B006BFFC18E02
(1763086932.795815) can0 181#D10300207F000009
(1763086932.798210) can0 701#05
(1763086932.798651) can0 382#AE020C00F2020000
(1763086932.799102) can0 482#7805060008360001
(1763086932.803969) can0 189#2A0404034E011351
(1763086932.804539) can0 000A0003#FD91FF9B0DC20000
(1763086932.804829) can0 000A0004#FFFC0064FFBE8E02
(1763086932.804929) can0 080#
(1763086932.805530) can0 286#0000580200000000
(1763086932.805756) can0 1A5#C010F80C000000
(1763086932.811523) can0 188#0C00E43200000000
(1763086932.812192) can0 281#9D05000008000000
(1763086932.812434) can0 288#A027E43A00140000
(1763086932.813279) can0 388#2425262324000000
(1763086932.814243) can0 191#8A898A898A89
(1763086932.814536) can0 000A0003#FDB6FF890DB60000
(1763086932.814825) can0 000A0004#FFF60067FFBA8E02
(1763086932.815251) can0 192#8A898A8A898A
(1763086932.816276) can0 193#898A8A8A8A8A
(1763086932.817252) can0 194#8A8A8A8A8A8A
(1763086932.818257) can0 195#8A8A8A8A8A8A
(1763086932.819264) can0 291#121313131213
(1763086932.820051) can0 701#05
(1763086932.820273) can0 292#121313131313
(1763086932.820518) can0 482#A705060008360001
(1763086932.820934) can0 682#41480A0400007C01
(1763086932.821193) can0 382#5A0394FFF2020000
(1763086932.821383) can0 293#131313131313
(1763086932.822237) can0 294#131313131313
(1763086932.823253) can0 295#131414141413
(1763086932.823915) can0 186#D8184C1D090E0000
(1763086932.824537) can0 000A0003#FDF1FF3B0D9B0000
(1763086932.824822) can0 000A0004#FFF1006DFFB58E02
(1763086932.834037) can0 181#D10300207F000009
(1763086932.834541) can0 000A0003#FE24FEFD0D980000
(1763086932.834822) can0 000A0004#FFF90069FFB18E02
(1763086932.839941) can0 1A3#C0133109000000
(1763086932.841975) can0 701#05
(1763086932.842356) can0 482#3E05130008360001
(1763086932.842686) can0 382#AE09EEFDA0090000
(1763086932.844543) can0 000A0003#FE4DFED80DC20000
(1763086932.844828) can0 000A0004#00050066FFB28E02
(1763086932.854473) can0 4C4#0582058A05470573
(1763086932.854756) can0 000A0003#FE67FEC10DDC0000
(1763086932.855042) can0 000A0004#000A0062FFB48E02
(1763086932.855484) can0 4C5#058A057C056F054D
(1763086932.855990) can0 281#3E05000019000000
(1763086932.856499) can0 4C6#055F056B056F0575
(1763086932.857514) can0 4C7#058B058E0588058E
(1763086932.858541) can0 4C8#04F5000000000000
(1763086932.861551) can0 682#4148FE030000B001
(1763086932.863909) can0 186#56184C1D090F0000
(1763086932.864292) can0 482#5605130008360001
(1763086932.864593) can0 000A0003#FE7DFEBC0E280000
(1763086932.864867) can0 000A0004#000B0058FFB68E02
(1763086932.864982) can0 701#05
(1763086932.865282) can0 382#6309A9FFA0090000
(1763086932.872357) can0 181#D10300207F000009
(1763086932.873683) can0 1A0#000000000000
(1763086932.874543) can0 000A0003#FE93FEB60E720000
(1763086932.874831) can0 000A0004#0006004DFFB38E02
(1763086932.875557) can0 000A0000#0000000000000000
(1763086932.875859) can0 000A0001#0000000000000000
(1763086932.876155) can0 000A0002#0000000000000000
(1763086932.884541) can0 000A0003#FEA3FEB10EA30000
(1763086932.884824) can0 000A0004#FFFC0042FFB28E02
(1763086932.885884) can0 382#A0093BFF6E090000
(1763086932.886003) can0 701#05
(1763086932.886354) can0 482#7005130008360001
(1763086932.894448) can0 1A4#0016510A000000
(1763086932.894732) can0 000A0003#FEBBFEAA0EEA0000
(1763086932.895014) can0 000A0004#FFF30036FFB38E02
(1763086932.895238) can0 1A2#C0110E0E000000
(1763086932.895466) can0 2A1#2826222322212427
(1763086932.895700) can0 2A3#1D1D1D1E1C1E1C1C
(1763086932.899531) can0 281#5E05000018000000
(1763086932.901655) can0 19A#00008373747B8080
(1763086932.902500) can0 682#4148F90300000302
(1763086932.902738) can0 29A#8071828384870000
(1763086932.903943) can0 186#91134C1D09000000
(1763086932.904544) can0 000A0003#FEA2FE9E0F140000
(1763086932.904829) can0 000A0004#FFF1002EFFB58E02
(1763086932.905062) can0 189#1804F0024D011251
(1763086932.905176) can0 701#05
(1763086932.905393) can0 080#
(1763086932.905631) can0 382#740953FF6E090000
(1763086932.906514) can0 286#0000580200000000
(1763086932.907729) can0 1A5#00174B0D000000
(1763086932.907970) can0 482#5605100008360001
(1763086932.910482) can0 181#D10300207F000009
(1763086932.911540) can0 188#0C00ED3200000000
(1763086932.912297) can0 288#6728175500140000
(1763086932.913304) can0 388#2425262324000000
(1763086932.914270) can0 191#909090909090
(1763086932.914557) can0 000A0003#FE8AFE940F350000
(1763086932.914840) can0 000A0004#FFEF0024FFB88E02
(1763086932.915279) can0 192#909090909090
(1763086932.916253) can0 193#909090909090
(1763086932.917262) can0 194#909090919090
(1763086932.918266) can0 195#909091919191
(1763086932.919272) can0 291#121313131313
(1763086932.919560) can0 4C4#057D058F053E056F
(1763086932.920252) can0 292#121313131313
(1763086932.920582) can0 4C5#058A057C056F0554
(1763086932.921258) can0 293#121313131313
(1763086932.921585) can0 4C6#055F056B05760575
(1763086932.922264) can0 294#131313131313
(1763086932.922596) can0 4C7#0588058B058C059C
(1763086932.923279) can0 295#131314141413
(1763086932.923626) can0 4C8#04F5000000000000
(1763086932.924559) can0 000A0003#FE7FFE920F410000
(1763086932.924845) can0 000A0004#FFF20021FFBA8E02
(1763086932.929560) can0 482#4C050F0008360001
(1763086932.929680) can0 701#05
(1763086932.929927) can0 382#6507340095070000
(1763086932.934555) can0 000A0003#FE6FFE8E0F510000
(1763086932.934839) can0 000A0004#FFF4001CFFBE8E02
(1763086932.940814) can0 1A3#C00F3B09000000
(1763086932.943223) can0 281#5C05000014000000
(1763086932.943581) can0 682#4148FE0300000E02
(1763086932.943909) can0 186#DC084C1D09010000
(1763086932.944561) can0 000A0003#FE65FE820FA40000
(1763086932.944850) can0 000A0004#FFEF0018FFC18E02
(1763086932.948684) can0 181#D10300207F000009
(1763086932.951629) can0 382#5D060200E1040000
(1763086932.951750) can0 701#05
(1763086932.954126) can0 482#7305070008360001
(1763086932.954555) can0 000A0003#FE5CFE730FDA0000
(1763086932.954850) can0 000A0004#FFDF0013FFC38E02
(1763086932.964557) can0 000A0003#FE4CFE660FDC0000
(1763086932.964846) can0 000A0004#FFD8000FFFC58E02
(1763086932.972999) can0 701#05
(1763086932.973489) can0 382#7203C3006F030000
(1763086932.973773) can0 1A0#000000000000
(1763086932.974558) can0 000A0003#FE36FE530FE00000
(1763086932.974842) can0 000A0004#FFCF000AFFC78E02
(1763086932.975570) can0 000A0000#0000000000000000
(1763086932.975868) can0 000A0001#0000000000000000
(1763086932.976169) can0 000A0002#0000000000000000
(1763086932.976415) can0 482#3D05070008360001
(1763086932.983898) can0 186#59094C1D09020000
(1763086932.984586) can0 000A0003#FE76FE1F0FFB0000
(1763086932.984855) can0 000A0004#FFD10007FFC98E02
(1763086932.985088) can0 4C4#0582059805430577
(1763086932.985332) can0 682#414807040000C901
(1763086932.985627) can0 281#3005000009000000
(1763086932.985862) can0 4C5#05920583056F0558
(1763086932.986649) can0 4C6#05630572057D0580
(1763086932.987659) can0 4C7#059D0596059505A5
(1763086932.988692) can0 4C8#04F5000000000000
(1763086932.989642) can0 181#D10300207F000009
(1763086932.994560) can0 000A0003#FEA0FDFE100D0000
(1763086932.994846) can0 000A0004#FFD70008FFCA8E02
(1763086932.994961) can0 701#05
(1763086932.995207) can0 382#770352009F030000
(1763086932.997913) can0 482#4A05070008360001
(1763086933.001286) can0 1A4#0018EB09000000
(1763086933.001519) can0 2A3#1E1D1D1E1C1E1C1C
(1763086933.002592) can0 1A2#C00FAA0E000000
(1763086933.002819) can0 2A1#2826232322232427
(1763086933.003948) can0 189#2C0404034E011351
(1763086933.004578) can0 000A0003#FECDFDDF0FCA0000
(1763086933.004855) can0 000A0004#FFDF0007FFC78E02
(1763086933.004956) can0 080#
(1763086933.005546) can0 286#0000580200000000
(1763086933.009844) can0 1A5#C019B60D000000
(1763086933.011501) can0 188#0C00ED3200000000
(1763086933.012460) can0 288#6728173F00140000
(1763086933.013312) can0 388#2425262324000000
(1763086933.014274) can0 191#909090909090
(1763086933.014570) can0 000A0003#FEF1FDC10F8A0000
(1763086933.014860) can0 000A0004#FFEC0004FFC38E02
(1763086933.015254) can0 192#909090909090
(1763086933.016260) can0 193#909090909090
(1763086933.016939) can0 382#9403F1FF9F030000
(1763086933.017114) can0 701#05
(1763086933.017306) can0 194#909090919090
(1763086933.018251) can0 195#909091919191
(1763086933.019228) can0 291#121313131313
(1763086933.019883) can0 482#8605070008360001
(1763086933.020255) can0 292#121313131313
(1763086933.021264) can0 293#121313131313
(1763086933.022272) can0 294#131313131313
(1763086933.023282) can0 295#131314141413
(1763086933.023901) can0 186#3A074C1D09030000
(1763086933.024559) can0 000A0003#FF0CFDD10FC20000
(1763086933.024850) can0 000A0004#FFF00004FFC18E02
(1763086933.025468) can0 682#4148080400008E01
(1763086933.030566) can0 181#D10300207F000009
(1763086933.030815) can0 281#8505000007000000
(1763086933.034564) can0 000A0003#FF1DFDDC0FE60000
(1763086933.034848) can0 000A0004#FFEDFFFFFFBD8E02
(1763086933.038430) can0 701#05
(1763086933.038989) can0 382#39033900CD020000
(1763086933.041606) can0 482#7005060008360001
(1763086933.041827) can0 1A3#C011B208000000
(1763086933.044559) can0 000A0003#FF0BFE0E100B0000
(1763086933.044845) can0 000A0004#FFE1FFF4FFB78E02
(1763086933.049757) can0 4C4#058C059C054C057B
(1763086933.050768) can0 4C5#0595058B0576055B
(1763086933.051786) can0 4C6#05660572057D0580
(1763086933.052797) can0 4C7#059D0596059505A5
(1763086933.053827) can0 4C8#04F5000000000000
(1763086933.054562) can0 000A0003#FEE5FE3E102F0000
(1763086933.054850) can0 000A0004#FFDCFFEDFFB58E02
(1763086933.060258) can0 701#05
(1763086933.060714) can0 382#7002F6FFCD020000
(1763086933.061169) can0 482#4305060008360001
(1763086933.063897) can0 186#11084C1D09040000
(1763086933.064575) can0 000A0003#FE95FE3E10550000
(1763086933.064848) can0 000A0004#FFE9FFE4FFB48E02
(1763086933.066383) can0 682#41480A0400005801
(1763086933.071520) can0 181#D10300207F000009
(1763086933.073776) can0 1A0#000000000000
(1763086933.074261) can0 281#5105000008000000
(1763086933.074567) can0 000A0003#FE61FE3E106D0000
(1763086933.074853) can0 000A0004#FFFAFFE6FFB48E02
(1763086933.075575) can0 000A0000#0000000000000000
(1763086933.075877) can0 000A0001#0000000000000000
(1763086933.076173) can0 000A0002#0000000000000000
(1763086933.082072) can0 701#05
(1763086933.082437) can0 382#EE02DEFF20030000
(1763086933.084577) can0 000A0003#FE4CFE3A10790000
(1763086933.084854) can0 000A0004#0009FFE5FFB78E02
(1763086933.085148) can0 482#7205060008360001
(1763086933.094567) can0 000A0003#FE52FE3310840000
(1763086933.094856) can0 000A0004#0006FFDCFFB98E02
(1763086933.103928) can0 186#29084C1D09050000
(1763086933.104042) can0 701#05
(1763086933.104576) can0 000A0003#FE6AFE40109C0000
(1763086933.104852) can0 000A0004#FFFDFFD9FFBA8E02
(1763086933.105084) can0 189#39040B034E011451
(1763086933.105328) can0 382#87033F0020030000
(1763086933.105430) can0 080#
(1763086933.106532) can0 286#0000580200000000
(1763086933.107351) can0 482#9005060008360001
(1763086933.107684) can0 682#41480A0400003901
(1763086933.107924) can0 19A#00007F74747F7D7D
(1763086933.108149) can0 1A4#001CEB09000000
(1763086933.108384) can0 2A3#1E1E1F1D1C1E1C1C
(1763086933.108654) can0 29A#7E6D857F84830000
(1763086933.109958) can0 181#D10300207F000009
(1763086933.110185) can0 1A2#0018FB0D000000
(1763086933.110407) can0 2A1#2926232322232526
(1763086933.111554) can0 188#0C00803200000000
(1763086933.111950) can0 1A5#0018720D000000
(1763086933.112313) can0 288#6228173C00140000
(1763086933.113320) can0 388#2425262324000000
(1763086933.114254) can0 191#909090909090
(1763086933.114570) can0 000A0003#FE8DFE5410BF0000
(1763086933.114862) can0 000A0004#FFF1FFCFFFBC8E02
(1763086933.115098) can0 4C4#0596059C0550057F
(1763086933.115292) can0 192#909090909090
(1763086933.115900) can0 4C5#059505870576055B
(1763086933.116268) can0 193#909090909090
(1763086933.116922) can0 4C6#056D05720581057C
(1763086933.117278) can0 194#909090909090
(1763086933.117932) can0 4C7#059D0596059505A0
(1763086933.118178) can0 281#7A05000008000000
(1763086933.118371) can0 195#909090909090
(1763086933.118959) can0 4C8#04F5000000000000
(1763086933.119257) can0 291#121213131213
(1763086933.120267) can0 292#121313131313
(1763086933.121274) can0 293#131313131313
(1763086933.122283) can0 294#131413141313
(1763086933.123264) can0 295#131414141413
(1763086933.124582) can0 000A0003#FEA2FE6610E20000
(1763086933.124860) can0 000A0004#FFEBFFC6FFBE8E02
(1763086933.126004) can0 701#05
(1763086933.126460) can0 382#7E03DBFF2A030000
(1763086933.128945) can0 482#5F05060008360001
(1763086933.134573) can0 000A0003#FEAEFE7611040000
(1763086933.134861) can0 000A0004#FFF1FFC0FFC28E02
(1763086933.142549) can0 1A3#0016D908000000
(1763086933.143885) can0 186#C30F4C1D09060000
(1763086933.144578) can0 000A0003#FEB2FEA1111A0000
(1763086933.144856) can0 000A0004#FFF3FFBBFFC38E02
(1763086933.147939) can0 382#F6022C0084040000
(1763086933.148060) can0 701#05
(1763086933.148302) can0 181#D10300207F000009
(1763086933.148770) can0 682#41480A0400002501
(1763086933.150777) can0 482#4D050C0008360001
(1763086933.154573) can0 000A0003#FEB7FEDF11380000
(1763086933.154859) can0 000A0004#FFF1FFB0FFC38E02
(1763086933.161617) can0 281#7205000010000000
(1763086933.164578) can0 000A0003#FEBDFEF511AD0000
(1763086933.164856) can0 000A0004#FFE1FFACFFC68E02
(1763086933.169793) can0 382#DF0596FF1B060000
(1763086933.169907) can0 701#05
(1763086933.172422) can0 482#A7050C0008360001
(1763086933.173777) can0 1A0#000000000000
(1763086933.174577) can0 000A0003#FEC2FEF8121D0000
(1763086933.174863) can0 000A0004#FFD9FFA5FFC98E02
(1763086933.175591) can0 000A0000#0000000000000000
(1763086933.175891) can0 000A0001#0000000000000000
(1763086933.176189) can0 000A0002#0000000000000000
(1763086933.180027) can0 4C4#0596059C0550057F
(1763086933.181035) can0 4C5#059505870576055B
(1763086933.182052) can0 4C6#056D05720581057C
(1763086933.183064) can0 4C7#059D0596059505A0
(1763086933.183880) can0 186#B90F4C1D09070000
(1763086933.184124) can0 4C8#04F5000000000000
(1763086933.184590) can0 000A0003#FEB1FEE9120A0000
(1763086933.184864) can0 000A0004#FFD5FFA2FFC88E02
(1763086933.186388) can0 181#D10300207F000009
(1763086933.191290) can0 701#05
(1763086933.191737) can0 482#99050C0008360001
(1763086933.192068) can0 682#4148030400005D01
(1763086933.192328) can0 382#6E06E7FE18060000
(1763086933.194589) can0 000A0003#FE99FED311F00000
(1763086933.194872) can0 000A0004#FFDEFF9CFFC88E02
(1763086933.203936) can0 189#340404034E011451
(1763086933.204382) can0 080#
(1763086933.204670) can0 000A0003#FE92FECA11AE0000
(1763086933.204955) can0 000A0004#FFF1FF9DFFC88E02
(1763086933.205405) can0 281#5F05000010000000
(1763086933.205649) can0 286#0000580200000000
(1763086933.211561) can0 188#0C00BF3200000000
(1763086933.212318) can0 288#6B28494A00140000
(1763086933.213300) can0 388#2425262324000000
(1763086933.213415) can0 701#05
(1763086933.213805) can0 482#4E050C0008360001
(1763086933.214051) can0 1A5#C011C20C000000
(1763086933.214287) can0 382#D1056DFF18060000
(1763086933.214482) can0 191#909091909190
(1763086933.214763) can0 000A0003#FE93FEC911770000
(1763086933.215051) can0 000A0004#FFFDFFA0FFCA8E02
(1763086933.215277) can0 1A4#0016120A000000
(1763086933.215471) can0 192#909090909090
(1763086933.215708) can0 2A3#1E1E1F1D1C1E1C1C
(1763086933.216273) can0 193#909091919091
(1763086933.217256) can0 194#909191919191
(1763086933.217478) can0 1A2#0018810D000000
(1763086933.217703) can0 2A1#2927252321232526
(1763086933.218257) can0 195#909191919191
(1763086933.219265) can0 291#121313131213
(1763086933.220274) can0 292#121313131313
(1763086933.221281) can0 293#131313131313
(1763086933.222260) can0 294#131413141313
(1763086933.223272) can0 295#131414141413
(1763086933.223880) can0 186#13174C1D09080000
(1763086933.224504) can0 181#D10300207F000009
(1763086933.224787) can0 000A0003#FE9DFED311230000
(1763086933.225074) can0 000A0004#000AFFA0FFC98E02
(1763086933.232692) can0 682#4148010400007D01
(1763086933.234582) can0 000A0003#FEABFEE310D10000
(1763086933.234870) can0 000A0004#000BFFA3FFCB8E02
(1763086933.235295) can0 382#AF0862FFF1080000
(1763086933.235415) can0 701#05
(1763086933.235850) can0 482#7805120008360001
(1763086933.243416) can0 1A3#C00F3B09000000
(1763086933.244596) can0 000A0003#FEA0FEE710B80000
(1763086933.244871) can0 000A0004#0000FFA1FFCA8E02
(1763086933.245106) can0 4C4#0578058F0547056B
(1763086933.246083) can0 4C5#05860580056B0551
(1763086933.247095) can0 4C6#055F0567056F0571
(1763086933.248106) can0 4C7#0584058E058C0593
(1763086933.248941) can0 281#B805000017000000
(1763086933.249184) can0 4C8#04F5000000000000
(1763086933.254582) can0 000A0003#FE92FEE610B90000
(1763086933.254865) can0 000A0004#FFFCFF9EFFCB8E02
(1763086933.256778) can0 701#05
(1763086933.257348) can0 382#5A09BDFFF1080000
(1763086933.259999) can0 482#C705120008360001
(1763086933.262720) can0 181#D10300207F000009
(1763086933.263873) can0 186#1B194C1D09090000
(1763086933.264596) can0 000A0003#FE7AFEDC10A70000
(1763086933.264866) can0 000A0004#FFFAFF98FFCA8E02
(1763086933.273782) can0 1A0#000000000000
(1763086933.274020) can0 682#4148F9030000E501
(1763086933.274583) can0 000A0003#FE61FECE108A0000
(1763086933.274871) can0 000A0004#0008FF94FFCB8E02
(1763086933.275599) can0 000A0000#0000000000000000
(1763086933.275899) can0 000A0001#0000000000000000
(1763086933.276197) can0 000A0002#0000000000000000
(1763086933.278643) can0 701#05
(1763086933.279092) can0 382#F6099100BA090000
(1763086933.281955) can0 482#6805140008360001
(1763086933.284600) can0 000A0003#FE30FEBD10870000
(1763086933.284872) can0 000A0004#0014FF8DFFCB8E02
(1763086933.292642) can0 281#5405000019000000
(1763086933.294581) can0 000A0003#FE08FEB1108C0000
(1763086933.294865) can0 000A0004#001AFF8CFFCC8E02
(1763086933.296680) can0 19A#00007E736E7E7F7D
(1763086933.297658) can0 29A#7E68837F82830000
(1763086933.300686) can0 701#05
(1763086933.301155) can0 382#3D095600BA090000
(1763086933.301489) can0 181#D10300207F000009
(1763086933.303530) can0 482#7405140008360001
(1763086933.303909) can0 186#70194C1D090A0000
(1763086933.304532) can0 189#530420034F011551
(1763086933.304820) can0 000A0003#FDCFFEAD103F0000
(1763086933.305106) can0 000A0004#001EFF83FFCC8E02
(1763086933.305398) can0 080#
(1763086933.306548) can0 286#0000580200000000
(1763086933.310178) can0 4C4#057D058F05470573
(1763086933.311190) can0 4C5#05860580056F0551
(1763086933.311574) can0 188#0C00113300000000
(1763086933.312202) can0 4C6#0563056B056F0571
(1763086933.312439) can0 288#6B28496400140000
(1763086933.313219) can0 4C7#058805920590059C
(1763086933.313464) can0 388#2425262324000000
(1763086933.314247) can0 4C8#04F5000000000000
(1763086933.314441) can0 191#909091909190
(1763086933.314725) can0 000A0003#FD98FEAF0FCD0000
(1763086933.315009) can0 000A0004#001EFF7AFFCB8E02
(1763086933.315249) can0 682#4148F80300002802
(1763086933.315443) can0 192#909090909090
(1763086933.316143) can0 1A5#C013350C000000
(1763086933.316334) can0 193#909091919091
(1763086933.317264) can0 194#909191919191
(1763086933.318264) can0 195#909191919191
(1763086933.319272) can0 291#121313131213
(1763086933.320282) can0 292#121313131313
(1763086933.321258) can0 293#131313131313
(1763086933.321846) can0 1A4#0018EB09000000
(1763086933.322080) can0 2A3#1D1E1F1D1C1E1C1C
(1763086933.322276) can0 294#131413141313
(1763086933.323278) can0 295#131414141413
(1763086933.324602) can0 000A0003#FD87FEAE0FA10000
(1763086933.324873) can0 000A0004#001AFF7AFFCA8E02
(1763086933.325097) can0 1A2#0016720D000000
(1763086933.325320) can0 2A1#2927252321222527
(1763086933.325437) can0 701#05
(1763086933.325703) can0 382#FA090101DC090000
(1763086933.325945) can0 482#B705140008360001
(1763086933.334589) can0 000A0003#FD89FEA90F8C0000
(1763086933.334876) can0 000A0004#0012FF7DFFC98E02
(1763086933.336405) can0 281#AE05000019000000
(1763086933.341862) can0 181#D10300207F000009
(1763086933.343867) can0 186#790F4C1D090B0000
(1763086933.344273) can0 1A3#C0133B09000000
(1763086933.344617) can0 000A0003#FD92FEC90F6B0000
(1763086933.344883) can0 000A0004#0007FF7CFFC98E02
(1763086933.346880) can0 701#05
(1763086933.347330) can0 482#9205110008360001
(1763086933.347667) can0 382#E80995FFDC090000
(1763086933.354598) can0 000A0003#FD9EFEFA0F450000
(1763086933.354886) can0 000A0004#0004FF83FFCB8E02
(1763086933.355515) can0 682#4148F90300005C02
(1763086933.364598) can0 000A0003#FDA0FF1A0F480000
(1763086933.364882) can0 000A0004#000CFF86FFCB8E02
(1763086933.368949) can0 701#05
(1763086933.369380) can0 482#5C050C0008360001
(1763086933.369653) can0 382#1A067FFFFF050000
(1763086933.373784) can0 1A0#000000000000
(1763086933.374590) can0 000A0003#FD9BFF490F730000
(1763086933.374876) can0 000A0004#0014FF89FFCA8E02
(1763086933.375302) can0 4C4#0582058F05430573
(1763086933.375616) can0 000A0000#0000000000000000
(1763086933.375916) can0 000A0001#0000000000000000
(1763086933.376214) can0 000A0002#0000000000000000
(1763086933.376448) can0 4C5#0586057C056F0554
(1763086933.377332) can0 4C6#0566056B05720575
(1763086933.378344) can0 4C7#058F0592059505A0
(1763086933.379373) can0 4C8#04F5000000000000
(1763086933.379969) can0 181#D10300207F000009
(1763086933.380220) can0 281#6C0500000F000000
(1763086933.383870) can0 186#0C154C1D090C0000
(1763086933.384600) can0 000A0003#FD8AFF530F8D0000
(1763086933.384884) can0 000A0004#0017FF8CFFCA8E02
(1763086933.390893) can0 382#BC06B10059070000
(1763086933.391011) can0 701#05
(1763086933.391448) can0 482#9205100008360001
(1763086933.394603) can0 000A0003#FD65FF4C0F9D0000
(1763086933.394888) can0 000A0004#0012FF8BFFC68E02
(1763086933.396466) can0 682#4148FF0300002E02
(1763086933.403914) can0 189#760439034F011751
(1763086933.404398) can0 080#
(1763086933.404687) can0 000A0003#FD5BFF430FA70000
(1763086933.404972) can0 000A0004#000EFF87FFC48E02
(1763086933.405550) can0 286#0000580200000000
(1763086933.412398) can0 701#05
(1763086933.412847) can0 482#DD05100008360001
(1763086933.413183) can0 382#8F08DCFF28080000
(1763086933.414608) can0 000A0003#FD5FFF300FB20000
(1763086933.414889) can0 000A0004#000BFF81FFC28E02
(1763086933.418237) can0 1A5#C013CC0C000000
(1763086933.418478) can0 181#D10300207F000009
(1763086933.423668) can0 281#CC05000015000000
(1763086933.423898) can0 186#CE194C1D090D0000
(1763086933.424606) can0 000A0003#FD6CFEF60FDD0000
(1763086933.424896) can0 000A0004#0004FF79FFC08E02
(1763086933.428701) can0 1A4#C013D709000000
(1763086933.428927) can0 2A3#1D1E1F1D1E1D1C1C
(1763086933.432115) can0 1A2#4018BB0D000000
(1763086933.432339) can0 2A1#2725252421222527
(1763086933.434602) can0 000A0003#FD80FEC310020000
(1763086933.434890) can0 000A0004#0001FF75FFC08E02
(1763086933.435129) can0 482#9905140008360001
(1763086933.435250) can0 701#05
(1763086933.435498) can0 382#0A0A0B00000A0000
(1763086933.440267) can0 682#4148F90300004F02
(1763086933.440498) can0 4C4#058C05930543057B
(1763086933.441479) can0 4C5#058E058305760554
(1763086933.442493) can0 4C6#0566056E0579057C
(1763086933.443504) can0 4C7#059A059A059D059C
(1763086933.444537) can0 4C8#04F5000000000000
(1763086933.444823) can0 000A0003#FDA6FE8C101E0000
(1763086933.445113) can0 000A0004#0003FF6DFFC18E02
(1763086933.445335) can0 1A3#C0132C09000000
(1763086933.454608) can0 000A0003#FDDEFE7B10040000
(1763086933.454893) can0 000A0004#000CFF70FFC58E02
(1763086933.456413) can0 382#C009ACFF000A0000
(1763086933.456533) can0 701#05
(1763086933.456849) can0 181#D10300207F000009
(1763086933.457110) can0 482#9305140008360001
(1763086933.463859) can0 186#AA214C1D090E0000
(1763086933.464607) can0 000A0003#FE0EFE850FF60000
(1763086933.464893) can0 000A0004#000FFF77FFCA8E02
(1763086933.465505) can0 188#0C00E43200000000
(1763086933.466301) can0 288#6B28565200140000
(1763086933.467230) can0 281#BA0500001D000000
(1763086933.467467) can0 388#2425262324000000
(1763086933.468247) can0 191#909091909190
(1763086933.469254) can0 192#909090909090
(1763086933.470275) can0 193#909091919091
(1763086933.471285) can0 194#909191919191
(1763086933.472257) can0 195#909191919191
