(1763087655.590718) can0 000A0003#FD63FFC1104C0000
(1763087655.588921) can0 000A0004#FFF0FFDAFF4A8E02
(1763087655.589568) can0 701#05
(1763087655.590107) can0 382#D4061F00DD060000
(1763087655.592753) can0 482#E9000E0008360001
(1763087655.598198) can0 682#494C700400008400
(1763087655.598627) can0 000A0003#FD5EFFBF10580000
(1763087655.598912) can0 000A0004#FFEFFFDBFF488E02
(1763087655.601045) can0 281#ED00000012000000
(1763087655.603670) can0 181#D10300207F000009
(1763087655.608625) can0 000A0003#FD56FFBC10680000
(1763087655.608911) can0 000A0004#FFEFFFDBFF448E02
(1763087655.611574) can0 1A3#C000D709000000
(1763087655.611690) can0 701#05
(1763087655.611944) can0 382#C90694FFDD060000
(1763087655.612313) can0 482#F1000E0008360001
(1763087655.618023) can0 1A2#C001300E000000
(1763087655.618253) can0 2A1#191B1B1A18161210
(1763087655.618633) can0 000A0003#FD4DFFBE10660000
(1763087655.618918) can0 000A0004#FFEEFFDAFF418E02
(1763087655.622179) can0 1A5#C003940D000000
(1763087655.626350) can0 186#D7114C1D090E0000
(1763087655.628643) can0 000A0003#FD48FFC010650000
(1763087655.628928) can0 000A0004#FFEFFFDAFF3F8E02
(1763087655.629640) can0 000A0000#0000000000000000
(1763087655.629940) can0 000A0001#0000000000000000
(1763087655.630238) can0 000A0002#0000000000000000
(1763087655.630568) can0 1A4#8007FC0A000000
(1763087655.630797) can0 2A3#131917181713100E
(1763087655.633235) can0 701#05
(1763087655.633699) can0 482#E4000E0008360001
(1763087655.634038) can0 382#D106B900EA060000
(1763087655.638638) can0 000A0003#FD45FFC8105C0000
(1763087655.638920) can0 000A0004#FFEEFFD8FF3B8E02
(1763087655.639156) can0 682#494C710400008A00
(1763087655.644613) can0 181#D10300207F000009
(1763087655.644929) can0 281#E400000012000000
(1763087655.645254) can0 1A0#000000000100
(1763087655.646220) can0 4C4#06960699061506E7
(1763087655.647235) can0 4C5#06F906E806B70686
(1763087655.648249) can0 4C6#06B306D006E306EE
(1763087655.648632) can0 000A0003#FD46FFD3104F0000
(1763087655.648918) can0 000A0004#FFEFFFD8FF398E02
(1763087655.649264) can0 4C7#071D06AC0637060E
(1763087655.650290) can0 4C8#062F000000000000
(1763087655.655080) can0 701#05
(1763087655.655513) can0 482#F2000E0008360001
(1763087655.655851) can0 382#EC0643FFEA060000
(1763087655.658635) can0 000A0003#FD4CFFD910590000
(1763087655.658921) can0 000A0004#FFEFFFD9FF368E02
(1763087655.666380) can0 186#E6114C1D090F0000
(1763087655.666681) can0 189#C803BA0259010F51
(1763087655.667550) can0 080#
(1763087655.668637) can0 000A0003#FD52FFE210690000
(1763087655.668923) can0 000A0004#FFEDFFD9FF338E02
(1763087655.669167) can0 286#0000580200000000
(1763087655.671075) can0 19A#000086585D7E7E7E
(1763087655.672083) can0 29A#8688808081800000
(1763087655.676020) can0 188#0C00BC3000000000
(1763087655.676753) can0 288#782CF52F00360000
(1763087655.677114) can0 701#05
(1763087655.677582) can0 482#FA000E0008360001
(1763087655.677820) can0 388#2929312324000000
(1763087655.678060) can0 382#FC060500EF060000
(1763087655.678640) can0 000A0003#FD5CFFEC10670000
(1763087655.678930) can0 000A0004#FFEDFFDAFF308E02
(1763087655.679120) can0 191#B3B3B3B3B3B3
(1763087655.679733) can0 192#B3B3B3B3B3B3
(1763087655.680101) can0 682#494C710400008900
(1763087655.680741) can0 193#B3B3B3B3B3B3
(1763087655.681715) can0 194#B3B3B3B3B3B3
(1763087655.682720) can0 181#D10300207F000009
(1763087655.682912) can0 195#B3B3B3B3B3B3
(1763087655.683737) can0 291#1A1F201F201E
(1763087655.684740) can0 292#1C20201E211E
(1763087655.685714) can0 293#1B1E201E1F1D
(1763087655.686726) can0 294#1B1F1F1E1F1D
(1763087655.687735) can0 295#1A1F1F1C1E1C
(1763087655.688070) can0 281#F300000012000000
(1763087655.688640) can0 000A0003#FD67FFF5105D0000
(1763087655.688924) can0 000A0004#FFEDFFD9FF2E8E02
(1763087655.698638) can0 000A0003#FD6DFFFB105F0000
(1763087655.698922) can0 000A0004#FFEBFFDCFF2C8E02
(1763087655.699038) can0 701#05
(1763087655.699289) can0 482#F3000E0008360001
(1763087655.699635) can0 382#ED069800EF060000
(1763087655.706344) can0 186#DE114C1D09000000
(1763087655.708642) can0 000A0003#FD73000310610000
(1763087655.708926) can0 000A0004#FFEEFFDBFF2A8E02
(1763087655.711258) can0 4C4#06A506CA06940716
(1763087655.712273) can0 4C5#071806F506C9069D
(1763087655.712660) can0 1A3#C001D709000000
(1763087655.713288) can0 4C6#06C406DC06EA06FA
(1763087655.714301) can0 4C7#073F06BA064E0629
(1763087655.715330) can0 4C8#062E000000000000
(1763087655.718198) can0 701#05
(1763087655.718642) can0 000A0003#FD78000710510000
(1763087655.718928) can0 000A0004#FFEDFFDBFF288E02
(1763087655.720910) can0 482#FC000E0008360001
(1763087655.723642) can0 181#D10300207F000009
(1763087655.723996) can0 682#494C710400008A00
(1763087655.724235) can0 382#EE06A200EC060000
(1763087655.724454) can0 1A5#8007940D000000
(1763087655.725639) can0 1A2#C0015C0E000000
(1763087655.725871) can0 2A1#191B1C1A18161210
(1763087655.728645) can0 000A0003#FD7C000910390000
(1763087655.728927) can0 000A0004#FFEDFFDCFF268E02
(1763087655.729657) can0 000A0000#0000000000000000
(1763087655.729957) can0 000A0001#0000000000000000
(1763087655.730255) can0 000A0002#0000000000000000
(1763087655.731838) can0 281#0201000012000000
(1763087655.737683) can0 1A4#0007FC0A000000
(1763087655.737914) can0 2A3#131917181714100F
(1763087655.738643) can0 000A0003#FD7E000C10310000
(1763087655.738927) can0 000A0004#FFEEFFDCFF258E02
(1763087655.742761) can0 482#08010E0008360001
(1763087655.742952) can0 701#05
(1763087655.745166) can0 1A0#000000000100
(1763087655.746338) can0 186#98124C1D09010000
(1763087655.748328) can0 382#DF06DBFFEC060000
(1763087655.748645) can0 000A0003#FD7F001010250000
(1763087655.748929) can0 000A0004#FFEEFFDCFF238E02
(1763087655.758653) can0 000A0003#FD7F001210110000
(1763087655.758935) can0 000A0004#FFEAFFDDFF218E02
(1763087655.761852) can0 181#D10300207F000009
(1763087655.764249) can0 701#05
(1763087655.764801) can0 482#FE000F0008360001
(1763087655.765056) can0 682#494C710400008F00
(1763087655.766382) can0 189#DB03C50258011051
(1763087655.766546) can0 080#
(1763087655.767704) can0 286#0000580200000000
(1763087655.767941) can0 382#3007B8FF35070000
(1763087655.768643) can0 000A0003#FD7E001310010000
(1763087655.768930) can0 000A0004#FFEBFFDEFF208E02
(1763087655.775949) can0 188#0C007F2F00000000
(1763087655.776242) can0 4C4#06A906AA06570700
(1763087655.776743) can0 288#782CF53100360000
(1763087655.777255) can0 4C5#06FE06ED06BC068A
(1763087655.777753) can0 388#2929312324000000
(1763087655.778251) can0 281#0101000013000000
(1763087655.778481) can0 4C6#06B506CD06D506EB
(1763087655.778778) can0 000A0003#FD7C000F0FF00000
(1763087655.779063) can0 000A0004#FFEBFFDFFF1D8E02
(1763087655.779255) can0 191#B3B3B3B3B3B3
(1763087655.779484) can0 4C7#072106940652064B
(1763087655.779738) can0 192#B3B3B3B3B3B3
(1763087655.780312) can0 4C8#062E000000000000
(1763087655.780718) can0 193#B3B3B3B3B3B3
(1763087655.781722) can0 194#B3B3B3B3B3B3
(1763087655.782730) can0 195#B3B3B3B3B3B3
(1763087655.783725) can0 482#03010F0008360001
(1763087655.783923) can0 291#1A1F201F201E
(1763087655.784039) can0 701#05
(1763087655.784715) can0 292#1C20201E211E
(1763087655.785721) can0 293#1B1E201E1F1D
(1763087655.786337) can0 186#05134C1D09020000
(1763087655.786732) can0 294#1B1F1F1E1F1D
(1763087655.787744) can0 295#1A1F1F1C1E1C
(1763087655.788645) can0 000A0003#FD7900050FE30000
(1763087655.788930) can0 000A0004#FFEEFFDDFF1A8E02
(1763087655.789172) can0 382#5B0784FF35070000
(1763087655.798652) can0 000A0003#FD7900020FE00000
(1763087655.798938) can0 000A0004#FFEEFFDDFF178E02
(1763087655.800215) can0 181#D10300207F000009
(1763087655.805198) can0 701#05
(1763087655.805750) can0 482#0D010F0008360001
(1763087655.806090) can0 682#494C700400009400
(1763087655.808648) can0 000A0003#FD7A00010FE10000
(1763087655.808934) can0 000A0004#FFEDFFDFFF168E02
(1763087655.811118) can0 382#860778FF5F070000
(1763087655.813760) can0 1A3#0006D709000000
(1763087655.818655) can0 000A0003#FD7C00010FE10000
(1763087655.818937) can0 000A0004#FFECFFE1FF148E02
(1763087655.821919) can0 281#1401000013000000
(1763087655.824730) can0 701#05
(1763087655.826335) can0 186#B7134C1D09030000
(1763087655.826555) can0 1A5#0007940D000000
(1763087655.827593) can0 482#12010F0008360001
(1763087655.828658) can0 000A0003#FD8000020FE20000
(1763087655.828941) can0 000A0004#FFEBFFE1FF128E02
(1763087655.829660) can0 000A0000#0000000000000000
(1763087655.829960) can0 000A0001#0000000000000000
(1763087655.830258) can0 000A0002#0000000000000000
(1763087655.832947) can0 382#A80775FFA4070000
(1763087655.833258) can0 1A2#C0005C0E000000
(1763087655.833487) can0 2A1#191B1C1A18171110
(1763087655.838314) can0 181#D10300207F000009
(1763087655.838653) can0 000A0003#FD7F00000FD70000
(1763087655.838939) can0 000A0004#FFEAFFE1FF108E02
(1763087655.841185) can0 4C4#06B50691061F06E7
(1763087655.842194) can0 4C5#06E606EA06B40677
(1763087655.843210) can0 4C6#06AD06C506D506EB
(1763087655.844222) can0 4C7#072106940652064B
(1763087655.844784) can0 1A4#0006FC0A000000
(1763087655.845016) can0 2A3#131918191714100F
(1763087655.845228) can0 1A0#000000000100
(1763087655.845472) can0 4C8#062E000000000000
(1763087655.846250) can0 701#05
(1763087655.846734) can0 482#10010F0008360001
(1763087655.847145) can0 682#494C700400009800
(1763087655.848659) can0 000A0003#FD7EFFFE0FCD0000
(1763087655.848945) can0 000A0004#FFE9FFE1FF0F8E02
(1763087655.857500) can0 382#9C078B00A4070000
(1763087655.858657) can0 000A0003#FD7CFFFA0FC30000
(1763087655.858947) can0 000A0004#FFE7FFE3FF0E8E02
(1763087655.860083) can0 19A#00007C95817C7D7C
(1763087655.861075) can0 29A#7D59837D87850000
(1763087655.865712) can0 281#1201000014000000
(1763087655.866367) can0 186#04144C1D09040000
(1763087655.866699) can0 189#F203D4025A011151
(1763087655.867503) can0 080#
(1763087655.868091) can0 701#05
(1763087655.868566) can0 482#12010F0008360001
(1763087655.868854) can0 000A0003#FD78FFF40FC20000
(1763087655.869140) can0 000A0004#FFE6FFE5FF0D8E02
(1763087655.869384) can0 286#0000580200000000
(1763087655.875986) can0 188#0C00CE3000000000
(1763087655.876507) can0 181#D10300207F000009
(1763087655.876767) can0 288#782CF53200360000
(1763087655.877778) can0 388#2929312324000000
(1763087655.878659) can0 000A0003#FD77FFF20FB80000
(1763087655.878947) can0 000A0004#FFE1FFE7FF0C8E02
(1763087655.879137) can0 191#B3B3B3B3B3B3
(1763087655.879378) can0 382#D507B600C2070000
(1763087655.879698) can0 192#B3B3B3B3B3B3
(1763087655.880724) can0 193#B3B3B3B3B3B3
(1763087655.881730) can0 194#B3B3B3B3B3B3
(1763087655.882737) can0 195#B3B3B3B3B3B3
(1763087655.883722) can0 291#1A1F201F201E
(1763087655.884722) can0 292#1C20211E211D
(1763087655.885729) can0 293#1B1E201E1F1D
(1763087655.886739) can0 294#1B1F1F1E1F1D
(1763087655.887187) can0 701#05
(1763087655.887660) can0 482#2001100008360001
(1763087655.887862) can0 295#1B1F1F1C1E1C
(1763087655.888098) can0 682#494C6F0400009C00
(1763087655.888656) can0 000A0003#FD7AFFF40F9E0000
(1763087655.888945) can0 000A0004#FFE0FFEAFF0A8E02
(1763087655.898448) can0 382#B607A9FFC2070000
(1763087655.898737) can0 000A0003#FD7EFFF20F890000
(1763087655.899023) can0 000A0004#FFDFFFEDFF098E02
(1763087655.906237) can0 4C4#06C106CA067B071A
(1763087655.906471) can0 186#C1144C1D09050000
(1763087655.907247) can0 4C5#071E06F306B5067B
(1763087655.908264) can0 4C6#06B306D806E80705
(1763087655.908666) can0 000A0003#FD83FFEA0F7C0000
(1763087655.908954) can0 000A0004#FFDCFFEFFF068E02
(1763087655.909070) can0 701#05
(1763087655.909300) can0 4C7#073A06BB064C0657
(1763087655.909545) can0 281#1B01000015000000
(1763087655.909813) can0 482#1B01100008360001
(1763087655.910299) can0 4C8#062F000000000000
(1763087655.914861) can0 181#D10300207F000009
(1763087655.915083) can0 1A3#0007D709000000
(1763087655.918657) can0 000A0003#FD89FFE70F7B0000
(1763087655.918941) can0 000A0004#FFDDFFF0FF058E02
(1763087655.920167) can0 382#21087B000B080000
(1763087655.928574) can0 682#494C6F040000A100
(1763087655.928864) can0 000A0003#FD95FFE70F870000
(1763087655.929152) can0 000A0004#FFDCFFEFFF028E02
(1763087655.929378) can0 1A5#C003940D000000
(1763087655.929678) can0 000A0000#0000000000000000
(1763087655.929978) can0 000A0001#0000000000000000
(1763087655.930275) can0 000A0002#0000000000000000
(1763087655.931111) can0 482#2A01100008360001
(1763087655.931293) can0 701#05
(1763087655.938659) can0 000A0003#FD9DFFE50F950000
(1763087655.938943) can0 000A0004#FFDAFFECFF008E02
(1763087655.940897) can0 1A2#00061D0E000000
(1763087655.941126) can0 2A1#1A1C1C1A18171110
(1763087655.942151) can0 382#0C0854000B080000
(1763087655.945169) can0 1A0#000000000100
(1763087655.946323) can0 186#1B164C1D09060000
(1763087655.948663) can0 000A0003#FD9DFFE10FA90000
(1763087655.948949) can0 000A0004#FFDBFFE7FEFC8E02
(1763087655.950103) can0 701#05
(1763087655.950555) can0 482#2D01110008360001
(1763087655.951912) can0 1A4#C001FC0A000000
(1763087655.952143) can0 2A3#131918191714100F
(1763087655.953036) can0 181#D10300207F000009
(1763087655.953285) can0 281#2F01000016000000
(1763087655.958666) can0 000A0003#FD94FFDD0FB50000
(1763087655.958953) can0 000A0004#FFDBFFE1FEFB8E02
(1763087655.963950) can0 382#740872FF91080000
(1763087655.966370) can0 189#2E0400035A011351
(1763087655.966565) can0 080#
(1763087655.967689) can0 286#0000580200000000
(1763087655.968659) can0 000A0003#FD86FFD80FC60000
(1763087655.968949) can0 000A0004#FFD8FFE0FEFA8E02
(1763087655.969650) can0 682#494C6F040000A900
(1763087655.971275) can0 4C4#06C106CA067B071A
(1763087655.972053) can0 482#2C01110008360001
(1763087655.972283) can0 4C5#071E06F306B5067B
(1763087655.972400) can0 701#05
(1763087655.973302) can0 4C6#06B306D806E80705
(1763087655.974312) can0 4C7#073A06BB064C0657
(1763087655.975344) can0 4C8#062F000000000000
(1763087655.976022) can0 188#0C00FB3000000000
(1763087655.976774) can0 288#6F2C5B3400360000
(1763087655.977784) can0 388#2929312324000000
(1763087655.978664) can0 000A0003#FD7FFFD40FD10000
(1763087655.978950) can0 000A0004#FFD2FFDCFEF98E02
(1763087655.979140) can0 191#B3B3B3B3B3B2
(1763087655.979722) can0 192#B3B3B3B3B3B3
(1763087655.980732) can0 193#B3B3B3B3B3B3
(1763087655.981736) can0 194#B3B3B3B3B3B3
(1763087655.982712) can0 195#B3B3B3B3B3B3
(1763087655.983728) can0 291#1A1F201E201E
(1763087655.984728) can0 292#1C20211E211E
(1763087655.985687) can0 382#A908270091080000
(1763087655.985881) can0 293#1B1E201E1F1D
(1763087655.986318) can0 186#7F174C1D09070000
(1763087655.986748) can0 294#1B1F1F1E1F1D
(1763087655.987725) can0 295#1A1E1F1C1E1C
(1763087655.988666) can0 000A0003#FD82FFD30FD20000
(1763087655.988956) can0 000A0004#FFD0FFDAFEF98E02
(1763087655.991132) can0 181#D10300207F000009
(1763087655.993544) can0 701#05
(1763087655.994096) can0 482#3501120008360001
(1763087655.996741) can0 281#3601000017000000
(1763087655.998665) can0 000A0003#FD87FFCD0FD60000
(1763087655.998953) can0 000A0004#FFD0FFDFFEFA8E02
(1763087656.007654) can0 382#FA0863001B090000
(1763087656.008672) can0 000A0003#FD87FFBC0FDF0000
(1763087656.008959) can0 000A0004#FFD6FFE6FEFA8E02
(1763087656.010468) can0 682#494C6F040000B300
(1763087656.015382) can0 701#05
(1763087656.015836) can0 482#3801120008360001
(1763087656.016064) can0 1A3#000C3E0A000000
(1763087656.018672) can0 000A0003#FD82FFB00FE20000
(1763087656.018958) can0 000A0004#FFDEFFF0FEFB8E02
(1763087656.026315) can0 186#03174C1D09080000
(1763087656.028671) can0 000A0003#FD79FFAE0FDB0000
(1763087656.028957) can0 000A0004#FFE3FFF7FEFB8E02
(1763087656.029462) can0 382#3A0956FF1B090000
(1763087656.029762) can0 000A0000#0000000000000000
(1763087656.030062) can0 000A0001#0000000000000000
(1763087656.030360) can0 000A0002#0000000000000000
(1763087656.030602) can0 181#D10300207F000009
(1763087656.030835) can0 1A5#000C810D000000
(1763087656.036332) can0 4C4#069D068A060206D0
(1763087656.037336) can0 4C5#06E306E706B10671
(1763087656.037452) can0 701#05
(1763087656.037913) can0 482#3801120008360001
(1763087656.038351) can0 4C6#06A506C506D006EB
(1763087656.038671) can0 000A0003#FD6CFFAE0FD60000
(1763087656.038959) can0 000A0004#FFE6FFFEFEFB8E02
(1763087656.039366) can0 4C7#071C069A06440661
(1763087656.040284) can0 281#3801000017000000
(1763087656.040528) can0 4C8#062E000000000000
(1763087656.045256) can0 1A0#000000000100
(1763087656.048514) can0 1A2#0006AA0E000000
(1763087656.048801) can0 000A0003#FD5FFFB60FD90000
(1763087656.049091) can0 000A0004#FFE20001FEF98E02
(1763087656.049325) can0 2A1#1A1C1C1A1815100F
(1763087656.051189) can0 382#FD088B00EB080000
(1763087656.054023) can0 682#494C6F040000B800
(1763087656.058673) can0 000A0003#FD56FFBC0FDE0000
(1763087656.058960) can0 000A0004#FFE00004FEF58E02
(1763087656.059200) can0 1A4#C000FC0A000000
(1763087656.059415) can0 2A3#131919191714100F
(1763087656.059531) can0 701#05
(1763087656.059824) can0 482#4101120008360001
(1763087656.066066) can0 19A#00007C7A9B7B7C7B
(1763087656.066359) can0 186#DA164C1D09090000
(1763087656.066690) can0 189#2604FB0257011351
(1763087656.067073) can0 29A#7D53817C84810000
(1763087656.067550) can0 080#
(1763087656.068139) can0 181#D10300207F000009
(1763087656.068672) can0 000A0003#FD57FFBD0FE20000
(1763087656.068960) can0 000A0004#FFE10000FEF38E02
(1763087656.069204) can0 286#0000580200000000
(1763087656.073165) can0 382#C00869FFDB080000
(1763087656.076010) can0 188#0C00DB3200000000
(1763087656.076779) can0 288#6F2C5B2D00360000
(1763087656.077761) can0 388#2929312324000000
(1763087656.078679) can0 000A0003#FD57FFBF0FE00000
(1763087656.078969) can0 000A0004#FFE4FFFEFEEF8E02
(1763087656.079160) can0 191#B3B3B3B3B3B2
(1763087656.079274) can0 701#05
(1763087656.079712) can0 192#B3B3B3B3B3B3
(1763087656.080722) can0 193#B3B3B3B3B3B3
(1763087656.081333) can0 482#4D01120008360001
(1763087656.081714) can0 194#B3B3B3B3B3B3
(1763087656.082720) can0 195#B3B3B3B3B3B3
(1763087656.083733) can0 291#1A1F201E201E
(1763087656.083977) can0 281#5101000017000000
(1763087656.084734) can0 292#1C20211E211E
(1763087656.085743) can0 293#1B1E201E1F1D
(1763087656.086707) can0 294#1B1F1F1E1F1D
(1763087656.087715) can0 295#1A1E1F1C1E1C
(1763087656.088677) can0 000A0003#FD52FFC10FCD0000
(1763087656.088965) can0 000A0004#FFE6FFF8FEEC8E02
(1763087656.094968) can0 682#494C6F040000BC00
(1763087656.095210) can0 382#CB080200DB080000
(1763087656.098677) can0 000A0003#FD49FFC30FCA0000
(1763087656.098963) can0 000A0004#FFE7FFF2FEE98E02
(1763087656.099995) can0 701#05
(1763087656.100545) can0 482#4901120008360001
(1763087656.101371) can0 4C4#069D068A060206D0
(1763087656.102377) can0 4C5#06E306E706B10671
(1763087656.103393) can0 4C6#06A506C506D006F5
(1763087656.104406) can0 4C7#072D06B706470661
(1763087656.105436) can0 4C8#062E000000000000
(1763087656.106302) can0 186#691C4C1D090A0000
(1763087656.108675) can0 000A0003#FD3FFFC30FD90000
(1763087656.108962) can0 000A0004#FFE7FFF1FEE98E02
(1763087656.111390) can0 181#D10300207F000009
(1763087656.116696) can0 382#FF0A7400020B0000
(1763087656.117022) can0 1A3#C003EB09000000
(1763087656.118678) can0 000A0003#FD30FFC40FF00000
(1763087656.118961) can0 000A0004#FFE4FFEDFEE68E02
(1763087656.121868) can0 701#05
(1763087656.122292) can0 482#5801160008360001
(1763087656.127747) can0 281#620100001C000000
(1763087656.128674) can0 000A0003#FD27FFC80FED0000
(1763087656.128958) can0 000A0004#FFE3FFEBFEE68E02
(1763087656.129687) can0 000A0000#0000000000000000
(1763087656.129985) can0 000A0001#0000000000000000
(1763087656.130283) can0 000A0002#0000000000000000
(1763087656.133010) can0 1A5#C007810D000000
(1763087656.135830) can0 682#494C6D040000D100
(1763087656.136174) can0 382#F60AB8FF020B0000
(1763087656.138677) can0 000A0003#FD22FFCA0FEA0000
(1763087656.138963) can0 000A0004#FFE4FFEAFEE68E02
(1763087656.143892) can0 701#05
(1763087656.144343) can0 482#7801160008360001
(1763087656.145254) can0 1A0#000000000100
(1763087656.146300) can0 186#F21D4C1D090B0000
(1763087656.148687) can0 000A0003#FCFEFFD20FE90000
(1763087656.148973) can0 000A0004#FFE3FFE6FEE78E02
(1763087656.149479) can0 181#D10300207F000009
(1763087656.156139) can0 1A2#C000AA0E000000
(1763087656.156370) can0 2A1#1A1A191A1815100F
(1763087656.157647) can0 382#970B0C009B0B0000
(1763087656.158679) can0 000A0003#FCDDFFD90FE80000
(1763087656.158965) can0 000A0004#FFE8FFE6FEE98E02
(1763087656.166150) can0 1A4#000CDA0A000000
(1763087656.166377) can0 189#9A04520358011851
(1763087656.166606) can0 2A3#131919191714100F
(1763087656.166713) can0 080#
(1763087656.166944) can0 4C4#06B506D4066C0706
(1763087656.167375) can0 4C5#070B06F406C60690
(1763087656.167702) can0 286#0000580200000000
(1763087656.168391) can0 4C6#06BA06DA06EF0705
(1763087656.168683) can0 000A0003#FCB9FFDB0FDC0000
(1763087656.168968) can0 000A0004#FFE7FFE6FEE98E02
(1763087656.169208) can0 482#5C01170008360001
(1763087656.169441) can0 4C7#073C06D4064E065E
(1763087656.169557) can0 701#05
(1763087656.170425) can0 4C8#062E000000000000
(1763087656.171310) can0 281#5D0100001E000000
(1763087656.176015) can0 188#0C00713100000000
(1763087656.176758) can0 288#652C0A3300360000
(1763087656.176995) can0 682#494C6C040000E000
(1763087656.177451) can0 382#CD0B2BFF9B0B0000
(1763087656.177768) can0 388#2929312324000000
(1763087656.178680) can0 000A0003#FCA3FFDD0FD40000
(1763087656.178964) can0 000A0004#FFE7FFE3FEE98E02
(1763087656.179154) can0 191#B2B2B2B2B3B2
(1763087656.179735) can0 192#B2B2B2B2B2B2
(1763087656.180739) can0 193#B2B3B3B3B2B2
(1763087656.181718) can0 194#B2B3B2B2B2B2
(1763087656.182725) can0 195#B2B2B3B3B2B3
(1763087656.183745) can0 291#1A1F201F201F
(1763087656.184747) can0 292#1C20201E211E
(1763087656.185722) can0 293#1B1E201E1F1D
(1763087656.186298) can0 186#9D1C4C1D090C0000
(1763087656.186730) can0 294#1B1F1F1E1F1D
(1763087656.187741) can0 295#1B1E1F1C1E1C
(1763087656.188685) can0 000A0003#FC8DFFD90FD40000
(1763087656.188970) can0 000A0004#FFE9FFE1FEE98E02
(1763087656.190070) can0 701#05
(1763087656.190520) can0 181#D10300207F000009
(1763087656.190854) can0 482#5F01160008360001
(1763087656.198583) can0 382#010B59FF170B0000
(1763087656.198870) can0 000A0003#FC79FFD50FD40000
(1763087656.199156) can0 000A0004#FFEBFFDFFEE78E02
(1763087656.208693) can0 000A0003#FC70FFCA0FDD0000
(1763087656.208974) can0 000A0004#FFEDFFDEFEE68E02
(1763087656.212138) can0 701#05
(1763087656.212600) can0 482#7801160008360001
(1763087656.214979) can0 281#780100001D000000
(1763087656.217801) can0 682#494C6C040000F200
(1763087656.218101) can0 1A3#C001120A000000
(1763087656.218690) can0 000A0003#FC6AFFC20FE30000
(1763087656.218977) can0 000A0004#FFEDFFDFFEE58E02
(1763087656.220559) can0 382#050B3DFF170B0000
(1763087656.226294) can0 186#8B1C4C1D090D0000
(1763087656.228687) can0 000A0003#FC74FFB90FCF0000
(1763087656.228972) can0 000A0004#FFEEFFE0FEE58E02
(1763087656.229215) can0 181#D10300207F000009
(1763087656.229697) can0 000A0000#0000000000000000
(1763087656.229997) can0 000A0001#0000000000000000
(1763087656.230294) can0 000A0002#0000000000000000
(1763087656.231386) can0 4C4#06B106D7067A0719
(1763087656.232401) can0 4C5#072306FA06CE069A
(1763087656.233411) can0 4C6#06C406E106F4070A
(1763087656.234094) can0 482#6E01160008360001
(1763087656.234279) can0 701#05
(1763087656.234509) can0 4C7#073506C6064B0634
(1763087656.235185) can0 1A5#000C810D000000
(1763087656.235457) can0 4C8#062E000000000000
(1763087656.238687) can0 000A0003#FC80FFB00FBB0000
(1763087656.238973) can0 000A0004#FFEEFFE5FEE38E02
(1763087656.239531) can0 382#010B3B00100B0000
(1763087656.245261) can0 1A0#000000000100
(1763087656.248686) can0 000A0003#FC87FFA80FC70000
(1763087656.248970) can0 000A0004#FFEDFFE5FEE28E02
(1763087656.255580) can0 701#05
(1763087656.256130) can0 482#7B01160008360001
(1763087656.256499) can0 281#7B0100001D000000
(1763087656.258685) can0 000A0003#FC8FFF9D0FD90000
(1763087656.258975) can0 000A0004#FFEDFFE8FEE08E02
(1763087656.261487) can0 682#494C6C040000F600
(1763087656.261726) can0 382#F30AF2FF100B0000
(1763087656.263763) can0 1A2#0007CD0E000000
(1763087656.263993) can0 2A1#1A1A19181715110F
(1763087656.266326) can0 186#AE1D4C1D090E0000
(1763087656.266701) can0 189#A204560358011951
(1763087656.267186) can0 181#D10300207F000009
(1763087656.267567) can0 080#
(1763087656.268687) can0 000A0003#FC8DFF8C0FED0000
(1763087656.268977) can0 000A0004#FFEFFFECFEDF8E02
(1763087656.269222) can0 286#0000580200000000
(1763087656.272064) can0 19A#00007D79917C7C7C
(1763087656.273065) can0 29A#7D54897D89800000
(1763087656.273288) can0 1A4#000CB30A000000
(1763087656.273517) can0 2A3#131919191714100E
(1763087656.277425) can0 701#05
(1763087656.277869) can0 482#8B01170008360001
(1763087656.278692) can0 000A0003#FC86FF7C10010000
(1763087656.278977) can0 000A0004#FFEFFFEEFEDD8E02
(1763087656.280704) can0 382#6F0B5E00800B0000
(1763087656.285052) can0 188#0C007E3100000000
(1763087656.285751) can0 288#652C122D00360000
(1763087656.286761) can0 388#2929312324000000
(1763087656.287740) can0 191#B2B2B2B2B3B2
(1763087656.288699) can0 000A0003#FC7DFF7C10020000
(1763087656.288987) can0 000A0004#FFEFFFF1FEDB8E02
(1763087656.289181) can0 192#B2B2B2B2B2B2
(1763087656.289720) can0 193#B2B3B3B3B2B2
(1763087656.290731) can0 194#B2B3B2B2B2B2
(1763087656.291741) can0 195#B2B2B3B3B2B3
(1763087656.292754) can0 291#1A1F201F201F
(1763087656.293725) can0 292#1C20201E211E
(1763087656.294729) can0 293#1B1E201E1F1D
(1763087656.295743) can0 294#1B1F1F1E1F1D
(1763087656.296415) can0 4C4#06B106D7067A0719
(1763087656.296749) can0 295#1B1E1F1C1E1C
(1763087656.297431) can0 4C5#072306FA06CE069A
(1763087656.298441) can0 4C6#06C406E106F4070A
(1763087656.298729) can0 000A0003#FC6FFF7B10040000
(1763087656.299017) can0 000A0004#FFEFFFEEFEDA8E02
(1763087656.299450) can0 4C7#073506C6064B0634
(1763087656.299566) can0 701#05
(1763087656.299830) can0 281#970100001E000000
(1763087656.300146) can0 482#9701170008360001
(1763087656.300480) can0 4C8#062E000000000000
(1763087656.302440) can0 682#494C6B0400000501
(1763087656.302769) can0 382#9B0B4CFF800B0000
(1763087656.305070) can0 181#D10300207F000009
(1763087656.306288) can0 186#981E4C1D090F0000
(1763087656.308696) can0 000A0003#FC56FF7B10050000
(1763087656.308982) can0 000A0004#FFEEFFEEFED88E02
(1763087656.318700) can0 000A0003#FC38FF7C10060000
(1763087656.318986) can0 000A0004#FFEFFFECFED68E02
(1763087656.319214) can0 1A3#C008120A000000
(1763087656.321081) can0 701#05
(1763087656.321561) can0 482#8401180008360001
(1763087656.321982) can0 382#B90B7F00DB0B0000
(1763087656.328696) can0 000A0003#FC30FF8110010000
(1763087656.328978) can0 000A0004#FFF0FFEDFED68E02
(1763087656.329708) can0 000A0000#0000000000000000
(1763087656.330008) can0 000A0001#0000000000000000
(1763087656.330306) can0 000A0002#0000000000000000
(1763087656.337340) can0 1A5#C001810D000000
(1763087656.338696) can0 000A0003#FC25FF890FF90000
(1763087656.338981) can0 000A0004#FFF4FFEEFED48E02
(1763087656.342911) can0 701#05
(1763087656.343376) can0 482#9D01180008360001
(1763087656.343950) can0 682#494C6B0400001401
(1763087656.345262) can0 1A0#000000000100
(1763087656.345993) can0 382#7B0BD9FFDB0B0000
(1763087656.346331) can0 181#D10300207F000009
(1763087656.346567) can0 186#741E4C1D09000000
(1763087656.346813) can0 281#A00100001F000000
(1763087656.348702) can0 000A0003#FC16FF92102D0000
(1763087656.348986) can0 000A0004#FFF7FFF1FED28E02
(1763087656.358695) can0 000A0003#FC0AFF97104F0000
(1763087656.358978) can0 000A0004#FFFAFFF0FED08E02
(1763087656.361458) can0 4C4#06A106AE064A06F2
(1763087656.362474) can0 4C5#06FE06EF06B90682
(1763087656.363485) can0 4C6#06AF06C806DD06EB
(1763087656.364499) can0 4C7#072606A606440615
(1763087656.365122) can0 482#AA01180008360001
(1763087656.365300) can0 701#05
(1763087656.365544) can0 4C8#062E000000000000
(1763087656.366334) can0 189#AF04630358011951
(1763087656.366570) can0 080#
(1763087656.367720) can0 286#0000580200000000
(1763087656.368058) can0 382#EF0B8700CD0B0000
(1763087656.368695) can0 000A0003#FBFCFFA0106A0000
(1763087656.368979) can0 000A0004#FFFCFFF2FED08E02
(1763087656.371388) can0 1A2#C001CD0E000000
(1763087656.371617) can0 2A1#1A1A19181715110F
(1763087656.376010) can0 188#0C00BC3000000000
(1763087656.376775) can0 288#4A2C0A4000360000
(1763087656.377783) can0 388#2929312324000000
(1763087656.378704) can0 000A0003#FBF0FFA8107B0000
(1763087656.378989) can0 000A0004#FFFBFFF2FECE8E02
(1763087656.379186) can0 191#B1B1B2B1B2B1
(1763087656.379723) can0 192#B1B1B2B2B1B1
(1763087656.380381) can0 1A4#000EB30A000000
(1763087656.380615) can0 2A3#131918181614100E
(1763087656.380805) can0 193#B1B2B2B2B2B1
(1763087656.381735) can0 194#B1B2B2B2B2B2
(1763087656.382739) can0 195#B1B1B2B2B1B2
(1763087656.383726) can0 291#1A1F201F201E
(1763087656.384213) can0 181#D10300207F000009
(1763087656.384643) can0 682#494C6B0400001F01
(1763087656.384838) can0 292#1C20211E211E
(1763087656.385732) can0 293#1B1E201E1F1D
(1763087656.386280) can0 186#7F1E4C1D09010000
(1763087656.386742) can0 294#1B1F1F1E1F1D
(1763087656.386858) can0 701#05
(1763087656.387305) can0 482#9B01180008360001
(1763087656.387753) can0 295#1A1E1F1C1E1C
(1763087656.388700) can0 000A0003#FBEAFFA510700000
(1763087656.388984) can0 000A0004#FFFCFFF2FECE8E02
(1763087656.389782) can0 382#BC0B8DFFCD0B0000
(1763087656.390029) can0 281#9B0100001E000000
(1763087656.398710) can0 000A0003#FBE7FFA010690000
(1763087656.398995) can0 000A0004#FFFEFFF5FECE8E02
(1763087656.408437) can0 701#05
(1763087656.408724) can0 000A0003#FBDDFF9610690000
(1763087656.409010) can0 000A0004#0002FFF3FECC8E02
(1763087656.409251) can0 482#B601180008360001
(1763087656.409551) can0 382#E70BF7FFD20B0000
(1763087656.418710) can0 000A0003#FBCFFF8B106E0000
(1763087656.418995) can0 000A0004#0003FFF3FECB8E02
(1763087656.420282) can0 1A3#C003120A000000
(1763087656.422560) can0 181#D10300207F000009
(1763087656.425273) can0 682#494C6B0400002801
(1763087656.426281) can0 186#1D1F4C1D09020000
(1763087656.426513) can0 4C4#06A106AE064A06F2
(1763087656.427514) can0 4C5#06FE06EF06B90682
(1763087656.427986) can0 701#05
(1763087656.428524) can0 4C6#06AF06C806DD06EB
(1763087656.428810) can0 000A0003#FBC4FF7F10720000
(1763087656.429099) can0 000A0004#0001FFF4FECA8E02
(1763087656.429539) can0 4C7#072606A606440615
(1763087656.429838) can0 000A0000#0000000000000000
(1763087656.430138) can0 000A0001#0000000000000000
(1763087656.430437) can0 000A0002#0000000000000000
(1763087656.430679) can0 482#C801180008360001
(1763087656.430922) can0 4C8#062E000000000000
(1763087656.433245) can0 281#C50100001F000000
(1763087656.433664) can0 382#040CD9FF0F0C0000
(1763087656.438708) can0 000A0003#FBBDFF7810730000
(1763087656.438989) can0 000A0004#0001FFF3FEC88E02
(1763087656.439499) can0 1A5#000C720D000000
(1763087656.445265) can0 1A0#000000000100
(1763087656.448709) can0 000A0003#FBB7FF6B105F0000
(1763087656.448998) can0 000A0004#0000FFF3FEC68E02
(1763087656.452117) can0 701#05
(1763087656.452662) can0 482#BB01180008360001
(1763087656.455516) can0 382#FE0B4F000F0C0000
(1763087656.458708) can0 000A0003#FBB2FF5E10410000
(1763087656.458992) can0 000A0004#0001FFF3FEC38E02
(1763087656.460648) can0 181#D10300207F000009
(1763087656.461087) can0 19A#00007E5C5C7D7D85
(1763087656.462065) can0 29A#8695807D81810000
(1763087656.466212) can0 682#494C6A0400003201
(1763087656.466447) can0 186#21204C1D09030000
(1763087656.466718) can0 189#D004780358011B51
(1763087656.467554) can0 080#
(1763087656.468706) can0 000A0003#FBB0FF54102E0000
(1763087656.468994) can0 000A0004#0003FFF3FEC28E02
(1763087656.469238) can0 286#0000580200000000
(1763087656.473951) can0 701#05
(1763087656.474414) can0 482#C801190008360001
(1763087656.476044) can0 188#0C00D73000000000
(1763087656.476773) can0 288#4A2C0A4100360000
(1763087656.477006) can0 382#5C0C4C00730C0000
(1763087656.477355) can0 281#C801000020000000
(1763087656.477770) can0 388#2929312324000000
(1763087656.478710) can0 000A0003#FBAFFF4210130000
(1763087656.478999) can0 000A0004#0003FFF1FEC18E02
(1763087656.479218) can0 191#B1B1B2B1B2B1
(1763087656.479413) can0 1A2#000CB90E000000
(1763087656.479641) can0 2A1#1A1A1A1A1815110F
(1763087656.479834) can0 192#B1B1B2B2B1B1
(1763087656.480734) can0 193#B1B2B2B2B2B1
(1763087656.481740) can0 194#B1B2B2B2B2B2
(1763087656.482716) can0 195#B1B1B2B2B1B2
(1763087656.483733) can0 291#1A1F201F201E
(1763087656.484735) can0 292#1C20211E211E
(1763087656.485723) can0 293#1B1E201E1F1D
(1763087656.486735) can0 294#1B1F1F1E1F1D
(1763087656.487501) can0 1A4#C009B30A000000
(1763087656.487734) can0 2A3#121918181614100E
(1763087656.487931) can0 295#1A1E1F1C1E1C
(1763087656.488711) can0 000A0003#FBA9FF390FF60000
(1763087656.488999) can0 000A0004#FFFEFFF4FEBF8E02
(1763087656.491531) can0 4C4#06B506A7064706F5
(1763087656.492550) can0 4C5#06F306E706B40682
(1763087656.493560) can0 4C6#06AD06CA06D806F3
(1763087656.494572) can0 4C7#0728069D0647064B
(1763087656.495607) can0 4C8#062E000000000000
(1763087656.496139) can0 482#DD01190008360001
(1763087656.496320) can0 701#05
(1763087656.496590) can0 382#660C35FF730C0000
(1763087656.498712) can0 000A0003#FBA1FF350FD90000
(1763087656.499002) can0 000A0004#FFF7FFF4FEBE8E02
(1763087656.501600) can0 181#D10300207F000009
(1763087656.506279) can0 186#32204C1D09040000
(1763087656.507285) can0 682#494C6A0400003D01
(1763087656.508708) can0 000A0003#FB9DFF300FCD0000
(1763087656.508994) can0 000A0004#FFF4FFF3FEBD8E02
(1763087656.515615) can0 482#D801190008360001
(1763087656.515685) can0 701#05
(1763087656.518767) can0 000A0003#FB97FF280FC40000
(1763087656.519013) can0 000A0004#FFF4FFEFFEBB8E02
(1763087656.520817) can0 382#260C88FF7A0C0000
(1763087656.521049) can0 281#D001000020000000
(1763087656.521359) can0 1A3#C008120A000000
(1763087656.528714) can0 000A0003#FB92FF270FCF0000
(1763087656.528998) can0 000A0004#FFF5FFEAFEB98E02
(1763087656.529726) can0 000A0000#0000000000000000
(1763087656.530025) can0 000A0001#0000000000000000
(1763087656.530322) can0 000A0002#0000000000000000
(1763087656.538717) can0 000A0003#FB90FF290FE20000
(1763087656.539000) can0 000A0004#FFF9FFE3FEB88E02
(1763087656.539784) can0 181#D10300207F000009
(1763087656.539904) can0 701#05
(1763087656.540149) can0 482#DF01190008360001
(1763087656.541677) can0 1A5#C003290D000000
(1763087656.542750) can0 382#410C61FF7A0C0000
(1763087656.545262) can0 1A0#000000000100
(1763087656.546271) can0 186#4D204C1D09050000
(1763087656.548227) can0 682#494C690400004401
(1763087656.548714) can0 000A0003#FB88FF2F0FEF0000
(1763087656.549001) can0 000A0004#FFFAFFDEFEB78E02
(1763087656.556578) can0 4C4#069D06A7064006F8
(1763087656.557589) can0 4C5#06FB06ED06B1067A
(1763087656.558604) can0 4C6#06AF06CF06DA06F8
(1763087656.558896) can0 000A0003#FB73FF4110030000
(1763087656.559202) can0 000A0004#FFF7FFD8FEB48E02
(1763087656.559615) can0 4C7#072D06AE0644065E
(1763087656.560645) can0 4C8#062E000000000000
(1763087656.561645) can0 482#F701190008360001
(1763087656.561829) can0 701#05
(1763087656.564261) can0 281#F701000020000000
(1763087656.564685) can0 382#6D0CD9FF840C0000
(1763087656.566317) can0 189#D8047E0358011B51
(1763087656.566556) can0 080#
(1763087656.567705) can0 286#0000580200000000
(1763087656.568715) can0 000A0003#FB63FF4E101F0000
(1763087656.569003) can0 000A0004#FFF2FFCFFEB28E02
(1763087656.576004) can0 188#0C00B73000000000
(1763087656.576794) can0 288#3E2CEC4500360000
(1763087656.577766) can0 388#2929312324000000
(1763087656.578239) can0 181#D10300207F000009
(1763087656.578717) can0 000A0003#FB5CFF5510340000
(1763087656.579001) can0 000A0004#FFF0FFCBFEB18E02
(1763087656.579207) can0 191#B1B1B1B1B1B1
(1763087656.579737) can0 192#B1B1B1B1B1B1
(1763087656.580740) can0 193#B1B1B1B1B1B1
(1763087656.581722) can0 194#B1B1B1B1B1B1
(1763087656.582725) can0 195#B1B1B1B1B1B1
(1763087656.583138) can0 701#05
(1763087656.583693) can0 482#EF01190008360001
(1763087656.583895) can0 291#1A1F201F201F
(1763087656.584131) can0 382#B50CE600840C0000
(1763087656.584741) can0 292#1C20211E211E
(1763087656.585749) can0 293#1B1E201E1F1D
(1763087656.586267) can0 186#26214C1D09060000
(1763087656.586631) can0 1A2#000FB90E000000
(1763087656.586829) can0 294#1B1F1F1E1F1D
(1763087656.587057) can0 2A1#1A1A1A1A18151110
(1763087656.587736) can0 295#1B1E1F1C1E1C
(1763087656.588723) can0 000A0003#FB57FF5410590000
(1763087656.589007) can0 000A0004#FFECFFC5FEB08E02
(1763087656.589244) can0 682#494C690400005601
(1763087656.594600) can0 1A4#C007B30A000000
(1763087656.594833) can0 2A3#121918181614100E
(1763087656.598727) can0 000A0003#FB5BFF40108B0000
(1763087656.599015) can0 000A0004#FFECFFC3FEB08E02
(1763087656.602663) can0 701#05
(1763087656.605314) can0 482#F6011A0008360001
(1763087656.608014) can0 382#980C4900D90C0000
(1763087656.608260) can0 281#FA01000021000000
(1763087656.608718) can0 000A0003#FB5CFF2E10CF0000
(1763087656.609004) can0 000A0004#FFF2FFC5FEAF8E02
(1763087656.616245) can0 181#D10300207F000009
(1763087656.618720) can0 000A0003#FB58FF2211010000
(1763087656.619008) can0 000A0004#FFF9FFCDFEAF8E02
(1763087656.621604) can0 4C4#069D06A7064006F8
(1763087656.622439) can0 1A3#C003600A000000
(1763087656.622671) can0 4C5#06FB06ED06B1067A
(1763087656.623630) can0 4C6#06AF06CF06DA06F8
(1763087656.624176) can0 701#05
(1763087656.624638) can0 4C7#072D06AE0644065E
(1763087656.624878) can0 482#11021A0008360001
(1763087656.625668) can0 4C8#062E000000000000
(1763087656.626268) can0 186#15234C1D09070000
(1763087656.628721) can0 000A0003#FB50FF1711420000
(1763087656.629007) can0 000A0004#0001FFCEFEAF8E02
(1763087656.629735) can0 000A0000#0000000000000000
(1763087656.630035) can0 000A0001#0000000000000000
(1763087656.630333) can0 000A0002#0000000000000000
(1763087656.630570) can0 682#494C690400005E01
(1763087656.630870) can0 382#DE0C4300990D0000
(1763087656.638720) can0 000A0003#FB42FF1611730000
(1763087656.639006) can0 000A0004#0002FFD3FEAD8E02
(1763087656.643864) can0 1A5#0007D10C000000
(1763087656.645174) can0 1A0#000000000100
(1763087656.646001) can0 701#05
(1763087656.646382) can0 482#11021B0008360001
(1763087656.648727) can0 000A0003#FB35FF19118B0000
(1763087656.649010) can0 000A0004#FFF9FFC9FEAC8E02
(1763087656.651802) can0 382#EF0DA500990D0000
(1763087656.652077) can0 281#1602000023000000
(1763087656.657183) can0 181#D10300207F000009
(1763087656.658726) can0 000A0003#FB2DFF1E11930000
(1763087656.659009) can0 000A0004#FFF5FFC3FEAB8E02
(1763087656.666293) can0 186#F2244C1D09080000
(1763087656.666712) can0 189#2805B80358011F51
(1763087656.667083) can0 19A#000082765B7C847C
(1763087656.667571) can0 080#
(1763087656.668087) can0 29A#8279867D80860000
(1763087656.668327) can0 482#14021B0008360001
(1763087656.668511) can0 701#05
(1763087656.668795) can0 000A0003#FB26FF1E11900000
(1763087656.669077) can0 000A0004#FFF4FFB9FEA98E02
(1763087656.669321) can0 286#0000580200000000
(1763087656.671053) can0 682#494C670400007701
(1763087656.673525) can0 382#7C0E15FF510E0000
(1763087656.676001) can0 188#0C001F3100000000
(1763087656.676922) can0 288#3E2CEC4A00360000
(1763087656.677772) can0 388#2929312324000000
(1763087656.678722) can0 000A0003#FB27FF0D116E0000
(1763087656.679010) can0 000A0004#FFFFFFB1FEA98E02
(1763087656.679206) can0 191#B1B1B1B1B1B1
(1763087656.679744) can0 192#B1B1B1B1B1B1
(1763087656.680749) can0 193#B1B1B1B1B1B1
(1763087656.681711) can0 194#B1B1B1B1B1B1
(1763087656.682716) can0 195#B1B1B1B1B1B1
(1763087656.683734) can0 291#1A1F201F201F
(1763087656.684749) can0 292#1C20211E211E
(1763087656.685724) can0 293#1B1E201E1F1D
(1763087656.686603) can0 4C4#06A906CA06620706
(1763087656.686801) can0 294#1B1F1F1E1F1D
(1763087656.687614) can0 4C5#071006F706C6068D
(1763087656.687811) can0 295#1B1E1F1C1E1C
(1763087656.688631) can0 4C6#06B506D506EC0702
(1763087656.688917) can0 000A0003#FB29FF0211580000
(1763087656.689203) can0 000A0004#0004FFAEFEA98E02
(1763087656.689645) can0 4C7#073206C306400647
(1763087656.689761) can0 701#05
(1763087656.690160) can0 482#2C021D0008360001
(1763087656.690672) can0 4C8#062E000000000000
(1763087656.694272) can0 1A2#000EB90E000000
(1763087656.694498) can0 2A1#1A1C1A1A18151110
(1763087656.695387) can0 181#D10300207F000009
(1763087656.695705) can0 281#2A02000025000000
(1763087656.695942) can0 382#860E39FF510E0000
(1763087656.698728) can0 000A0003#FB40FF0C11360000
(1763087656.699016) can0 000A0004#0005FFAFFEA98E02
(1763087656.701706) can0 1A4#8007600A000000
(1763087656.701938) can0 2A3#121918181614100D
(1763087656.706254) can0 186#D6264C1D09090000
(1763087656.708729) can0 000A0003#FB4FFF14111D0000
(1763087656.709014) can0 000A0004#0001FFB5FEAA8E02
(1763087656.709130) can0 701#05
(1763087656.709486) can0 482#32021D0008360001
(1763087656.714696) can0 682#494C660400009101
(1763087656.717556) can0 382#470F2D000D0F0000
(1763087656.718724) can0 000A0003#FB50FF1911130000
(1763087656.719007) can0 000A0004#FFFAFFBDFEA98E02
(1763087656.723519) can0 1A3#000F600A000000
(1763087656.728734) can0 000A0003#FB50FF1C110D0000
(1763087656.729017) can0 000A0004#FFF6FFC5FEA98E02
(1763087656.729751) can0 000A0000#0000000000000000
(1763087656.730051) can0 000A0001#0000000000000000
(1763087656.730349) can0 000A0002#0000000000000000
(1763087656.730531) can0 701#05
(1763087656.731088) can0 482#2C021E0008360001
(1763087656.736315) can0 181#D10300207F000009
(1763087656.738736) can0 000A0003#FB62FF2411000000
(1763087656.739022) can0 000A0004#FFF2FFCFFEAA8E02
(1763087656.741889) can0 382#FD0E45FF0D0F0000
(1763087656.742135) can0 281#3602000027000000
(1763087656.745177) can0 1A0#000000000100
(1763087656.746038) can0 1A5#0006120C000000
(1763087656.746276) can0 186#7C274C1D090A0000
(1763087656.748734) can0 000A0003#FB6EFF2B10F00000
(1763087656.749018) can0 000A0004#FFF4FFD7FEA88E02
(1763087656.751598) can0 4C4#06A906CA06620706
(1763087656.752453) can0 701#05
(1763087656.752683) can0 4C5#071006F706C6068D
(1763087656.752926) can0 482#38021F0008360001
(1763087656.753626) can0 4C6#06B506D506EC0702
(1763087656.754640) can0 4C7#073206C306400647
(1763087656.755669) can0 4C8#062E000000000000
(1763087656.758177) can0 682#494C65040000A901
(1763087656.758737) can0 000A0003#FB6FFF3110D50000
(1763087656.759021) can0 000A0004#FFF4FFD8FEA68E02
(1763087656.763604) can0 382#4F0FAD004D0F0000
(1763087656.766294) can0 189#6005E00359012251
(1763087656.766569) can0 080#
(1763087656.767724) can0 286#0000580200000000
(1763087656.768726) can0 000A0003#FB70FF3510C40000
(1763087656.769015) can0 000A0004#FFF4FFD7FEA58E02
(1763087656.774544) can0 482#52021F0008360001
(1763087656.774661) can0 701#05
(1763087656.775008) can0 181#D10300207F000009
(1763087656.776018) can0 188#0C006A3000000000
(1763087656.776774) can0 288#222C345100360000
(1763087656.777781) can0 388#2929312324000000
(1763087656.778738) can0 000A0003#FB62FF3310800000
(1763087656.779024) can0 000A0004#FFF8FFD6FEA18E02
(1763087656.779218) can0 191#B0B0B0B0B0B0
(1763087656.779752) can0 192#B0B0B0B0B0B0
(1763087656.780724) can0 193#B0B0B0B0B0B0
(1763087656.781734) can0 194#B0B0B0B0B0B0
(1763087656.782738) can0 195#B0B0B0B0B0B0
(1763087656.783755) can0 291#1A1F201F201E
(1763087656.784728) can0 292#1C20211F211E
(1763087656.785681) can0 281#5502000027000000
(1763087656.785875) can0 293#1B1E201E1F1D
(1763087656.786246) can0 186#7B284C1D090B0000
(1763087656.786743) can0 294#1B1F1F1E1F1D
(1763087656.787751) can0 295#1B1E1F1C1E1C
(1763087656.788314) can0 382#3F0F91FF4D0F0000
(1763087656.788736) can0 000A0003#FB59FF34103C0000
(1763087656.789022) can0 000A0004#FFF9FFD8FE9E8E02
(1763087656.793318) can0 701#05
(1763087656.793768) can0 482#5402200008360001
(1763087656.798740) can0 000A0003#FB54FF3A100E0000
(1763087656.799021) can0 000A0004#FFFAFFD4FE9D8E02
(1763087656.799259) can0 682#494C65040000C101
(1763087656.801911) can0 1A2#0007B90E000000
(1763087656.802143) can0 2A1#1A1C1A1A18161110
(1763087656.808749) can0 000A0003#FB4BFF420FCB0000
(1763087656.809033) can0 000A0004#FFFEFFD1FE9C8E02
(1763087656.809257) can0 1A4#4004600A000000
(1763087656.809487) can0 2A3#121819191614100D
(1763087656.810244) can0 382#F60F0601B00F0000
(1763087656.812772) can0 181#D10300207F000009
(1763087656.815487) can0 482#5A02200008360001
(1763087656.815606) can0 701#05
(1763087656.816630) can0 4C4#06A906B5065B06F8
(1763087656.817635) can0 4C5#070906F206BC068A
(1763087656.818655) can0 4C6#06B706D506E406F8
(1763087656.818943) can0 000A0003#FB3DFF3A0FA70000
(1763087656.819233) can0 000A0004#0001FFD1FE9B8E02
(1763087656.819663) can0 4C7#072B06AB06470621
(1763087656.820695) can0 4C8#062E000000000000
(1763087656.824605) can0 1A3#C009870A000000
(1763087656.826246) can0 186#97294C1D090C0000
(1763087656.828747) can0 000A0003#FB2FFF2C0F910000
(1763087656.829031) can0 000A0004#0002FFD2FE988E02
(1763087656.829752) can0 000A0000#0000000000000000
(1763087656.830051) can0 000A0001#0000000000000000
(1763087656.830349) can0 000A0002#0000000000000000
(1763087656.831972) can0 382#3110D0FE1E100000
(1763087656.832216) can0 281#700200002A000000
(1763087656.834481) can0 701#05
(1763087656.834947) can0 482#7102200008360001
(1763087656.838742) can0 000A0003#FB24FF1C0F910000
(1763087656.839026) can0 000A0004#0001FFD6FE998E02
(1763087656.840145) can0 682#494C64040000D801
(1763087656.845267) can0 1A0#000000000100
(1763087656.848218) can0 1A5#000EAC0B000000
(1763087656.848750) can0 000A0003#FB13FF030F920000
(1763087656.849034) can0 000A0004#FFFDFFDDFE998E02
(1763087656.850962) can0 181#D10300207F000009
(1763087656.853921) can0 382#C40FEDFF1E100000
(1763087656.856430) can0 482#7102200008360001
(1763087656.856548) can0 701#05
(1763087656.858748) can0 000A0003#FAF3FF040F7F0000
(1763087656.859036) can0 000A0004#FFF9FFE0FE9A8E02
(1763087656.866278) can0 186#FB2A4C1D090D0000
(1763087656.866716) can0 189#92050C0459012451
(1763087656.867585) can0 080#
(1763087656.868748) can0 000A0003#FAD4FF040F7C0000
(1763087656.869032) can0 000A0004#FFFBFFE3FE9D8E02
(1763087656.869276) can0 286#0000580200000000
(1763087656.873081) can0 19A#0000805C7D817E82
(1763087656.874088) can0 29A#817E808383800000
(1763087656.875440) can0 281#770200002B000000
(1763087656.875866) can0 382#8D10E2FFA8100000
(1763087656.876111) can0 188#0C00BC3000000000
(1763087656.876785) can0 288#002C5F5700360000
(1763087656.877787) can0 388#2929312324000000
(1763087656.878011) can0 701#05
(1763087656.878487) can0 482#7902220008360001
(1763087656.878778) can0 000A0003#FADAFF020F8F0000
(1763087656.879066) can0 000A0004#FFFEFFE2FE9F8E02
(1763087656.879269) can0 191#AFAFAFAFAFAE
(1763087656.879735) can0 192#AFAFAFAFAFAF
(1763087656.880741) can0 193#AFAFAFAFAFAF
(1763087656.881109) can0 682#494C63040000F501
(1763087656.881649) can0 4C4#06A906A7065106F8
(1763087656.881854) can0 194#AFAFAFAFAFAF
(1763087656.882666) can0 4C5#06F906EA06B7067F
(1763087656.882868) can0 195#AFAFAFAFAFAF
(1763087656.883683) can0 4C6#06AF06CA06DF06F5
(1763087656.883885) can0 291#1A1F201F201F
(1763087656.884696) can0 4C7#072B06A506440634
(1763087656.884892) can0 292#1C20201E211D
(1763087656.885723) can0 4C8#062E000000000000
(1763087656.885917) can0 293#1B1E201E1F1D
(1763087656.886750) can0 294#1B1F1F1E1F1D
(1763087656.887759) can0 295#1B1E1F1C1E1C
(1763087656.888748) can0 000A0003#FAE2FEFF0FAC0000
(1763087656.889036) can0 000A0004#FFFEFFE2FEA18E02
(1763087656.889396) can0 181#D10300207F000009
(1763087656.897477) can0 382#6610F4FFA8100000
(1763087656.898744) can0 000A0003#FADEFF170F850000
(1763087656.899028) can0 000A0004#FFFCFFE2FEA58E02
(1763087656.899745) can0 701#05
(1763087656.900207) can0 482#9302220008360001
(1763087656.906236) can0 186#4A2B4C1D090E0000
(1763087656.908752) can0 000A0003#FADBFF260F6C0000
(1763087656.909035) can0 000A0004#FFFCFFE1FEA98E02
(1763087656.909545) can0 1A2#0007AA0E000000
(1763087656.909773) can0 2A1#1A1C191918161110
(1763087656.915923) can0 1A4#C00F600A000000
(1763087656.916148) can0 2A3#121819191714100D
(1763087656.918743) can0 000A0003#FADEFF300F790000
(1763087656.919029) can0 000A0004#FFFEFFE2FEAD8E02
(1763087656.919270) can0 382#B3103DFFC6100000
(1763087656.919408) can0 701#05
(1763087656.919657) can0 281#960200002B000000
(1763087656.919898) can0 482#9602220008360001
(1763087656.922287) can0 682#494C610400001202
(1763087656.925690) can0 1A3#0006DA0A000000
(1763087656.927422) can0 181#D10300207F000009
(1763087656.928752) can0 000A0003#FAE3FF350F860000
(1763087656.929042) can0 000A0004#FFFFFFDDFEAF8E02
(1763087656.929762) can0 000A0000#0000000000000000
(1763087656.930062) can0 000A0001#0000000000000000
(1763087656.930360) can0 000A0002#0000000000000000
(1763087656.938760) can0 000A0003#FAD3FF440F520000
(1763087656.939044) can0 000A0004#0007FFE1FEB38E02
(1763087656.940938) can0 701#05
(1763087656.941401) can0 482#9102220008360001
(1763087656.943758) can0 382#C110D1FFC6100000
(1763087656.945268) can0 1A0#000000000100
(1763087656.946234) can0 186#3F2B4C1D090F0000
(1763087656.946698) can0 4C4#06A8069B064206F4
(1763087656.947716) can0 4C5#06ED06E106AB0673
(1763087656.948758) can0 000A0003#FAC8FF4F0F310000
(1763087656.949046) can0 000A0004#000AFFE3FEB58E02
(1763087656.949276) can0 4C6#06A406C406D706EF
(1763087656.949738) can0 4C7#0725069C063F064A
(1763087656.950393) can0 1A5#C008AC0B000000
(1763087656.950771) can0 4C8#062D000000000000
(1763087656.958750) can0 000A0003#FAA6FF630E9F0000
(1763087656.959037) can0 000A0004#0005FFE0FEB78E02
(1763087656.962882) can0 482#AD02220008360001
(1763087656.963000) can0 701#05
(1763087656.963243) can0 682#494C610400002B02
(1763087656.963579) can0 382#6B10C8FFC2100000
(1763087656.963903) can0 281#AD0200002B000000
(1763087656.966279) can0 189#93050F0458012451
(1763087656.966585) can0 080#
(1763087656.967706) can0 286#0000580200000000
(1763087656.968458) can0 181#D10300207F000009
(1763087656.968754) can0 000A0003#FA7BFF7A0E140000
(1763087656.969040) can0 000A0004#FFF9FFEBFEBE8E02
(1763087656.976013) can0 188#0C000D3100000000
(1763087656.976792) can0 288#002C5F5B00360000
(1763087656.977796) can0 388#2929312324000000
(1763087656.978753) can0 000A0003#FA92FF6B0E2F0000
(1763087656.979036) can0 000A0004#FFF4FFF6FEC28E02
(1763087656.979240) can0 191#AFAFAFAFAFAE
(1763087656.979746) can0 192#AFAFAFAFAFAF
(1763087656.980750) can0 193#AFAFAFAFAFAF
(1763087656.981760) can0 194#AFAFAFAFAFAF
(1763087656.982734) can0 195#AFAFAFAFAFAF
(1763087656.983742) can0 291#1A1F201F201F
(1763087656.984371) can0 701#05
(1763087656.984741) can0 292#1C20201E211D
(1763087656.984979) can0 482#B402220008360001
(1763087656.985747) can0 293#1B1E201E1F1D
(1763087656.986229) can0 186#462B4C1D09000000
(1763087656.986757) can0 294#1B1F1F1E1F1D
(1763087656.987666) can0 382#D1102B01C2100000
(1763087656.987863) can0 295#1B1E1F1C1E1C
(1763087656.988760) can0 000A0003#FAA0FF620E400000
(1763087656.989046) can0 000A0004#FFF00002FEC38E02
(1763087656.998760) can0 000A0003#FAB3FF510E630000
(1763087656.999042) can0 000A0004#FFEF0009FEC88E02
(1763087657.006550) can0 482#B602220008360001
(1763087657.006667) can0 701#05
(1763087657.006907) can0 682#494C600400004202
(1763087657.007338) can0 181#D10300207F000009
(1763087657.007583) can0 281#B60200002B000000
(1763087657.008756) can0 000A0003#FAC3FF3F0E890000
(1763087657.009044) can0 000A0004#FFF60010FECE8E02
(1763087657.009637) can0 382#D3104AFFC5100000
(1763087657.011736) can0 4C4#06AC06BE064906F4
(1763087657.012750) can0 4C5#070206EE06C00684
(1763087657.013762) can0 4C6#06AE06D406E406FF
(1763087657.014776) can0 4C7#072A06B0064A065D
(1763087657.015807) can0 4C8#062D000000000000
(1763087657.017168) can0 1A2#C011AA0E000000
(1763087657.017396) can0 2A1#1A1C191918161210
(1763087657.018758) can0 000A0003#FAABFF410E850000
(1763087657.019044) can0 000A0004#FFFC0010FECD8E02
(1763087657.023034) can0 1A4#000E600A000000
(1763087657.023266) can0 2A3#131819191714100D
(1763087657.026226) can0 186#812D4C1D09010000
(1763087657.026746) can0 1A3#C009DA0A000000
(1763087657.028600) can0 482#C502220008360001
(1763087657.028885) can0 000A0003#FA88FF430E7E0000
(1763087657.029169) can0 000A0004#FFF90012FED08E02
(1763087657.029285) can0 701#05
(1763087657.029771) can0 000A0000#0000000000000000
(1763087657.030071) can0 000A0001#0000000000000000
(1763087657.030369) can0 000A0002#0000000000000000
(1763087657.031347) can0 382#7D101800C5100000
(1763087657.038759) can0 000A0003#FA42FF560E620000
(1763087657.039048) can0 000A0004#FFF40002FED08E02
(1763087657.044997) can0 181#D10300207F000009
(1763087657.045269) can0 1A0#000000000000
(1763087657.047629) can0 682#494C5F0400005C02
(1763087657.048776) can0 000A0003#F9EDFF6E0E3C0000
(1763087657.049066) can0 000A0004#FFED0001FECF8E02
(1763087657.049883) can0 701#05
(1763087657.050338) can0 281#F10200002E000000
(1763087657.050576) can0 482#F102240008360001
(1763087657.051037) can0 382#D5113EFFA2110000
(1763087657.052577) can0 1A5#0007AC0B000000
(1763087657.058755) can0 000A0003#F9D6FF650E640000
(1763087657.059041) can0 000A0004#FFEDFFFDFECF8E02
(1763087657.062078) can0 19A#00007D827A7D7E7E
(1763087657.063079) can0 29A#7D5E847F88840000
(1763087657.066266) can0 186#78304C1D09020000
(1763087657.066703) can0 189#F305560459012951
(1763087657.067570) can0 080#
(1763087657.068757) can0 000A0003#F9B5FF570E9E0000
(1763087657.069041) can0 000A0004#FFEEFFF9FED28E02
(1763087657.069285) can0 286#0000580200000000
(1763087657.069557) can0 701#05
(1763087657.072088) can0 482#E402260008360001
(1763087657.074796) can0 382#AB12FDFEC8120000
(1763087657.076774) can0 4C4#06AC06BE064906F4
(1763087657.077784) can0 4C5#070206EE06C00684
(1763087657.078764) can0 000A0003#F9B2FF500E980000
(1763087657.079048) can0 000A0004#FFF6FFF4FED68E02
(1763087657.079281) can0 4C6#06AE06D406E406FF
(1763087657.079812) can0 4C7#072A06B0064A065D
(1763087657.080836) can0 4C8#062D000000000000
(1763087657.083084) can0 181#D10300207F000009
(1763087657.088578) can0 682#494C5D0400008002
(1763087657.088862) can0 000A0003#F9BBFF4C0E740000
(1763087657.089148) can0 000A0004#FFFBFFF3FEDC8E02
(1763087657.093809) can0 281#F502000030000000
(1763087657.093987) can0 701#05
(1763087657.094229) can0 482#F502260008360001
(1763087657.096847) can0 382#7013FB00C8120000
(1763087657.098763) can0 000A0003#F9BAFF600E7B0000
(1763087657.099052) can0 000A0004#FFF9FFF0FEDF8E02
(1763087657.106225) can0 186#7F2E4C1D09030000
(1763087657.108764) can0 000A0003#F9B8FF7D0E850000
(1763087657.109047) can0 000A0004#FFF4FFF1FEE78E02
(1763087657.115869) can0 482#0C03240008360001
(1763087657.116050) can0 701#05
(1763087657.118579) can0 382#C211C9FF05120000
(1763087657.118862) can0 000A0003#F9A9FFA90EAE0000
(1763087657.119149) can0 000A0004#FFEBFFF4FEEE8E02
(1763087657.121208) can0 181#D10300207F000009
(1763087657.124788) can0 1A2#C008F40E000000
(1763087657.125013) can0 2A1#1A1D1C1918161210
(1763087657.127806) can0 1A3#8007FC0A000000
(1763087657.128769) can0 000A0003#F99CFFCA0ED20000
(1763087657.129053) can0 000A0004#FFE5FFF1FEF28E02
(1763087657.129513) can0 682#494C5D0400009A02
(1763087657.129814) can0 000A0000#0000000000000000
(1763087657.130114) can0 000A0001#0000000000000000
(1763087657.130411) can0 000A0002#0000000000000000
(1763087657.130655) can0 188#0C00933000000000
(1763087657.130884) can0 1A4#C008600A000000
(1763087657.131122) can0 288#002CEB5500360000
(1763087657.131357) can0 2A3#131819181714100D
(1763087657.131770) can0 388#2929312324000000
(1763087657.132743) can0 191#AFAFAFAFAFAE
(1763087657.133722) can0 192#AFAFAFAFAFAF
(1763087657.134743) can0 193#AFAFAFAFAFAF
(1763087657.135754) can0 194#AFAFAFAFAFAF
(1763087657.136757) can0 195#AFAFAFAFAFAF
(1763087657.137764) can0 291#1A1F201F201F
(1763087657.138779) can0 000A0003#F98BFFDE0F240000
(1763087657.139063) can0 000A0004#FFE4FFF3FEF78E02
(1763087657.139261) can0 292#1C20201E211D
(1763087657.139739) can0 293#1B1E201E1F1D
(1763087657.140055) can0 701#05
(1763087657.140418) can0 382#3A12550005120000
(1763087657.140666) can0 281#0A0300002E000000
(1763087657.140864) can0 294#1B1F1F1E1F1D
(1763087657.141109) can0 482#0A03240008360001
(1763087657.141759) can0 295#1B1E1F1C1E1C
(1763087657.141991) can0 4C4#06A806B4065706F7
(1763087657.142813) can0 4C5#070A06F106B80687
(1763087657.143831) can0 4C6#06B406D106E106F7
(1763087657.144842) can0 4C7#072C06AB06430624
(1763087657.145270) can0 1A0#000000000000
(1763087657.145874) can0 4C8#062D000000000000
(1763087657.146222) can0 186#502D4C1D09040000
(1763087657.148781) can0 000A0003#F97FFFE50F830000
(1763087657.149070) can0 000A0004#FFECFFEAFEFD8E02
(1763087657.154754) can0 1A5#000CEB0B000000
(1763087657.158776) can0 000A0003#F967FFDC0FD50000
(1763087657.159060) can0 000A0004#FFF0FFE5FF018E02
(1763087657.162132) can0 382#3411FEFF90110000
(1763087657.162254) can0 701#05
(1763087657.162498) can0 181#D10300207F000009
(1763087657.162837) can0 482#1703230008360001
(1763087657.166265) can0 189#D2053F0459012751
(1763087657.166571) can0 080#
(1763087657.167724) can0 286#0000580200000000
(1763087657.168771) can0 000A0003#F954FFD210070000
(1763087657.169061) can0 000A0004#FFF2FFE0FF028E02
(1763087657.170657) can0 682#494C5C040000A802
(1763087657.176028) can0 188#0C00BE2F00000000
(1763087657.176769) can0 288#E12BE35D00360000
(1763087657.177779) can0 388#2929312324000000
(1763087657.178785) can0 000A0003#F945FFC910250000
(1763087657.179073) can0 000A0004#FFEFFFDBFF048E02
(1763087657.179264) can0 191#AEAEAEAEAEAD
(1763087657.179747) can0 192#AEAEAEAEAEAE
(1763087657.180755) can0 193#AEAEAEAEAEAE
(1763087657.181733) can0 194#AEAEAEAEAEAE
(1763087657.182737) can0 195#AEAEAEAEAEAE
(1763087657.183756) can0 291#1A1F201F201E
(1763087657.184204) can0 382#42117B0090110000
(1763087657.184324) can0 701#05
(1763087657.184572) can0 281#210300002D000000
(1763087657.184768) can0 292#1C20201E211D
(1763087657.185008) can0 482#2103230008360001
(1763087657.185730) can0 293#1B1E201E1F1D
(1763087657.186217) can0 186#7C304C1D09050000
(1763087657.186743) can0 294#1B1F1F1E1F1F
(1763087657.187750) can0 295#1B1E1F1C1E1C
(1763087657.188779) can0 000A0003#F950FFC2102D0000
(1763087657.189067) can0 000A0004#FFE7FFD3FF098E02
(1763087657.198779) can0 000A0003#F96DFFC710240000
(1763087657.199061) can0 000A0004#FFE4FFCDFF0C8E02
(1763087657.200361) can0 181#D10300207F000009
(1763087657.205718) can0 482#4103260008360001
(1763087657.205896) can0 701#05
(1763087657.206155) can0 382#8C122C00CA120000
(1763087657.206827) can0 4C4#06A806B4065706F7
(1763087657.207845) can0 4C5#070A06F106B80687
(1763087657.208780) can0 000A0003#F985FFCE10190000
(1763087657.209068) can0 000A0004#FFE4FFD0FF0E8E02
(1763087657.209297) can0 4C6#06B406D106E106F7
(1763087657.209872) can0 4C7#072C06AB06430624
(1763087657.210898) can0 4C8#062D000000000000
(1763087657.211516) can0 682#494C5B040000C402
(1763087657.218782) can0 000A0003#F9A3FFE00FEF0000
(1763087657.219065) can0 000A0004#FFF1FFD1FF158E02
(1763087657.225279) can0 482#5003260008360001
(1763087657.225460) can0 701#05
(1763087657.226206) can0 186#AA314C1D09060000
(1763087657.227763) can0 382#DC120BFFCA120000
(1763087657.228339) can0 281#5303000030000000
(1763087657.228775) can0 000A0003#F9B4FFFF0FBA0000
(1763087657.229061) can0 000A0004#FFFAFFCFFF1B8E02
(1763087657.229290) can0 1A3#C009FC0A000000
(1763087657.229793) can0 000A0000#0000000000000000
(1763087657.230094) can0 000A0001#0000000000000000
(1763087657.230391) can0 000A0002#0000000000000000
(1763087657.232391) can0 1A2#C011F40E000000
(1763087657.232615) can0 2A1#1A1D1C1917151110
(1763087657.237270) can0 1A4#C0083E0A000000
(1763087657.237497) can0 2A3#121919181714100E
(1763087657.238707) can0 181#D10300207F000009
(1763087657.238995) can0 000A0003#F9A400200FA10000
(1763087657.239284) can0 000A0004#0001FFD2FF208E02
(1763087657.245183) can0 1A0#000000000000
(1763087657.248785) can0 000A0003#F96700630F8B0000
(1763087657.249070) can0 000A0004#0000FFD4FF298E02
(1763087657.249240) can0 701#05
(1763087657.249621) can0 482#6403270008360001
(1763087657.249956) can0 382#A213BE003F130000
(1763087657.252436) can0 682#494C59040000F102
(1763087657.256955) can0 1A5#000C120C000000
(1763087657.258780) can0 000A0003#F929008D0F5C0000
(1763087657.259068) can0 000A0004#0002FFD5FF318E02
(1763087657.266243) can0 186#8A2F4C1D09070000
(1763087657.266721) can0 189#E0054A0458012851
(1763087657.267586) can0 080#
(1763087657.268071) can0 19A#00007E6E76807F80
(1763087657.268706) can0 286#0000580200000000
(1763087657.268990) can0 000A0003#F8E800890F230000
(1763087657.269278) can0 000A0004#FFFFFFD0FF368E02
(1763087657.269516) can0 29A#8075828183830000
(1763087657.271456) can0 382#1D1339FF6C120000
(1763087657.271637) can0 701#05
(1763087657.271871) can0 4C4#06A406B4064906F4
(1763087657.272115) can0 281#6D03000030000000
(1763087657.272360) can0 482#6D03250008360001
(1763087657.272878) can0 4C5#06F806E606AE0679
(1763087657.273892) can0 4C6#06A706C706D706F2
(1763087657.274908) can0 4C7#072506A2063F0659
(1763087657.275938) can0 4C8#062D000000000000
(1763087657.276180) can0 188#0C008E3000000000
(1763087657.276778) can0 288#E12BE37300360000
(1763087657.277021) can0 181#D10300207F000009
(1763087657.277787) can0 388#2929312324000000
(1763087657.278787) can0 000A0003#F8D4007E0F010000
(1763087657.279077) can0 000A0004#0000FFC7FF378E02
(1763087657.279269) can0 191#AEAEAEAEAEAD
(1763087657.279737) can0 192#AEAEAEAEAEAE
(1763087657.280713) can0 193#AEAEAEAEAEAE
(1763087657.281741) can0 194#AEAEAEAEAEAE
(1763087657.282743) can0 195#AEAEAEAEAEAE
(1763087657.283761) can0 291#1A1F201F201E
(1763087657.284733) can0 292#1C20201E211D
(1763087657.285739) can0 293#1B1E201E1F1D
(1763087657.286733) can0 294#1B1F1F1E1F1F
(1763087657.287740) can0 295#1B1E1F1C1E1C
(1763087657.288780) can0 000A0003#F8D700620ED50000
(1763087657.289073) can0 000A0004#000BFFBFFF3F8E02
(1763087657.293148) can0 382#A91220016C120000
(1763087657.293266) can0 701#05
(1763087657.293630) can0 482#6203250008360001
(1763087657.293961) can0 682#494C590400000A03
(1763087657.298784) can0 000A0003#F8D000570EC70000
(1763087657.299067) can0 000A0004#000CFFB6FF418E02
(1763087657.306203) can0 186#B62F4C1D09080000
(1763087657.308786) can0 000A0003#F8B4006E0EEE0000
(1763087657.309070) can0 000A0004#0009FFB2FF458E02
(1763087657.312612) can0 382#611272FF7D120000
(1763087657.314653) can0 701#05
(1763087657.317838) can0 181#D10300207F000009
(1763087657.318082) can0 281#8503000030000000
(1763087657.318394) can0 482#8503250008360001
(1763087657.318787) can0 000A0003#F8A100780F010000
(1763087657.319072) can0 000A0004#0003FFA8FF438E02
(1763087657.328826) can0 000A0003#F883007E0F150000
(1763087657.329095) can0 000A0004#0001FFA6FF468E02
(1763087657.329805) can0 000A0000#0000000000000000
(1763087657.330104) can0 000A0001#0000000000000000
(1763087657.330400) can0 000A0002#0000000000000000
(1763087657.330626) can0 1A3#C013FC0A000000
(1763087657.336501) can0 701#05
(1763087657.336895) can0 4C4#069C06B4064206F1
(1763087657.337130) can0 682#494C580400001403
(1763087657.337386) can0 382#30129FFF7D120000
(1763087657.337909) can0 4C5#070206EC06BB0689
(1763087657.338789) can0 000A0003#F87B00890F2B0000
(1763087657.339078) can0 000A0004#000CFFAFFF488E02
(1763087657.339311) can0 4C6#06B106D106E106EF
(1763087657.339937) can0 4C7#072206AD063C062B
(1763087657.340167) can0 1A2#C008200F000000
(1763087657.340394) can0 2A1#1A1D1C1917151111
(1763087657.340633) can0 482#8D03250008360001
(1763087657.340967) can0 4C8#062D000000000000
(1763087657.344358) can0 1A4#C013D709000000
(1763087657.344586) can0 2A3#121919171614100E
(1763087657.345182) can0 1A0#000000000000
(1763087657.346200) can0 186#EF314C1D09090000
(1763087657.348789) can0 000A0003#F89200960F3C0000
(1763087657.349072) can0 000A0004#0015FFB6FF4B8E02
(1763087657.355961) can0 181#D10300207F000009
(1763087657.358335) can0 701#05
(1763087657.358787) can0 000A0003#F8A600A30F490000
(1763087657.359069) can0 000A0004#001CFFBDFF528E02
(1763087657.359296) can0 1A5#C009760B000000
(1763087657.359527) can0 382#0913BAFF5A130000
(1763087657.361299) can0 281#8F03000032000000
(1763087657.361614) can0 482#8F03270008360001
(1763087657.366248) can0 189#1106710458012A51
(1763087657.366588) can0 080#
(1763087657.367738) can0 286#0000580200000000
(1763087657.368788) can0 000A0003#F89F00A50F3E0000
(1763087657.369074) can0 000A0004#0012FFC7FF548E02
(1763087657.376001) can0 188#0C00CC2F00000000
(1763087657.376789) can0 288#9F2B057C00360000
(1763087657.377791) can0 388#2929312324000000
(1763087657.378027) can0 682#494C570400003403
(1763087657.378787) can0 000A0003#F88A00AB0F340000
(1763087657.379075) can0 000A0004#0002FFCEFF5A8E02
(1763087657.379269) can0 191#ACACACACACAB
(1763087657.379733) can0 192#ACACACACACAC
(1763087657.380272) can0 701#05
(1763087657.380739) can0 193#ABACACACACAC
(1763087657.380975) can0 382#4D13F6FE5A130000
(1763087657.381300) can0 482#A603270008360001
(1763087657.381746) can0 194#ACACACACACAC
(1763087657.382753) can0 195#ABABACACABAC
(1763087657.383737) can0 291#1A1F201F201E
(1763087657.384738) can0 292#1C20211E211E
(1763087657.385744) can0 293#1B1E201E1F1D
(1763087657.386194) can0 186#45324C1D090A0000
(1763087657.386756) can0 294#1B1F1F1E1F1D
(1763087657.387766) can0 295#1B1E1F1C1E1C
(1763087657.388798) can0 000A0003#F86A00B60F2D0000
(1763087657.389084) can0 000A0004#FFF9FFCFFF5B8E02
(1763087657.394287) can0 181#D10300207F000009
(1763087657.398800) can0 000A0003#F82E00B20F350000
(1763087657.399084) can0 000A0004#FFF6FFD2FF5F8E02
(1763087657.399705) can0 701#05
(1763087657.401911) can0 4C4#069C06B4064206F1
(1763087657.402442) can0 382#E61305017B130000
(1763087657.402926) can0 4C5#070206EC06BB0689
(1763087657.403941) can0 4C6#06B106D106E106EF
(1763087657.404956) can0 4C7#072206AD063C062B
(1763087657.405203) can0 281#B403000032000000
(1763087657.405507) can0 482#B403270008360001
(1763087657.405986) can0 4C8#062D000000000000
(1763087657.408797) can0 000A0003#F7E500880F5F0000
(1763087657.409082) can0 000A0004#FFFCFFCEFF618E02
(1763087657.418743) can0 682#494C560400005003
(1763087657.419033) can0 000A0003#F7AA006C0F840000
(1763087657.419318) can0 000A0004#0002FFBDFF668E02
(1763087657.423856) can0 701#05
(1763087657.424287) can0 382#0513D4FF7B130000
(1763087657.426187) can0 186#47324C1D090B0000
(1763087657.427276) can0 482#C403270008360001
(1763087657.428795) can0 000A0003#F79200690F960000
(1763087657.429081) can0 000A0004#0001FFB0FF698E02
(1763087657.429805) can0 000A0000#0000000000000000
(1763087657.430105) can0 000A0001#0000000000000000
(1763087657.430403) can0 000A0002#0000000000000000
(1763087657.431037) can0 1A3#000FFC0A000000
(1763087657.432485) can0 181#D10300207F000009
(1763087657.438799) can0 000A0003#F76F00650F9A0000
(1763087657.439083) can0 000A0004#FFFAFF9EFF6E8E02
(1763087657.445273) can0 1A0#000000000000
(1763087657.445779) can0 701#05
(1763087657.446350) can0 382#A81363007C130000
(1763087657.447617) can0 1A2#C00FAF0E000000
(1763087657.447842) can0 2A1#1A1D1D1A18151111
(1763087657.448798) can0 000A0003#F79F00610F700000
(1763087657.449082) can0 000A0004#FFF3FF91FF748E02
(1763087657.449324) can0 281#CF03000032000000
(1763087657.449637) can0 482#CF03270008360001
(1763087657.451455) can0 1A4#C013EB09000000
(1763087657.451683) can0 2A3#121919171614100E
(1763087657.458799) can0 000A0003#F7BE005E0F550000
(1763087657.459085) can0 000A0004#FFF3FF8FFF768E02
(1763087657.459760) can0 682#494C550400007203
(1763087657.461305) can0 1A5#00168A0B000000
(1763087657.466224) can0 186#47324C1D090C0000
(1763087657.466740) can0 189#1006710458012A51
(1763087657.466974) can0 4C4#06A806A9064206EE
(1763087657.467571) can0 080#
(1763087657.467734) can0 701#05
(1763087657.467964) can0 4C5#06F206E606AB0679
(1763087657.468207) can0 382#981304FF7C130000
(1763087657.468660) can0 482#D403270008360001
(1763087657.468944) can0 000A0003#F7F100470EF40000
(1763087657.469230) can0 000A0004#FFF9FF8CFF7D8E02
(1763087657.469474) can0 286#0000580200000000
(1763087657.469706) can0 4C6#06AC06C706D706F4
(1763087657.470007) can0 4C7#072506A206430652
(1763087657.471036) can0 4C8#062D000000000000
(1763087657.473422) can0 181#D10300207F000009
(1763087657.474093) can0 19A#000082747280827E
(1763087657.475065) can0 29A#7E6D857F84850000
(1763087657.476006) can0 188#0C005C3000000000
(1763087657.476775) can0 288#9F2B057A00360000
(1763087657.477783) can0 388#2929312324000000
(1763087657.478801) can0 000A0003#F820003D0EB20000
(1763087657.479087) can0 000A0004#FFFEFF97FF848E02
(1763087657.479278) can0 191#ACACACACACAB
(1763087657.479739) can0 192#ACACACACACAC
(1763087657.480745) can0 193#ABACACACACAC
(1763087657.481753) can0 194#ACACACACACAC
(1763087657.482731) can0 195#ABABACACABAC
(1763087657.483744) can0 291#1A1F201F201E
(1763087657.484745) can0 292#1C20211E211E
(1763087657.485751) can0 293#1B1E201E1F1D
(1763087657.486763) can0 294#1B1F1F1E1F1D
(1763087657.487054) can0 701#05
(1763087657.487742) can0 295#1B1E1F1C1E1C
(1763087657.488800) can0 000A0003#F858004C0EA50000
(1763087657.489081) can0 000A0004#FFFCFF9EFF8A8E02
(1763087657.489696) can0 382#3613A2FF7C130000
(1763087657.492308) can0 281#DD03000032000000
(1763087657.492548) can0 482#DD03270008360001
(1763087657.498811) can0 000A0003#F87C00550E9C0000
(1763087657.499096) can0 000A0004#FFF6FFA9FF8A8E02
(1763087657.500706) can0 682#494C540400008503
(1763087657.506187) can0 186#3B324C1D090D0000
(1763087657.508574) can0 701#05
(1763087657.508854) can0 000A0003#F8A900790E790000
(1763087657.509139) can0 000A0004#FFF0FFB7FF8E8E02
(1763087657.509377) can0 382#8F1383007C130000
(1763087657.514372) can0 181#D10300207F000009
(1763087657.514703) can0 482#EE03270008360001
(1763087657.518803) can0 000A0003#F8D4009B0E560000
(1763087657.519089) can0 000A0004#FFECFFBFFF938E02
(1763087657.528820) can0 000A0003#F90500E80E340000
(1763087657.529090) can0 000A0004#FFEFFFC4FF988E02
(1763087657.529823) can0 000A0000#0000000000000000
(1763087657.530123) can0 000A0001#0000000000000000
(1763087657.530421) can0 000A0002#0000000000000000
(1763087657.530537) can0 701#05
(1763087657.530842) can0 382#3013100077130000
(1763087657.531996) can0 4C4#06A806A9064206EE
(1763087657.532220) can0 1A3#C011760B000000
(1763087657.533006) can0 4C5#06F206E606AB0679
(1763087657.534024) can0 4C6#06AC06C706D706F4
(1763087657.535041) can0 4C7#072506A206430652
(1763087657.536071) can0 4C8#062D000000000000
(1763087657.536315) can0 281#0904000032000000
(1763087657.536560) can0 482#0904270008360001
(1763087657.538805) can0 000A0003#F92401190E1E0000
(1763087657.539092) can0 000A0004#FFF0FFC2FF948E02
(1763087657.541648) can0 682#494C540400009703
(1763087657.545274) can0 1A0#000000000000
(1763087657.546177) can0 186#CA324C1D090E0000
(1763087657.548812) can0 000A0003#F95001450E200000
(1763087657.549095) can0 000A0004#FFF9FFC0FF978E02
(1763087657.552228) can0 701#05
(1763087657.552591) can0 181#D10300207F000009
(1763087657.553028) can0 382#3713B3FFAF130000
(1763087657.555245) can0 1A2#800FCD0E000000
(1763087657.555470) can0 2A1#1A1D1D1A18151111
(1763087657.557927) can0 482#1604280008360001
(1763087657.558545) can0 1A4#8013D709000000
(1763087657.558829) can0 000A0003#F97B016F0E330000
(1763087657.559117) can0 000A0004#FFFFFFBCFF9B8E02
(1763087657.559348) can0 2A3#121919171614100E
(1763087657.563487) can0 1A5#C00FBF0B000000
(1763087657.566227) can0 189#2906840459012C51
(1763087657.566568) can0 080#
(1763087657.567724) can0 286#0000580200000000
(1763087657.568803) can0 000A0003#F96C016E0E570000
(1763087657.569092) can0 000A0004#0001FFC0FF9E8E02
(1763087657.573966) can0 701#05
(1763087657.574435) can0 382#DE13D800AF130000
(1763087657.576036) can0 188#0C00553100000000
(1763087657.576802) can0 288#7D2B307D00360000
(1763087657.577777) can0 388#2929312324000000
(1763087657.578806) can0 000A0003#F958016D0E890000
(1763087657.579092) can0 000A0004#FFFEFFCAFFA48E02
(1763087657.579284) can0 191#ABAAABABABAA
(1763087657.579728) can0 192#AAAAABAAAAAB
(1763087657.579972) can0 281#1404000033000000
(1763087657.580218) can0 482#1404280008360001
(1763087657.580751) can0 193#AAABABABABAB
(1763087657.581729) can0 194#AAABABABABAB
(1763087657.582737) can0 195#AAAAABABAAAA
(1763087657.582971) can0 682#494C52040000BC03
(1763087657.583752) can0 291#1A1F201F201E
(1763087657.584755) can0 292#1C20201E211E
(1763087657.585759) can0 293#1B1E201E1F1D
(1763087657.586175) can0 186#11344C1D090F0000
(1763087657.586739) can0 294#1B1F1F1E1F1D
(1763087657.587749) can0 295#1B1E1F1C1E1C
(1763087657.588807) can0 000A0003#F93001450EDD0000
(1763087657.589096) can0 000A0004#FFF9FFC9FFA68E02
(1763087657.590822) can0 181#D10300207F000009
(1763087657.593432) can0 701#05
(1763087657.596141) can0 382#1C1477FF2D140000
(1763087657.597028) can0 4C4#06A406BE065A06FA
(1763087657.598038) can0 4C5#070806F106BE0684
(1763087657.598818) can0 000A0003#F90A011F0F2D0000
(1763087657.599102) can0 000A0004#FFF2FFD0FFA88E02
(1763087657.599333) can0 4C6#06B106CF06E106F4
(1763087657.600067) can0 4C7#072806B60643062F
(1763087657.601099) can0 4C8#062D000000000000
(1763087657.601817) can0 482#2604290008360001
(1763087657.608812) can0 000A0003#F91300E40F5D0000
(1763087657.609100) can0 000A0004#FFF0FFD9FFAF8E02
(1763087657.614920) can0 701#05
(1763087657.615386) can0 382#A71490002D140000
(1763087657.618815) can0 000A0003#F920008F0FA30000
(1763087657.619105) can0 000A0004#FFECFFDBFFB08E02
(1763087657.626185) can0 281#3C04000034000000
(1763087657.626414) can0 186#4C344C1D09000000
(1763087657.626657) can0 482#3C04290008360001
(1763087657.626939) can0 682#494C50040000D503
(1763087657.628828) can0 000A0003#F991005B0F280000
(1763087657.629108) can0 000A0004#FFE7FFE0FFB78E02
(1763087657.629349) can0 181#D10300207F000009
(1763087657.629826) can0 000A0000#0000000000000000
(1763087657.630127) can0 000A0001#0000000000000000
(1763087657.630425) can0 000A0002#0000000000000000
(1763087657.633230) can0 1A3#000C4A0B000000
(1763087657.636761) can0 701#05
(1763087657.637210) can0 382#4B1490FF44140000
(1763087657.638820) can0 000A0003#F9FC00280EB30000
(1763087657.639106) can0 000A0004#FFE7FFE5FFBB8E02
(1763087657.645277) can0 1A0#000000000000
(1763087657.648022) can0 482#4E04290008360001
(1763087657.648823) can0 000A0003#FA07FFF70E530000
(1763087657.649111) can0 000A0004#FFE6FFE1FFBB8E02
(1763087657.658819) can0 000A0003#FA16FFB00DCA0000
(1763087657.659109) can0 000A0004#FFECFFE1FFBF8E02
(1763087657.659345) can0 382#A214F4FF44140000
(1763087657.659466) can0 701#05
(1763087657.662056) can0 4C4#06A806BB065406F7
(1763087657.662854) can0 1A2#000FF40E000000
(1763087657.663092) can0 19A#00007D71747E807E
(1763087657.663321) can0 2A1#1A1D1C1A18151111
(1763087657.663554) can0 4C5#070206E906B0067E
(1763087657.664087) can0 4C6#06AC06C906D706F4
(1763087657.664322) can0 29A#8066838084830000
(1763087657.665103) can0 4C7#072C06A8063F0659
(1763087657.665634) can0 1A4#000EB509000000
(1763087657.665857) can0 1A5#0016120C000000
(1763087657.666087) can0 2A3#121919171614100F
(1763087657.666323) can0 186#58344C1D09010000
(1763087657.666569) can0 4C8#062D000000000000
(1763087657.666799) can0 189#36068D0457012C51
(1763087657.667478) can0 181#D10300207F000009
(1763087657.667588) can0 080#
(1763087657.667921) can0 682#494C4F040000F503
(1763087657.668739) can0 286#0000580200000000
(1763087657.669027) can0 000A0003#FA5DFFAE0D9F0000
(1763087657.669313) can0 000A0004#FFEDFFE3FFC28E02
(1763087657.669960) can0 281#5904000034000000
(1763087657.670202) can0 482#5904290008360001
(1763087657.676021) can0 188#0C00133200000000
(1763087657.676774) can0 288#542B568C00360000
(1763087657.677784) can0 388#2929312324000000
(1763087657.677901) can0 701#05
(1763087657.678275) can0 382#011483FF49140000
(1763087657.678823) can0 000A0003#FA8AFFAD0D830000
(1763087657.679111) can0 000A0004#FFEFFFE5FFC38E02
(1763087657.679301) can0 191#A9A9AAA9A9A8
(1763087657.679755) can0 192#A9A9AAAAA9AA
(1763087657.680759) can0 193#A9A9AAAAA9AA
(1763087657.681737) can0 194#A9AAA9AAA9AA
(1763087657.682741) can0 195#A9A9A9AAA9A9
(1763087657.683758) can0 291#1A1F201F201E
(1763087657.684761) can0 292#1C20201E211D
(1763087657.685735) can0 293#1B1E201E1F1D
(1763087657.686747) can0 294#1B1F1F1E1F1D
(1763087657.687754) can0 295#1B1E1F1C1E1C
(1763087657.688817) can0 000A0003#FA97FFA50D630000
(1763087657.689106) can0 000A0004#FFF1FFE3FFC78E02
(1763087657.691903) can0 482#6304290008360001
(1763087657.698820) can0 000A0003#FA8AFF9A0D490000
(1763087657.699109) can0 000A0004#FFEFFFE3FFCB8E02
(1763087657.699846) can0 701#05
(1763087657.700224) can0 382#9514F0FF49140000
(1763087657.705327) can0 181#D10300207F000009
(1763087657.706174) can0 186#7C344C1D09020000
(1763087657.708270) can0 682#494C4F0400001504
(1763087657.708821) can0 000A0003#FAA7FF960D0B0000
(1763087657.709107) can0 000A0004#FFF0FFE7FFD18E02
(1763087657.713509) can0 281#6C04000034000000
(1763087657.713751) can0 482#6C04290008360001
(1763087657.718828) can0 000A0003#FABBFF940CE30000
(1763087657.719113) can0 000A0004#FFF1FFEEFFD48E02
(1763087657.724194) can0 701#05
(1763087657.724555) can0 382#841439FF57140000
(1763087657.727087) can0 4C4#06AC06B7064D06F4
(1763087657.728105) can0 4C5#06FA06E906B0067E
(1763087657.728832) can0 000A0003#FABCFFA00C9A0000
(1763087657.729112) can0 000A0004#FFF1FFEEFFD88E02
(1763087657.729341) can0 4C6#06AC06C906D706F4
(1763087657.729838) can0 000A0000#0000000000000000
(1763087657.730138) can0 000A0001#0000000000000000
(1763087657.730436) can0 000A0002#0000000000000000
(1763087657.730670) can0 4C7#072C06A8063F0659
(1763087657.731162) can0 4C8#062D000000000000
(1763087657.734355) can0 1A3#80134A0B000000
(1763087657.735369) can0 482#7D04290008360001
(1763087657.738837) can0 000A0003#FAAFFFB40C4E0000
(1763087657.739124) can0 000A0004#FFF5FFF3FFDB8E02
(1763087657.743686) can0 181#D10300207F000009
(1763087657.745278) can0 1A0#000000000000
(1763087657.745942) can0 701#05
(1763087657.746177) can0 186#D1344C1D09030000
(1763087657.746602) can0 382#411441FF57140000
(1763087657.748826) can0 000A0003#FA88FFB70C4E0000
(1763087657.749115) can0 000A0004#FFF9FFFFFFE18E02
(1763087657.749351) can0 682#494C4E0400003504
(1763087657.757296) can0 281#9204000035000000
(1763087657.757539) can0 482#9204290008360001
(1763087657.758831) can0 000A0003#FA65FFB80C4E0000
(1763087657.759119) can0 000A0004#FFF80000FFE38E02
(1763087657.765140) can0 701#05
(1763087657.765501) can0 382#6D1442FF78140000
(1763087657.766205) can0 189#4006960458012D51
(1763087657.766591) can0 080#
(1763087657.767741) can0 286#0000580200000000
(1763087657.767962) can0 1A5#C00F350C000000
(1763087657.768827) can0 000A0003#FA6AFFBB0C910000
(1763087657.769117) can0 000A0004#FFF40007FFED8E02
(1763087657.770463) can0 1A2#0018950F000000
(1763087657.770690) can0 2A1#1A1D1C1A18151211
(1763087657.772727) can0 1A4#C0137A09000000
(1763087657.772957) can0 2A3#131819181614100F
(1763087657.776023) can0 188#0C00163100000000
(1763087657.776779) can0 288#542B568A00360000
(1763087657.777793) can0 388#2929312324000000
(1763087657.778828) can0 000A0003#FA8BFFBD0CF20000
(1763087657.779117) can0 000A0004#FFE70008FFED8E02
(1763087657.779307) can0 191#A9A9AAA9A9A8
(1763087657.779546) can0 482#A504290008360001
(1763087657.779746) can0 192#A9A9AAAAA9AA
(1763087657.780717) can0 193#A9A9AAAAA9AA
(1763087657.781743) can0 194#A9AAA9AAA9AA
(1763087657.782749) can0 195#A9A9A9AAA9A9
(1763087657.783767) can0 291#1A1F201F201E
(1763087657.784714) can0 181#D10300207F000009
(1763087657.784911) can0 292#1C20201E211D
(1763087657.785745) can0 293#1B1E201E1F1D
(1763087657.786163) can0 186#03354C1D09040000
(1763087657.786737) can0 294#1B1F1F1E1F1D
(1763087657.787111) can0 701#05
(1763087657.787662) can0 382#68145CFF78140000
(1763087657.787860) can0 295#1B1E1F1C1E1C
(1763087657.788835) can0 000A0003#FA87FFF80CFD0000
(1763087657.789125) can0 000A0004#FFE00008FFF08E02
(1763087657.789957) can0 682#494C4D0400004D04
(1763087657.792125) can0 4C4#06A006AD064606F1
(1763087657.793136) can0 4C5#06FD06E906B80687
(1763087657.794148) can0 4C6#06B106C906DC06ED
(1763087657.795164) can0 4C7#072206A506460628
(1763087657.796195) can0 4C8#062D000000000000
(1763087657.798832) can0 000A0003#FA60004D0D0C0000
(1763087657.799116) can0 000A0004#FFE20006FFF18E02
(1763087657.800857) can0 482#B004290008360001
(1763087657.803593) can0 281#B504000035000000
(1763087657.808834) can0 000A0003#FA33009A0D3F0000
(1763087657.809120) can0 000A0004#FFE40006FFF18E02
(1763087657.809236) can0 701#05
(1763087657.809484) can0 382#7614C2FF8B140000
(1763087657.818837) can0 000A0003#FA0400E10D830000
(1763087657.819126) can0 000A0004#FFE8FFFFFFF18E02
(1763087657.822829) can0 181#D10300207F000009
(1763087657.823161) can0 482#C204290008360001
(1763087657.826159) can0 186#66364C1D09050000
(1763087657.828844) can0 000A0003#F9DF00F50DE30000
(1763087657.829120) can0 000A0004#FFE9FFFAFFF28E02
(1763087657.829847) can0 000A0000#0000000000000000
(1763087657.830148) can0 000A0001#0000000000000000
(1763087657.830445) can0 000A0002#0000000000000000
(1763087657.830900) can0 682#494C4C0400007004
(1763087657.831088) can0 701#05
(1763087657.831327) can0 382#1E15B7008B140000
(1763087657.835456) can0 1A3#C0114A0B000000
(1763087657.838841) can0 000A0003#F9A000EC0E6E0000
(1763087657.839127) can0 000A0004#FFE3FFF1FFF28E02
(1763087657.844638) can0 482#C8042A0008360001
(1763087657.845277) can0 1A0#000000000000
(1763087657.847377) can0 281#D204000036000000
(1763087657.848830) can0 000A0003#F94500D70EDA0000
(1763087657.849120) can0 000A0004#FFDFFFE7FFF38E02
(1763087657.852393) can0 701#05
(1763087657.852958) can0 382#D814F5FE15150000
(1763087657.857159) can0 4C4#06A006AD064606F1
(1763087657.858169) can0 4C5#06FD06E906B80687
(1763087657.858839) can0 000A0003#F8E000BE0F350000
(1763087657.859126) can0 000A0004#FFDCFFEEFFF78E02
(1763087657.859355) can0 4C6#06B106C906DC06ED
(1763087657.860199) can0 4C7#072206A506460628
(1763087657.860935) can0 181#D10300207F000009
(1763087657.861229) can0 4C8#062D000000000000
(1763087657.866233) can0 186#F5364C1D09060000
(1763087657.866435) can0 482#D7042A0008360001
(1763087657.866738) can0 189#6306B10458012E51
(1763087657.867541) can0 080#
(1763087657.868725) can0 286#0000580200000000
(1763087657.869015) can0 000A0003#F8B300800F1C0000
(1763087657.869299) can0 000A0004#FFD9FFF1FFF88E02
(1763087657.869537) can0 19A#00007E73737E7F7F
(1763087657.869969) can0 1A5#0017350C000000
(1763087657.870207) can0 29A#8074837F84830000
(1763087657.871937) can0 682#494C490400008B04
(1763087657.874452) can0 701#05
(1763087657.875003) can0 382#CC15AB004C150000
(1763087657.876036) can0 188#0C00833100000000
(1763087657.876791) can0 288#282B099800360000
(1763087657.877799) can0 388#2929312324000000
(1763087657.878093) can0 1A2#800FBC0F000000
(1763087657.878321) can0 2A1#1A1D1C1918151211
(1763087657.878837) can0 000A0003#F88FFFE50EF70000
(1763087657.879123) can0 000A0004#FFD5FFF0FFFA8E02
(1763087657.879316) can0 191#A7A7A8A7A8A6
(1763087657.879738) can0 192#A7A7A8A8A7A8
(1763087657.879961) can0 1A4#800F4E09000000
(1763087657.880195) can0 2A3#131819181714110F
(1763087657.880743) can0 193#A7A8A9A8A8A8
(1763087657.881753) can0 194#A8A9A9A9A8A8
(1763087657.882759) can0 195#A7A7A8A8A8A8
(1763087657.883742) can0 291#1A1F201F201E
(1763087657.884745) can0 292#1C20211E211D
(1763087657.885750) can0 293#1B1E201E1F1D
(1763087657.885990) can0 482#DF042B0008360001
(1763087657.886763) can0 294#1B1F1F1E1F1D
(1763087657.887772) can0 295#1A1F1F1C1E1C
(1763087657.888845) can0 000A0003#F86EFF5A0EEE0000
(1763087657.889130) can0 000A0004#FFD6FFF4FFFD8E02
(1763087657.890837) can0 281#DC04000037000000
(1763087657.896216) can0 701#05
(1763087657.896516) can0 382#4F1534FF4C150000
(1763087657.898849) can0 000A0003#F859FF030EF00000
(1763087657.899136) can0 000A0004#FFDAFFF900008E02
(1763087657.899378) can0 181#D10300207F000009
(1763087657.906149) can0 186#C2214C1D09070000
(1763087657.908838) can0 000A0003#F82BFEA10EEF0000
(1763087657.909127) can0 000A0004#FFD8000200008E02
(1763087657.910154) can0 482#F704280008360001
(1763087657.913023) can0 682#494C49040000B604
(1763087657.917910) can0 701#05
(1763087657.918477) can0 382#601124FFE30F0000
(1763087657.918834) can0 000A0003#F7E2FE790EE70000
(1763087657.919122) can0 000A0004#FFD7000600008E02
(1763087657.922178) can0 4C4#06A806BE065706FC
(1763087657.923210) can0 4C5#070806EC06B60681
(1763087657.924206) can0 4C6#06AE06D106E106FA
(1763087657.925219) can0 4C7#072A06AD063F064E
(1763087657.926250) can0 4C8#062D000000000000
(1763087657.928862) can0 000A0003#F7A9FEA20EE80000
(1763087657.929132) can0 000A0004#FFD5000AFFFF8E02
(1763087657.929856) can0 000A0000#0000000000000000
(1763087657.930156) can0 000A0001#0000000000000000
(1763087657.930454) can0 000A0002#0000000000000000
(1763087657.931890) can0 482#CA041A0008360001
(1763087657.934524) can0 281#C304000022000000
(1763087657.936541) can0 1A3#800F760B000000
(1763087657.938839) can0 000A0003#F788FED70EEB0000
(1763087657.939127) can0 000A0004#FFD7001000028E02
(1763087657.939743) can0 701#05
(1763087657.940280) can0 382#E80CF9FF150D0000
(1763087657.940548) can0 181#D10300207F000009
(1763087657.945277) can0 1A0#000000000000
(1763087657.946145) can0 186#431D4C1D09080000
(1763087657.948845) can0 000A0003#F75FFF0D0ECC0000
(1763087657.949131) can0 000A0004#FFD30016FFFE8E02
(1763087657.953727) can0 682#494C570400002E04
(1763087657.954195) can0 482#CD04170008360001
(1763087657.958848) can0 000A0003#F746FF160E6A0000
(1763087657.959132) can0 000A0004#FFCF0016FFFC8E02
(1763087657.961884) can0 701#05
(1763087657.962264) can0 382#EE0ACBFF570B0000
(1763087657.966193) can0 189#B206EF0457013251
(1763087657.966605) can0 080#
(1763087657.967727) can0 286#0000580200000000
(1763087657.968845) can0 000A0003#F761FEF00E3D0000
(1763087657.969131) can0 000A0004#FFCF0018FFFC8E02
(1763087657.972130) can0 1A5#0016350C000000
(1763087657.975663) can0 482#3205170008360001
(1763087657.978412) can0 181#D10300207F000009
(1763087657.978728) can0 281#330500001D000000
(1763087657.979010) can0 000A0003#F784FEC90E300000
(1763087657.979298) can0 000A0004#FFCE0018FFFD8E02
(1763087657.983410) can0 701#05
(1763087657.983978) can0 382#E10B8D00570B0000
(1763087657.984994) can0 188#0C007C3000000000
(1763087657.985716) can0 1A2#C011420F000000
(1763087657.985956) can0 288#282B1F5900360000
(1763087657.986190) can0 186#36214C1D09090000
(1763087657.986418) can0 2A1#1A1D1C1918161211
(1763087657.986790) can0 388#2929302324000000
(1763087657.987019) can0 1A4#C0137F09000000
(1763087657.987250) can0 2A3#131919181714110F
(1763087657.987487) can0 4C4#06A806BE065706FC
(1763087657.987739) can0 191#A7A7A8A7A8A6
(1763087657.988219) can0 4C5#070806EC06B00681
(1763087657.988747) can0 192#A7A7A8A8A7A8
(1763087657.989029) can0 000A0003#F7ABFEA40E220000
(1763087657.989315) can0 000A0004#FFC9001AFFF98E02
(1763087657.989545) can0 4C6#06AC06C906DC06F2
(1763087657.989753) can0 193#A7A8A9A8A8A8
(1763087657.990245) can0 4C7#072806AA06430646
(1763087657.990763) can0 194#A8A9A9A9A8A8
(1763087657.991278) can0 4C8#062D000000000000
(1763087657.991741) can0 195#A7A7A8A8A8A8
(1763087657.992752) can0 291#1A1F201F201E
(1763087657.993753) can0 292#1C20211E211D
(1763087657.994769) can0 682#494C59040000B803
(1763087657.994963) can0 293#1B1E201E1F1D
(1763087657.995742) can0 294#1B1F1F1E1F1D
(1763087657.996750) can0 295#1A1F1F1C1E1C
(1763087657.997416) can0 482#22051A0008360001
(1763087657.998848) can0 000A0003#F7BDFEA80E200000
(1763087657.999136) can0 000A0004#FFC00010FFF78E02
(1763087658.005234) can0 701#05
(1763087658.005714) can0 382#D70CB9FFDF0C0000
(1763087658.008851) can0 000A0003#F7E2FEBC0E210000
(1763087658.009138) can0 000A0004#FFBE000DFFF68E02
(1763087658.016504) can0 181#D10300207F000009
(1763087658.018853) can0 000A0003#F839FEF30E270000
(1763087658.019141) can0 000A0004#FFC20005FFF78E02
(1763087658.019456) can0 482#0F051A0008360001
(1763087658.021852) can0 281#0D05000021000000
(1763087658.026144) can0 186#401E4C1D090A0000
(1763087658.027302) can0 701#05
(1763087658.027674) can0 382#820C63FFDF0C0000
(1763087658.028859) can0 000A0003#F88FFF150E210000
(1763087658.029136) can0 000A0004#FFC90005FFFA8E02
(1763087658.029864) can0 000A0000#0000000000000000
(1763087658.030164) can0 000A0001#0000000000000000
(1763087658.030462) can0 000A0002#0000000000000000
(1763087658.035619) can0 682#494C590400008003
(1763087658.037616) can0 1A3#C011760B000000
(1763087658.038859) can0 000A0003#F8E5FF150E060000
(1763087658.039148) can0 000A0004#FFCB0005FFFC8E02
(1763087658.041097) can0 482#2D05180008360001
(1763087658.045281) can0 1A0#000000000000
(1763087658.048855) can0 000A0003#F91CFEFA0DE10000
(1763087658.049143) can0 000A0004#FFCE000900008E02
(1763087658.049462) can0 382#C50BA300B90B0000
(1763087658.049582) can0 701#05
(1763087658.052248) can0 4C4#06A406AD064606F1
(1763087658.053260) can0 4C5#06F806E406B0067C
(1763087658.054273) can0 4C6#06A906C406D706ED
(1763087658.054944) can0 181#D10300207F000009
(1763087658.055286) can0 4C7#072506A206430643
(1763087658.056318) can0 4C8#062D000000000000
(1763087658.058084) can0 19A#00007F686F7F7F7F
(1763087658.058859) can0 000A0003#F954FEAC0D8E0000
(1763087658.059146) can0 000A0004#FFD3000F00038E02
(1763087658.059386) can0 29A#8073818183820000
(1763087658.062902) can0 482#2A05180008360001
(1763087658.065630) can0 281#2A0500001E000000
(1763087658.066170) can0 186#6A234C1D090B0000
(1763087658.066727) can0 189#C106FE0457013351
(1763087658.067590) can0 080#
(1763087658.068739) can0 286#0000580200000000
(1763087658.069027) can0 000A0003#F981FE7C0D650000
(1763087658.069315) can0 000A0004#FFCF001A00018E02
(1763087658.070869) can0 701#05
(1763087658.071341) can0 382#030C2500130D0000
(1763087658.074298) can0 1A5#C013C20C000000
(1763087658.076054) can0 188#0C00F23000000000
(1763087658.076647) can0 682#494C590400004B03
(1763087658.076881) can0 288#912B317300360000
(1763087658.077783) can0 388#2929302324000000
(1763087658.078741) can0 191#ABABABABABAA
(1763087658.079025) can0 000A0003#F99BFE810D890000
(1763087658.079314) can0 000A0004#FFCE002200008E02
(1763087658.079751) can0 192#ABABACACABAB
(1763087658.080757) can0 193#ABACACACACAB
(1763087658.081735) can0 194#ABACACACABAC
(1763087658.082127) can0 482#32051C0008360001
(1763087658.082740) can0 195#ABABABACABAB
(1763087658.083757) can0 291#1A1F201F201E
(1763087658.084760) can0 292#1C20201E211D
(1763087658.085764) can0 293#1B1E201E1F1D
(1763087658.086746) can0 294#1B1F1F1E1F1D
(1763087658.087753) can0 295#1A1E1F1C1E1C
(1763087658.088854) can0 000A0003#F9ACFE900DA70000
(1763087658.089142) can0 000A0004#FFCE0027FFFD8E02
(1763087658.092690) can0 701#05
(1763087658.093049) can0 382#D60D0F01B90D0000
(1763087658.093341) can0 1A2#8013420F000000
(1763087658.093584) can0 181#D10300207F000009
(1763087658.093817) can0 2A1#191C1C1918161211
(1763087658.094044) can0 1A4#C00F7F09000000
(1763087658.094270) can0 2A3#131919191713110F
(1763087658.098859) can0 000A0003#F9CEFEBA0DDB0000
(1763087658.099144) can0 000A0004#FFCC0032FFFC8E02
(1763087658.103861) can0 482#52051C0008360001
(1763087658.106131) can0 186#E33C4C1D090C0000
(1763087658.108863) can0 000A0003#F9D4FED40E000000
(1763087658.109150) can0 000A0004#FFC0003AFFF88E02
(1763087658.109412) can0 281#5205000027000000
(1763087658.114434) can0 701#05
(1763087658.114998) can0 382#49108FFF6D100000
(1763087658.117296) can0 4C4#06A706B3064506F3
(1763087658.117819) can0 682#494C540400005D03
(1763087658.118312) can0 4C5#06FC06EB06B70680
(1763087658.118862) can0 000A0003#F9B8FED20E060000
(1763087658.119146) can0 000A0004#FFBC0039FFF88E02
(1763087658.119375) can0 4C6#06AB06C906E006EE
(1763087658.120339) can0 4C7#072206AA063E0632
(1763087658.121367) can0 4C8#062C000000000000
(1763087658.125902) can0 482#57052F0008360001
(1763087658.128874) can0 000A0003#F98EFED00E180000
(1763087658.129154) can0 000A0004#FFB40043FFF58E02
(1763087658.129874) can0 000A0000#0000000000000000
(1763087658.130174) can0 000A0001#0000000000000000
(1763087658.130471) can0 000A0002#0000000000000000
(1763087658.133996) can0 181#D10300207F000009
(1763087658.136497) can0 701#05
(1763087658.137052) can0 382#80171E0198170000
(1763087658.138712) can0 1A3#C00FFC0A000000
(1763087658.138996) can0 000A0003#F984FE830E3A0000
(1763087658.139284) can0 000A0004#FFB00040FFF48E02
(1763087658.145284) can0 1A0#000000000000
(1763087658.146124) can0 186#8E3B4C1D090D0000
(1763087658.147755) can0 482#B005300008360001
(1763087658.148862) can0 000A0003#F968FE5C0E710000
(1763087658.149148) can0 000A0004#FFB00030FFF68E02
(1763087658.152878) can0 281#AD0500003C000000
(1763087658.158462) can0 682#494C410400004004
(1763087658.158572) can0 701#05
(1763087658.158863) can0 000A0003#F940FE710EB10000
(1763087658.159148) can0 000A0004#FFAF0027FFF58E02
(1763087658.159385) can0 382#F717D6FF14170000
(1763087658.166180) can0 189#C406000557013351
(1763087658.166589) can0 080#
(1763087658.167743) can0 286#0000580200000000
(1763087658.168869) can0 000A0003#F907FE8E0F100000
(1763087658.169153) can0 000A0004#FFAE001AFFF78E02
(1763087658.169490) can0 482#68052F0008360001
(1763087658.174942) can0 181#D10300207F000009
(1763087658.176022) can0 188#0C00BC3000000000
(1763087658.176470) can0 1A5#C013F80C000000
(1763087658.176763) can0 288#912B31A900360000
(1763087658.177773) can0 388#2929302324000000
(1763087658.178733) can0 191#ABABABABABAA
(1763087658.179018) can0 000A0003#F891FF180F700000
(1763087658.179305) can0 000A0004#FFB80011FFF88E02
(1763087658.179741) can0 192#ABABACACABAB
(1763087658.180035) can0 701#05
(1763087658.180604) can0 382#831666FF14170000
(1763087658.180794) can0 193#ABACACACACAB
(1763087658.181742) can0 194#ABACACACABAC
(1763087658.182344) can0 4C4#06A706B3064506F3
(1763087658.182748) can0 195#ABABABACABAB
(1763087658.183365) can0 4C5#06FC06EB06B70680
(1763087658.183764) can0 291#1A1F201F201E
(1763087658.184374) can0 4C6#06AB06C906E006EE
(1763087658.184768) can0 292#1C20201E211D
(1763087658.185394) can0 4C7#072206AA063E0632
(1763087658.185723) can0 293#1B1E201E1F1D
(1763087658.186121) can0 186#43394C1D090E0000
(1763087658.186421) can0 4C8#062C000000000000
(1763087658.186735) can0 294#1B1F1F1E1F1D
(1763087658.187743) can0 295#1A1E1F1C1E1C
(1763087658.188876) can0 000A0003#F842FFA00F950000
(1763087658.189165) can0 000A0004#FFC2000EFFFB8E02
(1763087658.189404) can0 482#51052F0008360001
(1763087658.198875) can0 000A0003#F839FFFC0F630000
(1763087658.199162) can0 000A0004#FFC5000DFFFF8E02
(1763087658.199401) can0 682#494C41040000BE04
(1763087658.199740) can0 281#7E05000039000000
(1763087658.200965) can0 1A2#C019950F000000
(1763087658.201189) can0 1A4#00174E09000000
(1763087658.201423) can0 2A1#191C1C1918161211
(1763087658.201647) can0 2A3#1319191917131110
(1763087658.201889) can0 701#05
(1763087658.202356) can0 382#5616EF0031160000
(1763087658.208872) can0 000A0003#F82C00810F1C0000
(1763087658.209161) can0 000A0004#FFC6000F00068E02
(1763087658.210301) can0 482#B2052D0008360001
(1763087658.213035) can0 181#D10300207F000009
(1763087658.218869) can0 000A0003#F7DA00C70ED50000
(1763087658.219157) can0 000A0004#FFC2001500098E02
(1763087658.223840) can0 701#05
(1763087658.224309) can0 382#D516090031160000
(1763087658.226122) can0 186#FF334C1D090F0000
(1763087658.228881) can0 000A0003#F7A600F40EA80000
(1763087658.229152) can0 000A0004#FFBC001B000C8E02
(1763087658.229890) can0 000A0000#0000000000000000
(1763087658.230190) can0 000A0001#0000000000000000
(1763087658.230488) can0 000A0002#0000000000000000
(1763087658.232363) can0 482#A505290008360001
(1763087658.238872) can0 000A0003#F7C600B30E910000
(1763087658.239156) can0 000A0004#FFB80022000E8E02
(1763087658.239780) can0 1A3#001C4A0B000000
(1763087658.240426) can0 682#494C420400001505
(1763087658.242946) can0 281#8205000034000000
(1763087658.245285) can0 1A0#000000000000
(1763087658.245455) can0 701#05
(1763087658.246024) can0 382#AB1389FF27140000
(1763087658.247367) can0 4C4#06A006B4064D06F4
(1763087658.248380) can0 4C5#070006E906B30684
(1763087658.248872) can0 000A0003#F7E500760E7A0000
(1763087658.249156) can0 000A0004#FFB8002C00118E02
(1763087658.249394) can0 4C6#06AC06CC06DC06F4
(1763087658.250407) can0 4C7#072206AD063C063B
(1763087658.251441) can0 4C8#062D000000000000
(1763087658.251681) can0 181#D10300207F000009
(1763087658.254311) can0 482#8305290008360001
(1763087658.258875) can0 000A0003#F83500560E620000
(1763087658.259158) can0 000A0004#FFB5002F000E8E02
(1763087658.264080) can0 19A#00007F78717D807E
(1763087658.265080) can0 29A#8166858185840000
(1763087658.265196) can0 701#05
(1763087658.266156) can0 186#7A3A4C1D09000000
(1763087658.266736) can0 189#A206E50456013151
(1763087658.267605) can0 080#
(1763087658.267869) can0 382#0A14B40027140000
(1763087658.268725) can0 286#0000580200000000
(1763087658.269015) can0 000A0003#F86800420E530000
(1763087658.269303) can0 000A0004#FFB40032000F8E02
(1763087658.275818) can0 482#D0052E0008360001
(1763087658.276063) can0 188#0C00193000000000
(1763087658.276787) can0 288#C62A06B800360000
(1763087658.277797) can0 388#2929302324000000
(1763087658.278635) can0 1A5#C013F80C000000
(1763087658.278921) can0 000A0003#F868002D0E990000
(1763087658.279209) can0 000A0004#FFB3002A00108E02
(1763087658.279397) can0 191#A4A4A5A4A5A3
(1763087658.279767) can0 192#A5A4A5A5A4A5
(1763087658.280741) can0 193#A4A4A5A5A4A4
(1763087658.281384) can0 682#494C410400003805
(1763087658.281750) can0 194#A5A5A5A5A5A5
(1763087658.282754) can0 195#A4A4A5A5A5A4
(1763087658.283774) can0 291#1A1F201F201F
(1763087658.284744) can0 292#1C20201E211D
(1763087658.285748) can0 293#1B1E201E1F1D
(1763087658.286483) can0 701#05
(1763087658.286759) can0 294#1B1F1F1E1F1D
(1763087658.287004) can0 281#FB0500003A000000
(1763087658.287279) can0 382#1D170CFFA9160000
(1763087658.287766) can0 295#1B1E1F1C1E1C
(1763087658.288876) can0 000A0003#F86900180EDC0000
(1763087658.289160) can0 000A0004#FFA8002800108E02
(1763087658.289593) can0 181#D10300207F000009
(1763087658.297874) can0 482#0A062E0008360001
(1763087658.298879) can0 000A0003#F89F001E0F410000
(1763087658.299164) can0 000A0004#FFA30016000E8E02
(1763087658.306114) can0 186#553C4C1D09010000
(1763087658.308136) can0 1A4#C0114E09000000
(1763087658.308361) can0 2A3#1319191917141110
(1763087658.308477) can0 701#05
(1763087658.308703) can0 1A2#C013420F000000
(1763087658.308996) can0 000A0003#F8C200220F820000
(1763087658.309280) can0 000A0004#FFA40011000D8E02
(1763087658.309509) can0 2A1#191D1C1918161211
(1763087658.309741) can0 382#5E166700A9160000
(1763087658.312380) can0 4C4#06A006B4064D06F4
(1763087658.313394) can0 4C5#070006E906B30684
(1763087658.314408) can0 4C6#06AC06CC06DC06F4
(1763087658.315420) can0 4C7#072206AD063C063B
(1763087658.316452) can0 4C8#062D000000000000
(1763087658.318880) can0 000A0003#F951FFC80FDE0000
(1763087658.319166) can0 000A0004#FFACFFFA00088E02
(1763087658.319587) can0 482#C2052F0008360001
(1763087658.322224) can0 682#494C3D0400009805
(1763087658.327680) can0 181#D10300207F000009
(1763087658.328895) can0 000A0003#FA06FF7110360000
(1763087658.329168) can0 000A0004#FFB5FFE7000B8E02
(1763087658.329891) can0 000A0000#0000000000000000
(1763087658.330191) can0 000A0001#0000000000000000
(1763087658.330489) can0 000A0002#0000000000000000
(1763087658.330605) can0 701#05
(1763087658.330845) can0 382#9416660061170000
(1763087658.331093) can0 281#C00500003C000000
(1763087658.338890) can0 000A0003#FA9AFF42105D0000
(1763087658.339185) can0 000A0004#FFBAFFD700108E02
(1763087658.340878) can0 1A3#C0194A0B000000
(1763087658.341334) can0 482#E5052F0008360001
(1763087658.345279) can0 1A0#000000000000
(1763087658.346121) can0 186#3C3C4C1D09020000
(1763087658.348893) can0 000A0003#FAF9FF2310750000
(1763087658.349177) can0 000A0004#FFB7FFCC00128E02
(1763087658.351906) can0 701#05
(1763087658.352478) can0 382#0A17E8FF57170000
(1763087658.358881) can0 000A0003#FB25FF1C10C30000
(1763087658.359164) can0 000A0004#FFB8FFCA00128E02
(1763087658.360769) can0 482#21062F0008360001
(1763087658.363166) can0 682#494C3A040000E705
(1763087658.366103) can0 181#D10300207F000009
(1763087658.366331) can0 189#B906F70457013351
(1763087658.366607) can0 080#
(1763087658.367761) can0 286#0000580200000000
(1763087658.368874) can0 000A0003#FB21FF15110E0000
(1763087658.369162) can0 000A0004#FFC0FFD200138E02
(1763087658.374022) can0 281#190600003C000000
(1763087658.374102) can0 701#05
(1763087658.374437) can0 382#13179AFF57170000
(1763087658.376049) can0 188#0C00CE3000000000
(1763087658.376994) can0 288#C62A06C500360000
(1763087658.377439) can0 4C4#06A306B3064F06F6
(1763087658.377817) can0 388#2929302324000000
(1763087658.378461) can0 4C5#06FC06E806AF067B
(1763087658.378784) can0 191#A4A4A5A4A5A3
(1763087658.379053) can0 000A0003#FB12FF3F112C0000
(1763087658.379353) can0 000A0004#FFC7FFD200168E02
(1763087658.379579) can0 4C6#06AB06C606D606F1
(1763087658.379767) can0 192#A5A4A5A5A4A5
(1763087658.380530) can0 4C7#072406AA063E0645
(1763087658.380755) can0 193#A4A4A5A5A4A4
(1763087658.380974) can0 1A5#0018EB0B000000
(1763087658.381531) can0 4C8#062C000000000000
(1763087658.381747) can0 194#A5A5A5A5A5A5
(1763087658.382779) can0 195#A4A4A5A5A5A4
(1763087658.383745) can0 291#1A1F201F201F
(1763087658.384749) can0 292#1C20201E211D
(1763087658.385098) can0 482#FD052F0008360001
(1763087658.385751) can0 293#1B1E201E1F1D
(1763087658.386107) can0 186#263B4C1D09030000
